EC-Lab ASCII FILE
Nb header lines : 64                          

Potentio Electrochemical Impedance Spectroscopy

Run on channel : 5 (SN 30436)
User : 
CE vs. WE compliance from -10 V to 10 V
Electrode connection : standard
Potential control : Ewe
Ewe ctrl range : min = -2.50 V, max = 2.50 V
Safety Limits :
	Do not start on E overload
Acquisition started on : 01/20/2023 15:27:01.195
Loaded Setting File :  NONE
Saved on :
	File : 2023_01_20_CoNiFeNx_400ºC_24h_electrode1_set1_20012023_C05.mpr
	Directory : C:\Users\grupogalan\Documents\EC-Lab\Data\Lole Jurado\
	Host : 169.254.104.159
Device : VSP (SN 1176)
Address : USB
EC-Lab for windows v11.46 (software)
Internet server v11.40 (firmware)
Command interpretor v11.40 (firmware)
Electrode material : 
Initial state : 
Electrolyte : 
Comments : 
Electrode surface area : 0.001 cm²
Characteristic mass : 0.001 g
Equivalent Weight : 0.000 g/eq.
Density : 0.000 g/cm3
Volume (V) : 0.001 cm³
Record Ece
Cycle Definition : Charge/Discharge alternance
Mode                Single sine         
E (V)               0.0000              
vs.                 Eoc                 
tE (h:m:s)          0:00:0.0000         
record              0                   
dI                  0.000               
unit dI             mA                  
dt (s)              0.000               
fi                  200.000             
unit fi             kHz                 
ff                  100.000             
unit ff             mHz                 
Nd                  6                   
Points              per decade          
spacing             Logarithmic         
Va (mV)             10.0                
pw                  0.10                
Na                  2                   
corr                0                   
E range min (V)     -2.500              
E range max (V)     2.500               
I Range             Auto                
Bandwidth           5                   
nc cycles           0                   
goto Ns'            0                   
nr cycles           0                   
inc. cycle          0                   

freq/Hz	Re(Z)/Ohm	-Im(Z)/Ohm	|Z|/Ohm	Phase(Z)/deg	time/s	<Ewe>/V	<I>/mA	Cs/µF	Cp/µF	cycle number	I Range	|Ewe|/V	|I|/A	Ns	(Q-Qo)/mA.h	<Ece>/V	|Ece|/V	Phase(Zce)/deg	|Zce|/Ohm	Re(Zce)/Ohm	-Im(Zce)/Ohm	Phase(Zwe-ce)/deg	|Zwe-ce|/Ohm	Re(Zwe-ce)/Ohm	-Im(Zwe-ce)/Ohm	Re(Y)/Ohm-1	Im(Y)/Ohm-1	|Y|/Ohm-1	Phase(Y)/deg	dq/mA.h	
1.9999814E+005	1.8718013E+000	-1.4550710E+000	2.3708377E+000	3.7860210E+001	2.198543171078200E+000	-1.4049917E-001	-1.6876318E-001	-5.4690266E-001	-2.0600355E-001	1.000000000000000E+000	9	8.1317518E-003	3.4299067E-003	0	-2.122907316789497E-005	-1.1131749E-001	3.7991980E-003	-2.2025780E+001	1.1076680E+000	1.0268251E+000	4.1540182E-001	1.9731718E+001	3.0794394E+000	2.8986263E+000	-1.0396692E+000	3.3300909E-001	-2.5886929E-001	4.2179185E-001	-3.7860210E+001	-2.122907316789497E-005
1.3512284E+005	1.3181072E+000	-6.7787308E-001	1.4822006E+000	2.7215746E+001	2.575558708951576E+000	-1.4073542E-001	-1.7163286E-001	-1.7375727E+000	-3.6343417E-001	1.000000000000000E+000	9	1.0105083E-002	6.8176216E-003	0	-4.111591470541639E-005	-1.0700053E-001	1.1670091E-002	1.4064863E+000	1.7117540E+000	1.7112383E+000	-4.2015601E-002	1.3367723E+001	3.1137075E+000	3.0293455E+000	-7.1988869E-001	5.9998000E-001	-3.0855629E-001	6.7467248E-001	-2.7215746E+001	-1.988684153752143E-005
9.1291195E+004	1.1794411E+000	-3.3080846E-001	1.2249553E+000	1.5667692E+001	3.074530785990646E+000	-1.4018396E-001	-1.0070869E-001	-5.2700486E+000	-3.8435042E-001	1.000000000000000E+000	9	1.0715019E-002	8.7472731E-003	0	-6.669083910626876E-005	-1.1087815E-001	1.5796825E-002	3.8451848E+000	1.8059143E+000	1.8018490E+000	-1.2110600E-001	8.6194773E+000	3.0153470E+000	2.9812901E+000	-4.5191446E-001	7.8602391E-001	-2.2046319E-001	8.1635630E-001	-1.5667692E+001	-2.557492440085237E-005
6.1674211E+004	1.1698831E+000	-1.2789111E-001	1.1768528E+000	6.2387753E+000	3.451513923908351E+000	-1.4067979E-001	-1.4617768E-001	-2.0177910E+001	-2.3829371E-001	1.000000000000000E+000	9	9.3891434E-003	7.9781795E-003	0	-1.087475465294750E-004	-1.2008513E-001	1.3850306E-002	4.9223075E+000	1.7360234E+000	1.7296209E+000	-1.4895919E-001	5.4541774E+000	2.9126914E+000	2.8995042E+000	-2.7685028E-001	8.4469157E-001	-9.2341311E-002	8.4972394E-001	-6.2387753E+000	-4.205670742320621E-005
4.1669758E+004	1.1045706E+000	6.0480032E-002	1.1062251E+000	-3.1340630E+000	3.828515515167965E+000	-1.4092627E-001	-1.6339619E-001	6.3152004E+001	1.8876615E-001	1.000000000000000E+000	9	9.9924877E-003	9.0329600E-003	0	-1.238203020503020E-004	-9.7239614E-002	1.6320184E-002	2.1328974E-001	1.8067371E+000	1.8067245E+000	-6.7257583E-003	-1.0577915E+000	2.9117913E+000	2.9112952E+000	5.3754274E-002	9.0262312E-001	4.9422532E-002	9.0397513E-001	3.1340630E+000	-1.507275552082705E-005
2.8150979E+004	1.1413751E+000	2.0128313E-001	1.1589874E+000	-1.0001359E+001	4.327543245541165E+000	-1.4054066E-001	-1.2321956E-001	2.8087902E+001	8.4718174E-001	1.000000000000000E+000	9	9.9146804E-003	8.5546058E-003	0	-1.059904799702538E-004	-1.1441195E-001	1.5448943E-002	-7.8656286E-001	1.8059211E+000	1.8057510E+000	2.4791108E-002	-4.3865724E+000	2.9557843E+000	2.9471259E+000	2.2607423E-001	8.4971040E-001	1.4984766E-001	8.6282218E-001	1.0001359E+001	1.782982208004818E-005
1.9020934E+004	1.1482641E+000	2.4165010E-001	1.1734160E+000	-1.1884372E+001	4.704552356764907E+000	-1.3994464E-001	-7.0147604E-002	3.4625919E+001	1.4684910E+000	1.000000000000000E+000	9	1.0095092E-002	8.6031659E-003	0	-7.317786477459595E-005	-1.1105007E-001	1.4891533E-002	-1.9759011E+000	1.7309364E+000	1.7299073E+000	5.9681207E-002	-5.9768305E+000	2.8939025E+000	2.8781714E+000	3.0133131E-001	8.3394563E-001	1.7550236E-001	8.5221267E-001	1.1884372E+001	3.281261519565789E-005
1.2850729E+004	1.2104454E+000	4.9352774E-001	1.3071908E+000	-2.2181906E+001	5.203521473769797E+000	-1.4072165E-001	-1.5143272E-001	2.5094631E+001	3.5770583E+000	1.000000000000000E+000	9	9.5834024E-003	7.3312959E-003	0	-9.301315187968107E-005	-1.0470834E-001	1.2879992E-002	-2.3094049E+000	1.7568506E+000	1.7554237E+000	7.0793711E-002	-1.0773001E+001	3.0190790E+000	2.9658689E+000	5.6432146E-001	7.0838159E-001	2.8882423E-001	7.6499927E-001	2.2181906E+001	-1.983528710508512E-005
8.6846787E+003	1.1967460E+000	6.4278072E-001	1.3584433E+000	-2.8240559E+001	5.458559965918539E+000	-1.4019948E-001	-1.6209184E-001	2.8510416E+001	6.3833141E+000	1.000000000000000E+000	9	9.8879673E-003	7.2788959E-003	0	-1.012859635348820E-004	-1.0251166E-001	1.2891961E-002	-2.2656703E+000	1.7711424E+000	1.7697577E+000	7.0018746E-002	-1.3511047E+001	3.0509386E+000	2.9665036E+000	7.1279949E-001	6.4851344E-001	3.4832114E-001	7.3613673E-001	2.8240559E+001	-8.272811655200913E-006
5.8640142E+003	1.2555590E+000	8.5203385E-001	1.5173628E+000	-3.4161179E+001	5.713559364696266E+000	-1.4060020E-001	-1.7155834E-001	3.1854315E+001	1.0043917E+001	1.000000000000000E+000	9	9.7027170E-003	6.3944608E-003	0	-1.068447330312079E-004	-1.1425914E-001	1.1796913E-002	-9.6344769E-001	1.8448644E+000	1.8446035E+000	3.1020550E-002	-1.5899143E+001	3.2234752E+000	3.1001625E+000	8.8305438E-001	5.4532850E-001	3.7006497E-001	6.5903813E-001	3.4161179E+001	-5.558769496325915E-006
3.9600762E+003	1.3037337E+000	1.2760519E+000	1.8242888E+000	-4.4385223E+001	6.014866605692077E+000	-1.4011352E-001	-1.7830417E-001	3.1495481E+001	1.5409825E+001	1.000000000000000E+000	9	9.5819645E-003	5.2524381E-003	0	-1.213477867269733E-004	-1.0451733E-001	9.7402604E-003	-5.4855528E+000	1.8544265E+000	1.8459338E+000	1.7727345E-001	-2.4769630E+001	3.4687979E+000	3.1496675E+000	1.4533253E+000	3.9174339E-001	3.8342562E-001	5.4815882E-001	4.4385223E+001	-1.450305369576542E-005
2.6787200E+003	1.4002044E+000	1.7126071E+000	2.2121472E+000	-5.0731033E+001	6.444103639369132E+000	-1.4046857E-001	-1.5024017E-001	3.4692459E+001	2.0793255E+001	1.000000000000000E+000	9	9.0570915E-003	4.0942533E-003	0	-1.357359027949214E-004	-1.0772640E-001	7.4701016E-003	-4.7531705E+000	1.8245333E+000	1.8182586E+000	1.5118694E-001	-3.0074894E+001	3.7191708E+000	3.2184629E+000	1.8637941E+000	2.8612998E-001	3.4996909E-001	4.5204946E-001	5.0731033E+001	-1.438811606794804E-005
1.8082643E+003	1.6431682E+000	2.5154903E+000	3.0046120E+000	-5.6846634E+001	7.103092790668597E+000	-1.3964187E-001	-1.5057562E-001	3.4989326E+001	2.4524723E+001	1.000000000000000E+000	9	1.0472895E-002	3.4856063E-003	0	-1.583283060323965E-004	-1.0104083E-001	7.3225144E-003	-9.1152020E+000	2.1007864E+000	2.0742574E+000	3.3280668E-001	-3.7459389E+001	4.6831665E+000	3.7174256E+000	2.8482969E+000	1.8201417E-001	2.7864152E-001	3.3282167E-001	5.6846634E+001	-2.259240323747508E-005
1.2219551E+003	1.5774417E+000	3.8998990E+000	4.2068439E+000	-6.7977516E+001	7.791513410076732E+000	-1.4035970E-001	-2.3946643E-002	3.3397316E+001	2.8701559E+001	1.000000000000000E+000	10	1.1126876E-002	2.6449463E-003	0	-1.705428591874661E-004	-1.1913005E-001	5.2687982E-003	-1.3333758E+001	1.9920247E+000	1.9383260E+000	4.5940688E-001	-5.1113926E+001	5.6003723E+000	3.5157676E+000	4.3593059E+000	8.9133427E-002	2.2036396E-001	2.3770790E-001	6.7977516E+001	-1.221455315506963E-005
8.2526404E+002	1.7333640E+000	4.9800739E+000	5.2731099E+000	-7.0809044E+001	8.236774284581770E+000	-1.4033574E-001	-1.4637405E-002	3.8724998E+001	3.4540558E+001	1.000000000000000E+000	10	9.6590612E-003	1.8317580E-003	0	-1.737082647961814E-004	-1.1551984E-001	4.2386502E-003	5.5066693E-001	2.3139794E+000	2.3138726E+000	-2.2239201E-002	-5.0774155E+001	6.4000192E+000	4.0472364E+000	4.9578347E+000	6.2338468E-002	1.7910272E-001	1.8964142E-001	7.0809044E+001	-3.165405608715358E-006
5.5803571E+002	2.2913806E+000	7.3596039E+000	7.7080603E+000	-7.2706253E+001	8.683568412408931E+000	-1.4009677E-001	-2.1478627E-002	3.8752857E+001	3.5328270E+001	1.000000000000000E+000	10	9.6947886E-003	1.2577468E-003	0	-1.755277217422716E-004	-1.1288382E-001	2.2693640E-003	-1.6389332E+001	1.8043090E+000	1.7309936E+000	5.0910896E-001	-6.2924526E+001	8.8372021E+000	4.0223742E+000	7.8687129E+000	3.8566209E-002	1.2386946E-001	1.2973432E-001	7.2706253E+001	-1.819456946090115E-006
3.7705118E+002	2.1236198E+000	1.0947179E+001	1.1151255E+001	-7.9021667E+001	9.126746993511915E+000	-1.4023300E-001	-2.7876185E-002	3.8558273E+001	3.7159901E+001	1.000000000000000E+000	10	9.8108761E-003	8.7980024E-004	0	-1.788642306678683E-004	-1.2701900E-001	1.8002563E-003	-3.5826626E+001	2.0462103E+000	1.6590507E+000	1.1977175E+000	-7.2700188E+001	1.2720343E+001	3.7826705E+000	1.2144897E+001	1.7077697E-002	8.8034868E-002	8.9676008E-002	7.9021667E+001	-3.336508925596703E-006
2.5475545E+002	2.6237345E+000	1.5605683E+001	1.5824706E+001	-8.0456299E+001	9.573114934697514E+000	-1.4042495E-001	-1.6136168E-002	4.0032604E+001	3.8932129E+001	1.000000000000000E+000	10	9.6713435E-003	6.1115471E-004	0	-1.815289408581043E-004	-1.0912081E-001	1.3408352E-003	-3.7301586E+001	2.1939375E+000	1.7451823E+000	1.3295490E+000	-7.5534355E+001	1.7489698E+001	4.3689165E+000	1.6935232E+001	1.0477277E-002	6.2317714E-002	6.3192330E-002	8.0456299E+001	-2.664710190236088E-006
1.7203688E+002	3.6902552E+000	2.3722530E+001	2.4007841E+001	-8.1157990E+001	1.025545918042189E+001	-1.3967735E-001	-1.9144821E-003	3.8997570E+001	3.8076180E+001	1.000000000000000E+000	11	1.0238724E-002	4.2647417E-004	0	-1.833200141809777E-004	-1.0761178E-001	1.1594322E-003	-4.2735634E+001	2.7186458E+000	1.9968255E+000	1.8449181E+000	-7.7459610E+001	2.6192312E+001	5.6870804E+000	2.5567448E+001	6.4025079E-003	4.1158050E-002	4.1653059E-002	8.1157990E+001	-1.791073322873391E-006
1.1622738E+002	5.1570048E+000	3.4561291E+001	3.4943920E+001	-8.1513321E+001	1.069577898803982E+001	-1.4021157E-001	-2.2276537E-003	3.9620663E+001	3.8757736E+001	1.000000000000000E+000	11	1.0246677E-002	2.9323206E-004	0	-1.836996354427069E-004	-1.1213886E-001	9.0861006E-004	1.1466616E+001	3.0986040E+000	3.0367579E+000	-6.1599296E-001	-7.6429451E+001	3.4920208E+001	8.1937628E+000	3.3945297E+001	4.2233230E-003	2.8303929E-002	2.8617281E-002	8.1513321E+001	-3.796212617291587E-007
7.8517616E+001	5.9007092E+000	4.7121494E+001	4.7489510E+001	-8.2862389E+001	1.114962263627240E+001	-1.3905190E-001	9.6479943E-004	4.3016388E+001	4.2352272E+001	1.000000000000000E+000	11	9.6385134E-003	2.0296090E-004	0	-1.838023586519929E-004	-1.0965566E-001	1.0448543E-003	-5.2883984E+001	5.1480570E+000	3.1064968E+000	4.1051393E+000	-8.0027588E+001	5.2012478E+001	9.0072060E+000	5.1226635E+001	2.6164274E-003	2.0894101E-002	2.1057282E-002	8.2862389E+001	-1.027232092860300E-007
5.3047844E+001	9.7467728E+000	7.0462700E+001	7.1133621E+001	-8.2124519E+001	1.161027839142480E+001	-1.4060685E-001	-3.5649610E-003	4.2578766E+001	4.1779362E+001	1.000000000000000E+000	11	1.0002746E-002	1.4061910E-004	0	-1.843605956208242E-004	-1.1456476E-001	1.1750004E-003	-1.3543203E+001	8.3559093E+000	8.1235619E+000	1.9567744E+000	-7.6138527E+001	7.4591743E+001	1.7870335E+001	7.2419472E+001	1.9262432E-003	1.3925457E-002	1.4058050E-002	8.2124519E+001	-5.582369688313072E-007
3.5837154E+001	5.9483194E+000	1.0034698E+002	1.0052312E+002	-8.6607620E+001	1.204618915883475E+001	-1.4022419E-001	-1.7418741E-003	4.4257038E+001	4.4102070E+001	1.000000000000000E+000	11	9.8782601E-003	9.8268531E-005	0	-1.845296558597774E-004	-1.2019973E-001	1.0223683E-003	-6.8698639E+001	1.0403822E+001	3.7794318E+000	9.6930599E+000	-8.4948074E+001	1.1046918E+002	9.7277508E+000	1.1004004E+002	5.8865664E-004	9.9305278E-003	9.9479593E-003	8.6607620E+001	-1.690602389531261E-007
2.4232319E+001	7.0723009E+000	1.4516090E+002	1.4533308E+002	-8.7210732E+001	1.275420228575240E+001	-1.4089866E-001	-1.0736597E-003	4.5245510E+001	4.5138367E+001	1.000000000000000E+000	12	9.8669343E-003	6.7891866E-005	0	-1.847121596068440E-004	-1.0782190E-001	8.8872039E-004	-1.1354002E+002	1.3090234E+001	-5.2281032E+000	1.2000881E+001	-8.9327698E+001	1.5717261E+002	1.8441978E+000	1.5716179E+002	3.3483561E-004	6.8725939E-003	6.8807458E-003	8.7210732E+001	-1.825037470666222E-007
1.6366972E+001	4.0563122E+001	2.0922595E+002	2.1312172E+002	-7.9028046E+001	1.316414963858551E+001	-1.4044361E-001	-7.5341959E-004	4.6476807E+001	4.4793182E+001	1.000000000000000E+000	12	1.0253159E-002	4.8109407E-005	0	-1.845965186616866E-004	-1.1040062E-001	8.7202532E-004	-4.6186275E+001	1.8125879E+001	1.2548837E+001	1.3079534E+001	-7.6563103E+001	2.2856204E+002	5.3111958E+001	2.2230548E+002	8.9305063E-004	4.6063839E-003	4.6921545E-003	7.9028046E+001	1.156409451574033E-007
1.1050212E+001	5.3446457E+001	3.0718600E+002	3.1180084E+002	-8.0130066E+001	1.356984317788738E+001	-1.3999450E-001	-9.0062397E-004	4.6886532E+001	4.5508907E+001	1.000000000000000E+000	12	1.0250363E-002	3.2874712E-005	0	-1.848750411203348E-004	-1.0822304E-001	9.7908918E-004	-5.4764610E+001	2.9782442E+001	1.7182590E+001	2.4325962E+001	-7.7972885E+001	3.3895227E+002	7.0629044E+001	3.3151196E+002	5.4974883E-004	3.1597074E-003	3.2071755E-003	8.0130066E+001	-2.785224586481893E-007
7.4689322E+000	1.0052934E+002	4.2109583E+002	4.3292938E+002	-7.6572945E+001	1.387770137917687E+001	-1.4094359E-001	-2.1588097E-003	5.0603516E+001	4.7874962E+001	1.000000000000000E+000	12	1.0373280E-002	2.3960676E-005	0	-1.848559821911959E-004	-1.3206182E-001	1.3654169E-003	-5.0821533E+001	5.6985741E+001	3.6000061E+001	4.4174316E+001	-7.3646141E+001	4.8488821E+002	1.3652940E+002	4.6527014E+002	5.3636282E-004	2.2467091E-003	2.3098455E-003	7.6572945E+001	1.905892913883203E-008
5.0468345E+000	1.0286090E+002	5.7918628E+002	5.8824921E+002	-7.9929527E+001	1.432004326683818E+001	-1.3996319E-001	-4.0339609E-004	5.4448112E+001	5.2783314E+001	1.000000000000000E+000	12	9.7985165E-003	1.6657084E-005	0	-1.847985589115772E-004	-1.1028600E-001	9.0472051E-004	4.4138184E+000	5.4314457E+001	5.4153374E+001	-4.1800132E+000	-7.4726852E+001	5.9605847E+002	1.5701428E+002	5.7500629E+002	2.9725384E-004	1.6737692E-003	1.6999597E-003	7.9929527E+001	5.742327961868804E-008
3.4085953E+000	1.8675273E+002	8.1234363E+002	8.3353387E+002	-7.7053017E+001	1.529738736656145E+001	-1.4054430E-001	-7.3337246E-004	5.7478432E+001	5.4593124E+001	1.000000000000000E+000	13	9.6004680E-003	1.1517790E-005	0	-1.850374733409519E-004	-1.0935003E-001	4.8650778E-004	-9.3727928E+001	4.2239681E+001	-2.7463689E+000	4.2150303E+001	-7.7847527E+001	8.7408136E+002	1.8400636E+002	8.5449396E+002	2.6879457E-004	1.1692120E-003	1.1997113E-003	7.7053017E+001	-2.389144293746487E-007
2.3032136E+000	2.6134949E+002	1.1409064E+003	1.1704575E+003	-7.7097755E+001	1.623429933105945E+001	-1.4034417E-001	-6.0455204E-004	6.0566978E+001	5.7547256E+001	1.000000000000000E+000	13	9.4874008E-003	8.1057196E-006	0	-1.852959485923461E-004	-1.0102173E-001	6.8066356E-004	-4.7222145E+001	8.3973244E+001	5.7031071E+001	6.1635723E+001	-7.5170822E+001	1.2439750E+003	3.1838055E+002	1.2025421E+003	1.9077011E-004	8.3279610E-004	8.5436675E-004	7.7097755E+001	-2.584752513941704E-007
1.5562749E+000	4.6788638E+002	1.6758231E+003	1.7399141E+003	-7.4400375E+001	1.760787302299286E+001	-1.4011718E-001	-3.9172510E-004	6.1024700E+001	5.6611729E+001	1.000000000000000E+000	13	9.9550849E-003	5.7215957E-006	0	-1.854192735270788E-004	-1.0172849E-001	6.5987778E-004	-3.8148327E+001	1.1533108E+002	9.0698006E+001	7.1239937E+001	-7.2269485E+001	1.8341881E+003	5.5858441E+002	1.7470631E+003	1.5455563E-004	5.5357005E-004	5.7474105E-004	7.4400375E+001	-1.233249347327243E-007
1.0523305E+000	3.8947781E+002	2.3825120E+003	2.4141367E+003	-8.0715775E+001	2.990693139383802E+001	-1.4041787E-001	-3.7587242E-004	6.3479412E+001	6.1827164E+001	1.000000000000000E+000	13	1.0028658E-002	4.1541384E-006	0	-1.867991315214353E-004	-1.2132673E-001	5.1914901E-004	-6.8941124E+001	1.2497152E+002	4.4905655E+001	1.1662488E+002	-8.0139732E+001	2.5366067E+003	4.3438348E+002	2.4991367E+003	6.6828077E-005	4.0880046E-004	4.1422676E-004	8.0715775E+001	-1.379857994356526E-006
7.1035653E-001	9.2703687E+002	3.2924663E+003	3.4204871E+003	-7.4274742E+001	4.777695397596108E+001	-1.4050615E-001	-5.8321655E-004	6.8049110E+001	6.3050594E+001	1.000000000000000E+000	13	1.0238687E-002	2.9933417E-006	0	-1.891664504233215E-004	-1.1332316E-001	5.9649366E-004	-6.1415867E+001	1.9927350E+002	9.5342148E+001	1.7498515E+002	-7.3571831E+001	3.6150349E+003	1.0223790E+003	3.4674514E+003	7.9235739E-005	2.8141384E-004	2.9235604E-004	7.4274742E+001	-2.367318901886180E-006
4.8035541E-001	1.2755702E+003	4.9395806E+003	5.1016211E+003	-7.5520576E+001	7.379588563845027E+001	-1.4039545E-001	-6.5609807E-004	6.7076035E+001	6.2882690E+001	1.000000000000000E+000	13	9.8972274E-003	1.9400161E-006	0	-1.932050755527028E-004	-1.0075431E-001	8.3515199E-004	-5.9328819E+001	4.3048715E+002	2.1959595E+002	3.7026587E+002	-7.4273643E+001	5.5163389E+003	1.4951661E+003	5.3098467E+003	4.9010363E-005	1.8979017E-004	1.9601613E-004	7.5520576E+001	-4.038625129381329E-006
3.2443938E-001	2.2536216E+003	6.5665620E+003	6.9425171E+003	-7.1057953E+001	1.119763823585527E+002	-1.4046362E-001	-6.1011087E-004	7.4704803E+001	6.6832962E+001	1.000000000000000E+000	13	1.0222211E-002	1.4724070E-006	0	-1.991436655631753E-004	-1.0982757E-001	5.1790383E-004	-4.1568691E+001	3.5173959E+002	2.6315778E+002	2.3338538E+002	-6.9689606E+001	7.2507559E+003	2.5167793E+003	6.7999473E+003	4.6757053E-005	1.3623983E-004	1.4403998E-004	7.1057953E+001	-5.938590010472482E-006
2.1883753E-001	3.1315593E+003	8.6606494E+003	9.2094248E+003	-7.0120781E+001	1.682423721510859E+002	-1.4039634E-001	-5.6040200E-004	8.3974579E+001	7.4264931E+001	1.000000000000000E+000	13	1.0145123E-002	1.1016023E-006	0	-2.085419916451788E-004	-1.0159478E-001	6.3976762E-004	-5.5640385E+001	5.8076099E+002	3.2777295E+002	4.7942487E+002	-6.9269363E+001	9.7728164E+003	3.4593323E+003	9.1400742E+003	3.6922880E-005	1.0211403E-004	1.0858441E-004	7.0120781E+001	-9.398326082003501E-006
