EC-Lab ASCII FILE
Nb header lines : 64                          

Potentio Electrochemical Impedance Spectroscopy

Run on channel : 5 (SN 30436)
User : 
CE vs. WE compliance from -10 V to 10 V
Electrode connection : standard
Potential control : Ewe
Ewe ctrl range : min = -2.50 V, max = 2.50 V
Safety Limits :
	Do not start on E overload
Acquisition started on : 01/20/2023 15:51:02.213
Loaded Setting File :  NONE
Saved on :
	File : 2023_01_20_CoNiFeNx_400ºC_24h_electrode2_set1_20012023_C05.mpr
	Directory : C:\Users\grupogalan\Documents\EC-Lab\Data\Lole Jurado\
	Host : 169.254.104.159
Device : VSP (SN 1176)
Address : USB
EC-Lab for windows v11.46 (software)
Internet server v11.40 (firmware)
Command interpretor v11.40 (firmware)
Electrode material : 
Initial state : 
Electrolyte : 
Comments : 
Electrode surface area : 0.001 cm²
Characteristic mass : 0.001 g
Equivalent Weight : 0.000 g/eq.
Density : 0.000 g/cm3
Volume (V) : 0.001 cm³
Record Ece
Cycle Definition : Charge/Discharge alternance
Mode                Single sine         
E (V)               0.0000              
vs.                 Eoc                 
tE (h:m:s)          0:00:0.0000         
record              0                   
dI                  0.000               
unit dI             mA                  
dt (s)              0.000               
fi                  200.000             
unit fi             kHz                 
ff                  100.000             
unit ff             mHz                 
Nd                  6                   
Points              per decade          
spacing             Logarithmic         
Va (mV)             10.0                
pw                  0.10                
Na                  2                   
corr                0                   
E range min (V)     -2.500              
E range max (V)     2.500               
I Range             Auto                
Bandwidth           5                   
nc cycles           0                   
goto Ns'            0                   
nr cycles           0                   
inc. cycle          0                   

freq/Hz	Re(Z)/Ohm	-Im(Z)/Ohm	|Z|/Ohm	Phase(Z)/deg	time/s	<Ewe>/V	<I>/mA	Cs/µF	Cp/µF	cycle number	I Range	|Ewe|/V	|I|/A	Ns	(Q-Qo)/mA.h	<Ece>/V	|Ece|/V	Phase(Zce)/deg	|Zce|/Ohm	Re(Zce)/Ohm	-Im(Zce)/Ohm	Phase(Zwe-ce)/deg	|Zwe-ce|/Ohm	Re(Zwe-ce)/Ohm	-Im(Zwe-ce)/Ohm	Re(Y)/Ohm-1	Im(Y)/Ohm-1	|Y|/Ohm-1	Phase(Y)/deg	dq/mA.h	
1.9999814E+005	1.3247938E+000	-1.5477057E+000	2.0372705E+000	4.9437378E+001	2.198540131066693E+000	-1.5859622E-001	-1.2262338E-001	-5.1416892E-001	-2.9674616E-001	1.000000000000000E+000	9	7.0004496E-003	3.4361905E-003	0	-2.125698597302350E-005	-1.0512858E-001	3.3304791E-003	-2.1893877E+001	9.6923590E-001	8.9933085E-001	3.6141706E-001	2.8074266E+001	2.5207164E+000	2.2241247E+000	-1.1862886E+000	3.1919116E-001	-3.7289879E-001	4.9085283E-001	-4.9437378E+001	-2.125698597302350E-005
1.3512284E+005	8.1218541E-001	-5.7037771E-001	9.9245954E-001	3.5079418E+001	2.453533103194786E+000	-1.5886322E-001	-1.0991426E-001	-2.0650415E+000	-6.8206894E-001	1.000000000000000E+000	9	9.4172098E-003	9.4887596E-003	0	-3.275317621650174E-005	-1.1091636E-001	1.2752919E-002	1.9475297E+000	1.3440027E+000	1.3432264E+000	-4.5674935E-002	1.5950820E+001	2.2417226E+000	2.1554117E+000	-6.1605263E-001	8.2457393E-001	-5.7907784E-001	1.0075978E+000	-3.5079418E+001	-1.149619024347824E-005
9.1291195E+004	7.4379486E-001	-3.0646867E-001	8.0445874E-001	2.2393318E+001	2.952559713536175E+000	-1.5842392E-001	-1.5337060E-001	-5.6885967E+000	-8.2560015E-001	1.000000000000000E+000	9	9.6838456E-003	1.2037716E-002	0	-5.074953403179016E-005	-1.1110737E-001	1.7739167E-002	5.0250878E+000	1.4736323E+000	1.4679683E+000	-1.2907831E-001	1.1140313E+001	2.2542398E+000	2.2117631E+000	-4.3554699E-001	1.1493323E+000	-4.7356379E-001	1.2430718E+000	-2.2393318E+001	-1.799635781528842E-005
6.1674211E+004	7.6027244E-001	-1.5984696E-001	7.7689463E-001	1.1873474E+001	3.451520537229953E+000	-1.5876237E-001	-9.1167584E-002	-1.6144037E+001	-6.8343413E-001	1.000000000000000E+000	9	1.0761895E-002	1.3852452E-002	0	-7.547752120283742E-005	-1.0551061E-001	2.0636076E-002	1.7555737E+000	1.4897057E+000	1.4890064E+000	-4.5638248E-002	5.2198262E+000	2.2586455E+000	2.2492788E+000	-2.0548521E-001	1.2596359E+000	-2.6483792E-001	1.2871759E+000	-1.1873474E+001	-2.472798717104726E-005
4.1669758E+004	7.3089039E-001	4.7335919E-002	7.3242164E-001	-3.7055705E+000	3.828531195147661E+000	-1.5810074E-001	-7.6893315E-002	8.0687881E+001	3.3702928E-001	1.000000000000000E+000	9	9.6911173E-003	1.3231610E-002	0	-2.202223291030775E-005	-8.8223659E-002	2.0118671E-002	2.7827675E+000	1.5205005E+000	1.5187075E+000	-7.3819339E-002	6.7448413E-001	2.2497540E+000	2.2495980E+000	-2.6483420E-002	1.3624793E+000	8.8240609E-002	1.3653338E+000	3.7055705E+000	5.345528829252968E-005
2.8150979E+004	7.2264689E-001	1.0874526E-001	7.3078316E-001	-8.5577660E+000	4.205540413066046E+000	-1.5859085E-001	-1.4860006E-001	5.1989578E+001	1.1512243E+000	1.000000000000000E+000	9	1.0290533E-002	1.4081514E-002	0	3.132352824705756E-005	-1.1219617E-001	2.0766124E-002	2.6573768E+000	1.4747082E+000	1.4731224E+000	-6.8372414E-002	-1.0533589E+000	2.1961405E+000	2.1957693E+000	4.0372849E-002	1.3531597E+000	2.0362602E-001	1.3683950E+000	8.5577660E+000	5.334576115736531E-005
1.9020934E+004	8.0203587E-001	2.2716048E-001	8.3358467E-001	-1.5813704E+001	4.704561610094970E+000	-1.5863428E-001	-2.2442391E-002	3.6834564E+001	2.7354052E+000	1.000000000000000E+000	9	1.0380697E-002	1.2453080E-002	0	-6.889635913560374E-005	-1.1863340E-001	1.9027259E-002	-2.0862539E+000	1.5279160E+000	1.5269032E+000	5.5622183E-002	-6.9230351E+000	2.3460441E+000	2.3289390E+000	2.8278267E-001	1.1542354E+000	3.2691389E-001	1.1996382E+000	1.5813704E+001	-1.002198873826613E-004
1.2850729E+004	7.6787305E-001	4.1890037E-001	8.7470371E-001	-2.8613941E+001	5.081528081354918E+000	-1.5925032E-001	-9.9404193E-002	2.9565254E+001	6.7808042E+000	1.000000000000000E+000	9	1.0916376E-002	1.2480084E-002	0	-6.918004542909977E-005	-1.0577803E-001	1.9129623E-002	5.4444933E-001	1.5328120E+000	1.5327427E+000	-1.4565225E-002	-9.9679813E+000	2.3358767E+000	2.3006158E+000	4.0433514E-001	1.0036159E+000	5.4750592E-001	1.1432443E+000	2.8613941E+001	-2.836862934960289E-007
8.6846787E+003	8.0668694E-001	5.6771445E-001	9.8642969E-001	-3.5136372E+001	5.458551139250631E+000	-1.5853208E-001	-1.5571861E-001	3.2280216E+001	1.0692125E+001	1.000000000000000E+000	9	1.0333485E-002	1.0475643E-002	0	-8.492226885631681E-005	-1.0868147E-001	1.5792089E-002	-6.5172062E+000	1.5075054E+000	1.4977636E+000	1.7110425E-001	-1.7776117E+001	2.4199886E+000	2.3044505E+000	7.3881871E-001	8.2903481E-001	5.8344197E-001	1.0137570E+000	3.5136372E+001	-1.574222342721703E-005
5.8640142E+003	8.9319140E-001	8.3431077E-001	1.2222378E+000	-4.3047871E+001	5.713565044658026E+000	-1.5928540E-001	-1.6119730E-001	3.2530991E+001	1.5157987E+001	1.000000000000000E+000	9	1.0285527E-002	8.4153237E-003	0	-9.009829300771364E-005	-1.1022870E-001	1.2661256E-002	-4.4185433E+000	1.5045477E+000	1.5000761E+000	1.1591293E-001	-2.1655073E+001	2.5750055E+000	2.3932674E+000	9.5022368E-001	5.9790623E-001	5.5849129E-001	8.1817138E-001	4.3047871E+001	-5.176024151396831E-006
3.9600762E+003	9.3642426E-001	1.2018826E+000	1.5236181E+000	-5.2076729E+001	6.014831432374194E+000	-1.5941934E-001	-1.9619358E-001	3.3439095E+001	2.0807810E+001	1.000000000000000E+000	9	9.3935784E-003	6.1653103E-003	0	-1.035191384921782E-004	-1.0982757E-001	1.0281362E-002	7.4336365E-002	1.6676146E+000	1.6676131E+000	-2.1635864E-003	-2.4736233E+001	2.8671129E+000	2.6040373E+000	1.1997191E+000	4.0338561E-001	5.1773769E-001	6.5633243E-001	5.2076729E+001	-1.342084548446453E-005
2.6787200E+003	9.5563191E-001	1.7417009E+000	1.9866440E+000	-6.1247421E+001	7.059131668618647E+000	-1.5966317E-001	-1.9582090E-001	3.4112946E+001	2.6219612E+001	1.000000000000000E+000	9	1.0222687E-002	5.1457067E-003	0	-1.522696048276654E-004	-1.3607317E-001	8.2907369E-003	-8.6310625E+000	1.6111950E+000	1.5929484E+000	2.4179423E-001	-3.7892712E+001	3.2294760E+000	2.5485804E+000	1.9834951E+000	2.4213107E-001	4.4129956E-001	5.0336146E-001	6.1247421E+001	-4.875046633548725E-005
1.8082643E+003	8.9453536E-001	2.5032713E+000	2.6583004E+000	-7.0335823E+001	7.505072143132566E+000	-1.5906410E-001	-1.8758436E-001	3.5160118E+001	3.1178703E+001	1.000000000000000E+000	9	9.6487375E-003	3.6296640E-003	0	-1.792677204873309E-004	-9.2234999E-002	5.6212968E-003	-1.1799680E+001	1.5487100E+000	1.5159835E+000	3.1669658E-001	-4.9476059E+001	3.7098277E+000	2.4105189E+000	2.8199680E+000	1.2658711E-001	3.5424179E-001	3.7618020E-001	7.0335823E+001	-2.699811565966552E-005
1.2219551E+003	9.7909927E-001	3.2729518E+000	3.4162624E+000	-7.3345512E+001	8.193588175723562E+000	-1.5854451E-001	-1.9129839E-002	3.9794704E+001	3.6525997E+001	1.000000000000000E+000	10	9.1591403E-003	2.6810411E-003	0	-1.923536889495509E-004	-1.0642748E-001	5.0582807E-003	-8.4162836E+000	1.8866853E+000	1.8663671E+000	2.7614313E-001	-5.1279305E+001	4.5489287E+000	2.8454664E+000	3.5490949E+000	8.3892740E-002	2.8043821E-001	2.9271758E-001	7.3345512E+001	-1.308596846221998E-005
8.2526404E+002	1.5253206E+000	4.6860447E+000	4.9280438E+000	-7.1969788E+001	8.851839540453511E+000	-1.5898885E-001	-1.6106300E-002	4.1154827E+001	3.7212128E+001	1.000000000000000E+000	10	9.9381376E-003	2.0166496E-003	0	-1.951842138179863E-004	-1.0002845E-001	3.5762931E-003	-9.8193436E+000	1.7733835E+000	1.7474041E+000	3.0243668E-001	-5.6732872E+001	5.9662108E+000	3.2727246E+000	4.9884815E+000	6.2807567E-002	1.9295555E-001	2.0292027E-001	7.1969788E+001	-2.830524868435334E-006
5.5803571E+002	1.2274561E+000	6.9121761E+000	7.0203152E+000	-7.9930450E+001	9.298594068299280E+000	-1.5890028E-001	-1.4264601E-002	4.1261341E+001	3.9999977E+001	1.000000000000000E+000	10	9.6103102E-003	1.3689286E-003	0	-1.967327142624547E-004	-1.0382967E-001	1.9042522E-003	-2.0127752E+001	1.3910530E+000	1.3060981E+000	4.7868153E-001	-7.1078506E+001	7.8130450E+000	2.5335541E+000	7.3908577E+000	2.4905359E-002	1.4024958E-001	1.4244375E-001	7.9930450E+001	-1.548500444468397E-006
3.7705118E+002	2.6655679E+000	1.0897997E+001	1.1219251E+001	-7.6255730E+001	9.741770702719805E+000	-1.5937841E-001	-3.2364905E-002	3.8732285E+001	3.6545910E+001	1.000000000000000E+000	10	1.0617297E-002	9.4634638E-004	0	-2.004252056506165E-004	-9.9894740E-002	2.1567333E-003	-2.5186001E+001	2.2790105E+000	2.0623474E+000	9.6985167E-001	-6.8278641E+001	1.2774937E+001	4.7279153E+000	1.1867848E+001	2.1176882E-002	8.6580276E-002	8.9132510E-002	7.6255730E+001	-3.692491388161841E-006
2.5475545E+002	2.7898245E+000	1.5173826E+001	1.5428160E+001	-7.9582077E+001	1.018807475056383E+001	-1.5901904E-001	-2.6355091E-002	4.1171959E+001	3.9825710E+001	1.000000000000000E+000	10	1.0224244E-002	6.6270016E-004	0	-2.041620618810703E-004	-1.0721065E-001	9.0743409E-004	-6.1471114E+000	1.3692981E+000	1.3614249E+000	1.4662667E-001	-7.4839104E+001	1.5872906E+001	4.1512494E+000	1.5320453E+001	1.1720569E-002	6.3748039E-002	6.4816542E-002	7.9582077E+001	-3.736856230453759E-006
1.7203688E+002	2.0998766E+000	2.2569117E+001	2.2666594E+001	-8.4684387E+001	1.062854117146344E+001	-1.5810029E-001	-2.7947027E-002	4.0990578E+001	4.0638779E+001	1.000000000000000E+000	10	1.0125299E-002	4.4670582E-004	0	-2.066256875883005E-004	-1.0818483E-001	1.4848096E-003	-2.2218527E+001	3.3239093E+000	3.0771036E+000	1.2569035E+000	-7.7741173E+001	2.4381968E+001	5.1769800E+000	2.3826019E+001	4.0871566E-003	4.3928061E-002	4.4117790E-002	8.4684387E+001	-2.463625707230271E-006
1.1622738E+002	4.0902214E+000	3.2178802E+001	3.2437714E+001	-8.2756027E+001	1.173280135729874E+001	-1.5890080E-001	-4.2569102E-003	4.2554142E+001	4.1877533E+001	1.000000000000000E+000	11	1.0313864E-002	3.1795903E-004	0	-2.082472632113382E-004	-1.0633197E-001	1.9977589E-003	-3.6264050E+001	6.2830701E+000	5.0660367E+000	3.7164824E+000	-7.5690010E+001	3.7044685E+001	9.1562576E+000	3.5895287E+001	3.8872843E-003	3.0582249E-002	3.0828314E-002	8.2756027E+001	-1.621575623037642E-006
7.8517616E+001	7.6181836E+000	4.6569530E+001	4.7188534E+001	-8.0709427E+001	1.218561463214701E+001	-1.5835564E-001	-1.7198741E-003	4.3526241E+001	4.2391808E+001	1.000000000000000E+000	11	1.0420617E-002	2.2082943E-004	0	-2.083696896009755E-004	-1.0371505E-001	5.6962483E-004	-3.7924358E+001	2.5794787E+000	2.0347519E+000	1.5854008E+000	-7.8664955E+001	4.9112896E+001	9.6529350E+000	4.8154930E+001	3.4212009E-003	2.0913605E-002	2.1191590E-002	8.0709427E+001	-1.224263896373531E-007
5.3047844E+001	8.4260712E+000	6.5922791E+001	6.6459106E+001	-8.2716103E+001	1.264719820066239E+001	-1.5846004E-001	-2.9658391E-003	4.5511044E+001	4.4779472E+001	1.000000000000000E+000	11	1.0400065E-002	1.5648818E-004	0	-2.087174638043628E-004	-1.0545330E-001	1.6660579E-003	-5.4904797E+001	1.0646541E+001	6.1210876E+000	8.7109766E+000	-7.8970543E+001	7.6038269E+001	1.4547159E+001	7.4633766E+001	1.9077271E-003	1.4925420E-002	1.5046847E-002	8.2716103E+001	-3.477742033873143E-007
3.5837154E+001	1.1742964E+001	9.9277542E+001	9.9969635E+001	-8.3254158E+001	1.308219046136946E+001	-1.5928812E-001	-3.3200185E-003	4.4733780E+001	4.4116539E+001	1.000000000000000E+000	11	1.0492927E-002	1.0496115E-004	0	-2.092748347566481E-004	-8.3505571E-002	1.4128961E-003	-5.7294899E+001	1.3461134E+001	7.2732558E+000	1.1327042E+001	-8.0244530E+001	1.1222741E+002	1.9016220E+001	1.1060458E+002	1.1750101E-003	9.9337865E-003	1.0003038E-002	8.3254158E+001	-5.573709522852346E-007
2.4232319E+001	2.0958853E+001	1.3617117E+002	1.3777467E+002	-8.1249954E+001	1.354117856317316E+001	-1.5866216E-001	-2.6392499E-003	4.8232525E+001	4.7116341E+001	1.000000000000000E+000	11	1.0334523E-002	7.5010328E-005	0	-2.097354839215340E-004	-1.0551061E-001	6.0344714E-004	-1.2625524E+002	8.0448542E+000	-4.7575932E+000	6.4872942E+000	-8.3520866E+001	1.4357547E+002	1.6201260E+001	1.4265846E+002	1.1041519E-003	7.1737524E-003	7.2582280E-003	8.1249954E+001	-4.606491648858875E-007
1.6366972E+001	4.2174812E+001	2.0032347E+002	2.0471495E+002	-7.8110947E+001	1.417814998005633E+001	-1.5883330E-001	-2.1429268E-004	4.8542259E+001	4.6481968E+001	1.000000000000000E+000	12	1.0589195E-002	5.1726536E-005	0	-2.094652975522816E-004	-1.0350494E-001	9.2719012E-004	2.6612244E+001	1.7924845E+001	1.6025860E+001	-8.0294371E+000	-7.3160774E+001	2.0090872E+002	5.8200672E+001	1.9229404E+002	1.0063614E-003	4.7800532E-003	4.8848409E-003	7.8110947E+001	2.701863692523561E-007
1.1050212E+001	5.6235283E+001	2.8484293E+002	2.9034100E+002	-7.8831970E+001	1.458385391937918E+001	-1.5901929E-001	-1.2982492E-003	5.0564312E+001	4.8667408E+001	1.000000000000000E+000	12	1.0527651E-002	3.6259607E-005	0	-2.098867678605052E-004	-1.1487039E-001	1.1835889E-003	-5.3858868E+001	3.2642075E+001	1.9251522E+001	2.6360651E+001	-7.6365440E+001	3.2022794E+002	7.5486801E+001	3.1120358E+002	6.6710165E-004	3.3790041E-003	3.4442260E-003	7.8831970E+001	-4.214703082236417E-007
7.4689322E+000	9.2017059E+001	3.7359229E+002	3.8475751E+002	-7.6163269E+001	1.489169140067679E+001	-1.5840352E-001	-1.2511694E-003	5.7037926E+001	5.3775608E+001	1.000000000000000E+000	12	1.0030605E-002	2.6069940E-005	0	-2.095993624027843E-004	-1.0776459E-001	1.2538097E-003	-3.4121574E+001	4.8094074E+001	3.9814640E+001	2.6978409E+001	-7.1783127E+001	4.2170660E+002	1.3183170E+002	4.0057068E+002	6.2157586E-004	2.5236185E-003	2.5990396E-003	7.6163269E+001	2.874054577209383E-007
5.0468345E+000	9.5304626E+001	5.8686969E+002	5.9455780E+002	-8.0775986E+001	1.533398992833099E+001	-1.5926667E-001	-2.7111687E-003	5.3735264E+001	5.2354568E+001	1.000000000000000E+000	12	1.0283915E-002	1.7296747E-005	0	-2.096489935355621E-004	-1.2365712E-001	9.8687422E-004	-5.9337513E+001	5.7055481E+001	2.9097143E+001	4.9078346E+001	-7.8931778E+001	6.4800134E+002	1.2440177E+002	6.3594806E+002	2.6960357E-004	1.6601735E-003	1.6819222E-003	8.0775986E+001	-4.963113277780683E-008
3.4085953E+000	1.8577518E+002	7.4212579E+002	7.6502490E+002	-7.5946045E+001	1.631137752140057E+001	-1.5937284E-001	-5.9259951E-004	6.2916878E+001	5.9206730E+001	1.000000000000000E+000	13	9.5640970E-003	1.2501680E-005	0	-2.100135070288899E-004	-7.1643479E-002	6.7631470E-004	-9.3303879E+001	5.4097904E+001	-3.1177516E+000	5.4007988E+001	-7.7078224E+001	8.1681866E+002	1.8265742E+002	7.9613379E+002	3.1742171E-004	1.2680207E-003	1.3071470E-003	7.5946045E+001	-3.645134933277588E-007
2.3032136E+000	2.2037242E+002	1.1265587E+003	1.1479105E+003	-7.8931816E+001	1.724841380587895E+001	-1.5844990E-001	-3.9621387E-004	6.1338352E+001	5.9077713E+001	1.000000000000000E+000	13	1.0231548E-002	8.9131927E-006	0	-2.102943728985726E-004	-8.6580925E-002	9.2925591E-004	-5.1115036E+001	1.0425623E+002	6.5447769E+001	8.1153877E+001	-7.6685219E+001	1.2410734E+003	2.8582019E+002	1.2077126E+003	1.6724040E-004	8.5494417E-004	8.7114802E-004	7.8931816E+001	-2.808658696826932E-007
1.5562749E+000	5.2960809E+002	1.5665771E+003	1.6536774E+003	-7.1321297E+001	1.862295344454469E+001	-1.5880626E-001	-4.7617676E-004	6.5280289E+001	5.8584679E+001	1.000000000000000E+000	13	1.0232180E-002	6.1875312E-006	0	-2.103926602098161E-004	-1.0098353E-001	9.3909109E-004	-5.8212097E+001	1.5177153E+002	7.9949654E+001	1.2900639E+002	-7.0226624E+001	1.8018224E+003	6.0955774E+002	1.6955835E+003	1.9366588E-004	5.7286228E-004	6.0471287E-004	7.1321297E+001	-9.828731124353362E-008
1.0523305E+000	6.4565839E+002	2.0929021E+003	2.1902314E+003	-7.2855049E+001	2.064327186046285E+001	-1.5871590E-001	-2.6701187E-004	7.2263512E+001	6.5983727E+001	1.000000000000000E+000	13	1.0364207E-002	4.7320145E-006	0	-2.104681908096674E-004	-9.0993397E-002	4.3498282E-004	-5.8685913E+001	9.1923393E+001	4.7775269E+001	7.8533012E+001	-7.2289459E+001	2.2794692E+003	6.9343365E+002	2.1714351E+003	1.3459312E-004	4.3628359E-004	4.5657274E-004	7.2855049E+001	-7.553059985126228E-008
7.1035653E-001	9.0621600E+002	3.2412061E+003	3.3655081E+003	-7.4379425E+001	3.844383115932578E+001	-1.5881865E-001	-3.7743649E-004	6.9125313E+001	6.4113449E+001	1.000000000000000E+000	13	1.0275438E-002	3.0531612E-006	0	-2.127045860312525E-004	-7.9589739E-002	6.4899202E-004	-3.5106071E+001	2.1256395E+002	1.7389618E+002	1.2224382E+002	-7.2196503E+001	3.5326248E+003	1.0801122E+003	3.3634500E+003	8.0007434E-005	2.8615765E-004	2.9713195E-004	7.4379425E+001	-2.236395221585138E-006
4.8035541E-001	1.5773625E+003	4.2603213E+003	4.5429517E+003	-6.9683182E+001	6.443746434056084E+001	-1.5858319E-001	-8.2631782E-004	7.7770538E+001	6.8394875E+001	1.000000000000000E+000	13	1.0224094E-002	2.2505399E-006	0	-2.169515822624324E-004	-1.0656120E-001	6.1619160E-004	-7.4893196E+001	2.7379724E+002	7.1356812E+001	2.6433527E+002	-6.9978996E+001	4.8156821E+003	1.6487194E+003	4.5246567E+003	7.6428492E-005	2.0642682E-004	2.2012120E-004	6.9683182E+001	-4.246996231179866E-006
3.2443938E-001	2.5343357E+003	5.5240425E+003	6.0776563E+003	-6.5355156E+001	1.025347062568253E+002	-1.5862632E-001	-8.3521969E-004	8.8803398E+001	7.3362030E+001	1.000000000000000E+000	13	1.0171911E-002	1.6736568E-006	0	-2.249921529575258E-004	-1.0562522E-001	5.6475651E-004	-5.3500717E+001	3.3743866E+002	2.0071280E+002	2.7125488E+002	-6.4735374E+001	6.4082729E+003	2.7350486E+003	5.7952974E+003	6.8610709E-005	1.4954942E-004	1.6453711E-004	6.5355156E+001	-8.040570695093461E-006
2.1883753E-001	3.7955029E+003	7.4635913E+003	8.3732334E+003	-6.3045036E+001	1.586921321241243E+002	-1.5882272E-001	-8.7695423E-004	9.7442963E+001	7.7421181E+001	1.000000000000000E+000	13	9.9844616E-003	1.1924261E-006	0	-2.375199055949007E-004	-1.2709542E-001	3.8514432E-004	-8.8828186E+001	3.2299219E+002	6.6053691E+000	3.2292465E+002	-6.3974026E+001	8.6652100E+003	3.8021084E+003	7.7865161E+003	5.4135598E-005	1.0645387E-004	1.1942818E-004	6.3045036E+001	-1.252775263737487E-005
