EC-Lab ASCII FILE
Nb header lines : 65                          

Potentio Electrochemical Impedance Spectroscopy

Run on channel : 5 (SN 30436)
User : 
CE vs. WE compliance from -10 V to 10 V
Electrode connection : standard
Potential control : Ewe
Ewe ctrl range : min = -10.00 V, max = 10.00 V
Safety Limits :
	Do not start on E overload
Acquisition started on : 01/24/2023 12:26:41.441
Loaded Setting File :  NONE
Saved on :
	File : 2022_01_24 Co50Ni25Fe25Nx elec1 set1_C05.mpr
	Directory : C:\Users\grupogalan\Documents\EC-Lab\Data\Scott\
	Host : 169.254.104.159
Device : VSP (SN 1176)
Address : USB
EC-Lab for windows v11.46 (software)
Internet server v11.40 (firmware)
Command interpretor v11.40 (firmware)
Electrode material : 
Initial state : 
Electrolyte : 
Comments : 
Electrode surface area : 0.000 cm²
Characteristic mass : 0.001 g
Equivalent Weight : 0.000 g/eq.
Density : 0.000 g/cm3
Volume (V) : 0.001 cm³
Record Ece
Record Analogic IN 1
Cycle Definition : Charge/Discharge alternance
Mode                Single sine         
E (V)               0.0000              
vs.                 Eoc                 
tE (h:m:s)          0:00:0.0000         
record              0                   
dI                  0.000               
unit dI             mA                  
dt (s)              0.000               
fi                  200.000             
unit fi             kHz                 
ff                  100.000             
unit ff             mHz                 
Nd                  6                   
Points              per decade          
spacing             Logarithmic         
Va (mV)             10.0                
pw                  0.10                
Na                  2                   
corr                0                   
E range min (V)     -10.000             
E range max (V)     10.000              
I Range             Auto                
Bandwidth           5                   
nc cycles           0                   
goto Ns'            0                   
nr cycles           0                   
inc. cycle          0                   

freq/Hz	Re(Z)/Ohm	-Im(Z)/Ohm	|Z|/Ohm	Phase(Z)/deg	time/s	<Ewe>/V	<I>/mA	Cs/µF	Cp/µF	cycle number	I Range	|Ewe|/V	|I|/A	Ns	(Q-Qo)/mA.h	<Ece>/V	|Ece|/V	Phase(Zce)/deg	|Zce|/Ohm	Re(Zce)/Ohm	-Im(Zce)/Ohm	Phase(Zwe-ce)/deg	|Zwe-ce|/Ohm	Re(Zwe-ce)/Ohm	-Im(Zwe-ce)/Ohm	Analog IN 1/V	Re(Y)/Ohm-1	Im(Y)/Ohm-1	|Y|/Ohm-1	Phase(Y)/deg	dq/mA.h	
1.9999814E+005	1.6002759E+000	-1.3547862E+000	2.0967424E+000	4.0251099E+001	2.379556619649520E+000	-1.5109943E-001	-1.8042858E-001	-5.8738577E-001	-2.4523066E-001	1.000000000000000E+000	9	7.2987247E-003	3.4809832E-003	0	-2.724156758426236E-005	1.0394953E-001	1.3817954E-003	-5.6010262E+001	3.9695549E-001	2.2191574E-001	3.2913077E-001	2.9373817E+001	2.0910168E+000	1.8221916E+000	-1.0256554E+000	-4.9769535E-004	3.6400279E-001	-3.0816311E-001	4.7693032E-001	-4.0251099E+001	-2.724156758426236E-005
1.3512284E+005	1.1530633E+000	-5.5956197E-001	1.2816647E+000	2.5886509E+001	2.756558130873600E+000	-1.5124127E-001	-1.8430451E-001	-2.1049566E+000	-4.0122747E-001	1.000000000000000E+000	9	9.6819354E-003	7.5541870E-003	0	-4.501398518025720E-005	1.1113173E-001	5.5148075E-003	6.2913146E+000	7.3003322E-001	7.2563666E-001	-7.9999693E-002	1.8799999E+001	1.9845787E+000	1.8787000E+000	-6.3956165E-001	1.4423064E-004	7.0194691E-001	-3.4064287E-001	7.8023523E-001	-2.5886509E+001	-1.777241759599484E-005
9.1291195E+004	1.0867180E+000	-2.0722352E-001	1.1062990E+000	1.0795979E+001	3.255540154612390E+000	-1.5096995E-001	-1.6648956E-001	-8.4130249E+000	-2.9517883E-001	1.000000000000000E+000	9	9.9128010E-003	8.9603271E-003	0	-6.717226048884913E-005	1.1015755E-001	6.9574169E-003	1.4388830E+001	7.7646905E-001	7.5211251E-001	-1.9295338E-001	1.2277600E+001	1.8818711E+000	1.8388305E+000	-4.0017688E-001	4.6519362E-004	8.8791579E-001	-1.6931443E-001	9.0391475E-001	-1.0795979E+001	-2.215827530859193E-005
6.1674211E+004	1.0796560E+000	-2.8405057E-002	1.0800296E+000	1.5070676E+000	3.754516124987276E+000	-1.5097767E-001	-1.5344520E-001	-9.0849152E+001	-6.2840678E-002	1.000000000000000E+000	9	9.9083148E-003	9.1741141E-003	0	-7.630837208410311E-005	1.1208681E-001	7.3955664E-003	1.3482174E+001	8.0613410E-001	7.8391910E-001	-1.8794438E-001	6.6220384E+000	1.8760915E+000	1.8635751E+000	-2.1634944E-001	-1.6250851E-005	9.2558026E-001	-2.4351422E-002	9.2590052E-001	-1.5070676E+000	-9.136111595253981E-006
4.1669758E+004	1.1056702E+000	8.6662538E-002	1.1090614E+000	-4.4816856E+000	4.131523902848130E+000	-1.5122975E-001	-1.5903565E-001	4.4072506E+001	2.6910353E-001	1.000000000000000E+000	9	1.0143972E-002	9.1464482E-003	0	-7.307930566930898E-005	1.0664286E-001	7.3076244E-003	7.1653686E+000	7.9895759E-001	7.9271793E-001	-9.9656813E-002	3.9217767E-001	1.8984326E+000	1.8983881E+000	-1.2994274E-002	1.4423064E-004	8.9890641E-001	7.0456363E-002	9.0166336E-001	4.4816856E+000	3.229066414794135E-006
2.8150979E+004	1.1389832E+000	1.8984433E-001	1.1546963E+000	-9.4629974E+000	4.630531766597414E+000	-1.5098622E-001	-1.5713489E-001	2.9780296E+001	8.0498666E-001	1.000000000000000E+000	9	1.0376491E-002	8.9863371E-003	0	-1.173536847623117E-004	1.0754063E-001	6.8684313E-003	4.1962342E+000	7.6431936E-001	7.6227045E-001	-5.5927273E-002	-4.0290418E+000	1.9059641E+000	1.9012537E+000	1.3391705E-001	-9.6491596E-005	8.5424364E-001	1.4238429E-001	8.6602855E-001	9.4629974E+000	-4.427437909300271E-005
1.9020934E+004	1.1432356E+000	3.0836323E-001	1.1840926E+000	-1.5095077E+001	5.007552051130915E+000	-1.5114863E-001	-1.1326852E-001	2.7134745E+001	1.8402615E+000	1.000000000000000E+000	9	1.0955203E-002	9.2519820E-003	0	-2.143839636394858E-004	1.0148542E-001	7.2038597E-003	1.1270683E+000	7.7862883E-001	7.7847821E-001	-1.5315461E-002	-8.6704054E+000	1.9439293E+000	1.9217138E+000	2.9304776E-001	-9.6491596E-005	8.1538802E-001	2.1993342E-001	8.4452850E-001	1.5095077E+001	-9.703027887717408E-005
1.2850729E+004	1.1519800E+000	4.8828471E-001	1.2511914E+000	-2.2970417E+001	5.384532282390865E+000	-1.5108483E-001	-1.5858845E-001	2.5364088E+001	3.8629405E+000	1.000000000000000E+000	9	1.0276429E-002	8.2133152E-003	0	-2.137298510149121E-004	1.0910696E-001	6.3581630E-003	-1.3572448E+000	7.7412868E-001	7.7391148E-001	1.8336147E-002	-1.4738202E+001	1.9914123E+000	1.9258915E+000	5.0662088E-001	-9.6491596E-005	7.3586386E-001	3.1190738E-001	7.9923826E-001	2.2970417E+001	6.541126245736457E-007
8.6846787E+003	1.2197752E+000	7.1879232E-001	1.4158086E+000	-3.0510107E+001	5.639537654496962E+000	-1.5106887E-001	-1.6168189E-001	2.5495464E+001	6.5714431E+000	1.000000000000000E+000	9	9.9302083E-003	7.0138071E-003	0	-2.243620659517668E-004	1.0786536E-001	5.4549025E-003	-2.1833494E+000	7.7773774E-001	7.7717310E-001	2.9629797E-002	-2.0545141E+001	2.1325896E+000	1.9969482E+000	7.4842215E-001	6.3989894E-005	6.0851419E-001	3.5858685E-001	7.0631015E-001	3.0510107E+001	-1.063221493685464E-005
5.8640142E+003	1.2554598E+000	9.9159807E-001	1.5998268E+000	-3.8302689E+001	6.016519059048733E+000	-1.5086362E-001	-1.6902399E-001	2.7370924E+001	1.0515135E+001	1.000000000000000E+000	9	9.9594034E-003	6.2253010E-003	0	-2.322215911986358E-004	1.1029126E-001	4.6843784E-003	-7.0791155E-001	7.5247419E-001	7.5241673E-001	9.2968736E-003	-2.6495535E+001	2.2435148E+000	2.0078764E+000	1.0008949E+000	2.2447138E-004	4.9052015E-001	3.8742685E-001	6.2506765E-001	3.8302689E+001	-7.859525246869037E-006
3.9600762E+003	1.2958508E+000	1.4397488E+000	1.9370353E+000	-4.8011097E+001	6.317854566761525E+000	-1.5146813E-001	-2.3312780E-001	2.7914503E+001	1.5421557E+001	1.000000000000000E+000	9	9.4474005E-003	4.8772474E-003	0	-2.550946746938086E-004	1.0249781E-001	3.9465786E-003	-7.7132568E+000	8.0918157E-001	8.0186021E-001	1.0860468E-001	-3.6431618E+001	2.6072571E+000	2.0977111E+000	1.5483534E+000	3.8495287E-004	3.4536630E-001	3.8371754E-001	5.1625288E-001	4.8011097E+001	-2.287308349517277E-005
2.6787200E+003	1.4012340E+000	2.0328445E+000	2.4689903E+000	-5.5421612E+001	6.952081743540475E+000	-1.5094018E-001	-1.7178202E-001	2.9227295E+001	1.9813362E+001	1.000000000000000E+000	9	1.0170245E-002	4.1191918E-003	0	-2.831076498801251E-004	1.1613635E-001	3.3224693E-003	-5.0629878E+000	8.0658281E-001	8.0343574E-001	7.1181618E-002	-4.3661915E+001	3.0475390E+000	2.2046697E+000	2.1040261E+000	-9.6491596E-005	2.2986451E-001	3.3347660E-001	4.0502387E-001	5.5421612E+001	-2.801297518631652E-005
1.8082643E+003	1.5137658E+000	2.9507504E+000	3.3163857E+000	-6.2841702E+001	7.398083631385816E+000	-1.5082271E-001	-1.6280007E-001	2.9828114E+001	2.3613514E+001	1.000000000000000E+000	9	1.0032202E-002	3.0250407E-003	0	-3.048801029387655E-004	1.0962270E-001	2.6513485E-003	-9.6041594E+000	8.7646705E-001	8.6418241E-001	1.4623004E-001	-5.2481937E+001	3.9046030E+000	2.3779483E+000	3.0969803E+000	2.2447138E-004	1.3763492E-001	2.6828870E-001	3.0153307E-001	6.2841702E+001	-2.177245305864039E-005
1.2219551E+003	1.5730107E+000	4.2064981E+000	4.4909897E+000	-6.9496826E+001	8.086511930712732E+000	-1.5092495E-001	-2.7052218E-002	3.0963081E+001	2.7164486E+001	1.000000000000000E+000	10	1.0225690E-002	2.2769347E-003	0	-3.202005866439495E-004	1.0960361E-001	1.9226732E-003	-1.3080734E+001	8.4441298E-001	8.2250226E-001	1.9111075E-001	-6.1421509E+001	5.0077386E+000	2.3955131E+000	4.3976088E+000	2.2447138E-004	7.7991553E-002	2.0856267E-001	2.2266807E-001	6.9496826E+001	-1.532048370518407E-005
8.2526404E+002	1.8928754E+000	6.0989499E+000	6.3859353E+000	-7.2757706E+001	8.531780191915459E+000	-1.5089753E-001	-2.7425056E-002	3.1620749E+001	2.8842522E+001	1.000000000000000E+000	10	1.0064601E-002	1.5760574E-003	0	-3.244694478030498E-004	1.0866763E-001	1.6421343E-003	-2.0018074E+001	1.0419254E+000	9.7897720E-001	3.5666832E-001	-6.6017586E+001	7.0655890E+000	2.8718526E+000	6.4556184E+000	6.3989894E-005	4.6416555E-002	1.4955676E-001	1.5659413E-001	7.2757706E+001	-4.268861159100227E-006
5.5803571E+002	2.3420098E+000	8.7570782E+000	9.0648460E+000	-7.5027122E+001	8.978577653091634E+000	-1.5124542E-001	-2.6373724E-002	3.2568588E+001	3.0394606E+001	1.000000000000000E+000	10	9.8589109E-003	1.0875983E-003	0	-3.274184592150721E-004	1.0719680E-001	1.0317828E-003	-1.7516319E+001	9.4868010E-001	9.0469098E-001	2.8553128E-001	-7.0249596E+001	9.6078014E+000	3.2467008E+000	9.0426092E+000	2.2447138E-004	2.8501507E-002	1.0657084E-001	1.1031627E-001	7.5027122E+001	-2.949011412022343E-006
3.7705118E+002	2.5819528E+000	1.2402665E+001	1.2668567E+001	-7.8240280E+001	9.421809620864224E+000	-1.5115565E-001	-2.4800444E-002	3.4033360E+001	3.2619694E+001	1.000000000000000E+000	10	9.5806401E-003	7.5625291E-004	0	-3.301439937107498E-004	1.0872493E-001	1.1482262E-003	-3.7634966E+000	1.5183098E+000	1.5150356E+000	9.9659100E-002	-7.1856125E+001	1.3156497E+001	4.0969887E+000	1.2502324E+001	-9.6491596E-005	1.6087679E-002	7.7278741E-002	7.8935526E-002	7.8240280E+001	-2.725534495677669E-006
2.5475545E+002	3.7896338E+000	1.8237829E+001	1.8627392E+001	-7.8261566E+001	9.868112148687942E+000	-1.5103872E-001	-2.5355950E-002	3.4254963E+001	3.2837170E+001	1.000000000000000E+000	10	9.7464994E-003	5.2323478E-004	0	-3.327348296533455E-004	1.0448437E-001	8.8994636E-004	-6.1670966E+000	1.7008548E+000	1.6910117E+000	1.8272014E-001	-7.3430740E+001	1.9218588E+001	5.4806452E+000	1.8420549E+001	3.0471213E-004	1.0921771E-002	5.2561656E-002	5.3684380E-002	7.8261566E+001	-2.590835942595758E-006
1.7203688E+002	4.0693412E+000	2.6932026E+001	2.7237722E+001	-8.1407791E+001	1.055051202108734E+001	-1.5099166E-001	-2.0054502E-003	3.4350224E+001	3.3583504E+001	1.000000000000000E+000	11	1.0034439E-002	3.6840228E-004	0	-3.353304807354462E-004	1.0687207E-001	4.8597052E-004	4.8898826E+000	1.3191301E+000	1.3143289E+000	-1.1244395E-001	-7.8649498E+001	2.7354595E+001	5.3836699E+000	2.6819582E+001	-1.7673234E-004	5.4850727E-003	3.6301740E-002	3.6713790E-002	8.1407791E+001	-2.595651082100707E-006
1.1622738E+002	5.3600698E+000	3.7835003E+001	3.8212795E+001	-8.1936592E+001	1.099074294872116E+001	-1.5093832E-001	-2.7354357E-003	3.6192444E+001	3.5480347E+001	1.000000000000000E+000	11	9.6939607E-003	2.5368363E-004	0	-3.356160382506415E-004	1.0985193E-001	4.4207153E-004	-4.7522645E+000	1.7426096E+000	1.7366189E+000	1.4437102E-001	-7.9415970E+001	3.8636715E+001	7.0966887E+000	3.7979374E+001	6.3989894E-005	3.6707316E-003	2.5910521E-002	2.6169244E-002	8.1936592E+001	-2.855575151952390E-007
7.8517616E+001	6.8375754E+000	5.5534504E+001	5.5953854E+001	-8.2980896E+001	1.144465881028373E+001	-1.5097323E-001	-3.0489785E-003	3.6499771E+001	3.5954720E+001	1.000000000000000E+000	11	9.8302001E-003	1.7568406E-004	0	-3.357921026924685E-004	1.1103623E-001	1.2091560E-004	-8.2222878E+001	6.8825597E-001	9.3134791E-002	6.8192536E-001	-8.2971687E+001	5.6642052E+001	6.9307103E+000	5.6216431E+001	-1.6250851E-005	2.1839475E-003	1.7737929E-002	1.7871870E-002	8.2980896E+001	-1.760644418269896E-007
5.3047844E+001	1.0540678E+001	7.6472298E+001	7.7195328E+001	-8.2152000E+001	1.190522637878894E+001	-1.5109013E-001	-3.4065144E-003	3.9232704E+001	3.8501221E+001	1.000000000000000E+000	11	9.3922103E-003	1.2166812E-004	0	-3.362597074388626E-004	1.0939348E-001	2.8136079E-004	-8.1823204E+001	2.3125267E+000	3.2890636E-001	2.2890174E+000	-8.2142433E+001	7.9507813E+001	1.0869584E+001	7.8761314E+001	1.4423064E-004	1.7688315E-003	1.2832821E-002	1.2954152E-002	8.2152000E+001	-4.676047463941096E-007
3.5837154E+001	1.6344933E+001	1.1257916E+002	1.1375951E+002	-8.1739166E+001	1.234119597284007E+001	-1.5107349E-001	-3.0937190E-003	3.9448326E+001	3.8633961E+001	1.000000000000000E+000	11	9.8148668E-003	8.6277330E-005	0	-3.366408673111032E-004	1.1523858E-001	2.9956349E-004	-6.1482201E+001	3.4720995E+000	1.6576905E+000	3.0508256E+000	-8.1150574E+001	1.1702303E+002	1.8002623E+001	1.1562999E+002	3.0471213E-004	1.2630131E-003	8.6992662E-003	8.7904744E-003	8.1739166E+001	-3.811598722406446E-007
2.4232319E+001	2.9488533E+001	1.5674617E+002	1.5949588E+002	-7.9345520E+001	1.280017183462041E+001	-1.5092659E-001	-2.9326617E-003	4.1901371E+001	4.0469063E+001	1.000000000000000E+000	11	9.5980596E-003	6.0177474E-005	0	-3.370155751800771E-004	1.0790356E-001	3.8331348E-004	4.7308849E+001	6.3697171E+000	4.3189621E+000	-4.6818652E+000	-7.7465652E+001	1.5577708E+002	3.3807495E+001	1.5206430E+002	4.6519362E-004	1.1591892E-003	6.1616637E-003	6.2697544E-003	7.9345520E+001	-3.747078689739203E-007
1.6366972E+001	4.3929245E+001	2.3748169E+002	2.4151051E+002	-7.9519920E+001	1.343712455822970E+001	-1.5096380E-001	-5.2402891E-005	4.0946960E+001	3.9592220E+001	1.000000000000000E+000	12	9.9391658E-003	4.1154173E-005	0	-3.368669989898495E-004	1.0819008E-001	3.8632058E-004	3.4739128E+001	9.3871546E+000	7.7139421E+000	-5.3491840E+000	-7.7457504E+001	2.3780774E+002	5.1643188E+001	2.3213251E+002	3.8495287E-004	7.5315009E-004	4.0715337E-003	4.1406066E-003	7.9519920E+001	1.485761902276367E-007
1.1050212E+001	4.8519554E+001	3.1750555E+002	3.2119141E+002	-8.1311569E+001	1.384288759084302E+001	-1.5071154E-001	3.8738214E-004	4.5362629E+001	4.4327480E+001	1.000000000000000E+000	12	9.5837656E-003	2.9838176E-005	0	-3.370396187278707E-004	1.0847661E-001	1.5180031E-004	-1.3227659E+001	5.0874529E+000	4.9524755E+000	1.1641152E+000	-8.0474640E+001	3.2312479E+002	5.3472031E+001	3.1866968E+002	-4.1745458E-004	4.7031525E-004	3.0776802E-003	3.1134083E-003	8.1311569E+001	-1.726197380212072E-007
7.4689322E+000	7.8197388E+001	4.6505447E+002	4.7158298E+002	-8.0455193E+001	1.415068504547526E+001	-1.5132639E-001	-8.9585327E-004	4.5820286E+001	4.4560413E+001	1.000000000000000E+000	12	9.6670631E-003	2.0499177E-005	0	-3.370115550077381E-004	1.0400683E-001	8.6697211E-005	4.3438158E+000	4.2293019E+000	4.2171531E+000	-3.2033277E-001	-7.9943886E+001	4.7198514E+002	8.2414543E+001	4.6473413E+002	2.2447138E-004	3.5162183E-004	2.0911617E-003	2.1205177E-003	8.0455193E+001	2.806372013258469E-008
5.0468345E+000	1.3967609E+002	6.3528430E+002	6.5045795E+002	-7.7600021E+001	1.459298895980464E+001	-1.5107919E-001	-1.3260960E-003	4.9640133E+001	4.7351173E+001	1.000000000000000E+000	12	9.7374991E-003	1.4970221E-005	0	-3.370728720207448E-004	1.0851482E-001	2.9984943E-004	-5.2885883E+001	2.0029726E+001	1.2086026E+001	1.5972410E+001	-7.6882484E+001	6.6870551E+002	1.5176212E+002	6.5125671E+002	-8.1865833E-004	3.3012891E-004	1.5015150E-003	1.5373784E-003	7.7600021E+001	-6.131701300665041E-008
3.4085953E+000	2.1227280E+002	9.7860852E+002	1.0013663E+003	-7.7761406E+001	1.557033796617179E+001	-1.5097901E-001	2.7012353E-005	4.7712891E+001	4.5568817E+001	1.000000000000000E+000	13	9.9341962E-003	9.9206418E-006	0	-3.372019072264314E-004	1.2232526E-001	2.4542792E-004	9.0235643E+000	2.4739117E+001	2.4432943E+001	-3.8800995E+000	-7.6350357E+001	1.0030579E+003	2.3670573E+002	9.7472839E+002	3.0471213E-004	2.1169388E-004	9.7593985E-004	9.9863554E-004	7.7761406E+001	-1.290352056866444E-007
2.3032136E+000	2.9444278E+002	1.3406373E+003	1.3725906E+003	-7.7612862E+001	1.650731331735733E+001	-1.5090324E-001	-1.7310595E-004	5.1543583E+001	4.9171700E+001	1.000000000000000E+000	13	9.7450605E-003	7.0997576E-006	0	-3.373550930988200E-004	1.0501922E-001	1.8081919E-004	-6.0451122E+001	2.5468361E+001	1.2560126E+001	2.2155827E+001	-7.7304634E+001	1.3969453E+003	3.0700290E+002	1.3627932E+003	-2.5697309E-004	1.5628556E-004	7.1158906E-004	7.2854938E-004	7.7612862E+001	-1.531858723885222E-007
1.5562749E+000	4.9196268E+002	1.8182228E+003	1.8836033E+003	-7.4859810E+001	1.787996183591895E+001	-1.5107518E-001	-1.8269148E-004	5.6245365E+001	5.2408539E+001	1.000000000000000E+000	13	9.5888413E-003	5.0906906E-006	0	-3.374070364748113E-004	1.1067329E-001	1.5528835E-004	6.5721878E+001	3.0504377E+001	1.2542373E+001	-2.7806580E+001	-7.4263176E+001	1.8601387E+003	5.0450504E+002	1.7904163E+003	2.2447138E-004	1.3866066E-004	5.1246973E-004	5.3089735E-004	7.4859810E+001	-5.194337599135528E-008