EC-Lab ASCII FILE
Nb header lines : 65                          

Potentio Electrochemical Impedance Spectroscopy

Run on channel : 5 (SN 30436)
User : 
CE vs. WE compliance from -10 V to 10 V
Electrode connection : standard
Potential control : Ewe
Ewe ctrl range : min = -10.00 V, max = 10.00 V
Safety Limits :
	Do not start on E overload
Acquisition started on : 01/25/2023 15:22:50.516
Loaded Setting File :  NONE
Saved on :
	File : 2022_01_25 Co30Ni60Fe10Nx 1mg  ref309 elect1 set_C05.mpr
	Directory : C:\Users\grupogalan\Documents\EC-Lab\Data\Scott\
	Host : 169.254.104.159
Device : VSP (SN 1176)
Address : USB
EC-Lab for windows v11.46 (software)
Internet server v11.40 (firmware)
Command interpretor v11.40 (firmware)
Electrode material : 
Initial state : 
Electrolyte : 
Comments : 
Electrode surface area : 0.000 cm²
Characteristic mass : 0.001 g
Equivalent Weight : 0.000 g/eq.
Density : 0.000 g/cm3
Volume (V) : 0.001 cm³
Record Ece
Record Analogic IN 1
Cycle Definition : Charge/Discharge alternance
Mode                Single sine         
E (V)               0.0000              
vs.                 Eoc                 
tE (h:m:s)          0:00:0.0000         
record              0                   
dI                  0.000               
unit dI             mA                  
dt (s)              0.000               
fi                  200.000             
unit fi             kHz                 
ff                  100.000             
unit ff             mHz                 
Nd                  6                   
Points              per decade          
spacing             Logarithmic         
Va (mV)             10.0                
pw                  0.10                
Na                  2                   
corr                0                   
E range min (V)     -10.000             
E range max (V)     10.000              
I Range             Auto                
Bandwidth           5                   
nc cycles           0                   
goto Ns'            0                   
nr cycles           0                   
inc. cycle          0                   

freq/Hz	Re(Z)/Ohm	-Im(Z)/Ohm	|Z|/Ohm	Phase(Z)/deg	time/s	<Ewe>/V	<I>/mA	Cs/µF	Cp/µF	cycle number	I Range	|Ewe|/V	|I|/A	Ns	(Q-Qo)/mA.h	<Ece>/V	|Ece|/V	Phase(Zce)/deg	|Zce|/Ohm	Re(Zce)/Ohm	-Im(Zce)/Ohm	Phase(Zwe-ce)/deg	|Zwe-ce|/Ohm	Re(Zwe-ce)/Ohm	-Im(Zwe-ce)/Ohm	Analog IN 1/V	Re(Y)/Ohm-1	Im(Y)/Ohm-1	|Y|/Ohm-1	Phase(Y)/deg	dq/mA.h	
1.9999814E+005	1.7131847E+000	-1.3707709E+000	2.1940863E+000	3.8664360E+001	2.368553072476061E+000	-1.7410819E-001	-1.6667607E-001	-5.8053619E-001	-2.2659568E-001	1.000000000000000E+000	9	7.6685441E-003	3.4950969E-003	0	-3.225956957057739E-005	-1.2425725E-001	2.2155624E-003	-4.9865856E+001	6.3390583E-001	4.0860263E-001	4.8464471E-001	2.2666975E+001	2.2993915E+000	2.1217873E+000	-8.8612622E-001	7.0591585E-004	3.5587442E-001	-2.8474590E-001	4.5577058E-001	-3.8664360E+001	-3.225956957057739E-005
1.3512284E+005	1.2516934E+000	-5.1761210E-001	1.3544956E+000	2.2466536E+001	2.745555917063029E+000	-1.7384335E-001	-1.5665045E-001	-2.2755530E+000	-3.3230782E-001	1.000000000000000E+000	9	1.0282488E-002	7.5913775E-003	0	-4.816242907619259E-005	-1.2398983E-001	7.3036812E-003	1.5830740E+000	9.6210223E-001	9.6173501E-001	-2.6579361E-002	1.3812725E+001	2.2793443E+000	2.2134285E+000	-5.4419148E-001	-1.6250851E-005	6.8224871E-001	-2.8212994E-001	7.3828220E-001	-2.2466536E+001	-1.590285950561520E-005
9.1291195E+004	1.1619028E+000	-1.8812618E-001	1.1770343E+000	9.1970682E+000	3.244559380720602E+000	-1.7407219E-001	-1.5925929E-001	-9.2670603E+000	-2.3673488E-001	1.000000000000000E+000	9	9.7939614E-003	8.3208801E-003	0	-7.000808451112566E-005	-1.1967286E-001	8.7594036E-003	7.4843745E+000	1.0527016E+000	1.0437330E+000	-1.3712049E-001	8.3884754E+000	2.2294874E+000	2.2056358E+000	-3.2524666E-001	-1.6250851E-005	8.3867091E-001	-1.3579102E-001	8.4959292E-001	-9.1970682E+000	-2.184565543493307E-005
6.1674211E+004	1.1772101E+000	4.6871687E-004	1.1772102E+000	-2.2812832E-002	3.621562945336336E+000	-1.7396107E-001	-1.5050095E-001	5.5056162E+003	8.7280868E-004	1.000000000000000E+000	9	9.4146105E-003	7.9973908E-003	0	-8.777464102255180E-005	-1.2036052E-001	8.6164987E-003	5.5150080E+000	1.0774137E+000	1.0724264E+000	-1.0354644E-001	2.6234417E+000	2.2519970E+000	2.2496367E+000	-1.0307772E-001	-1.6250851E-005	8.4946591E-001	3.3822254E-004	8.4946597E-001	2.2812832E-002	-1.776655651142614E-005
4.1669758E+004	1.1607603E+000	9.6538864E-002	1.1647679E+000	-4.7542710E+000	3.998563123197528E+000	-1.7422296E-001	-1.4379239E-001	3.9563705E+001	2.7178317E-001	1.000000000000000E+000	9	1.0099106E-002	8.6704884E-003	0	-1.137303247079318E-004	-1.2175494E-001	9.1669373E-003	6.1283627E+000	1.0572573E+000	1.0512153E+000	-1.1286885E-001	4.2298046E-001	2.2120359E+000	2.2119756E+000	-1.6329989E-002	2.2447138E-004	8.5558623E-001	7.1157955E-002	8.5854018E-001	4.7542710E+000	-2.595568368537999E-005
2.8150979E+004	1.1941121E+000	2.1280397E-001	1.2129259E+000	-1.0104660E+001	4.497517413605237E+000	-1.7413211E-001	-1.5184267E-001	2.6567266E+001	8.1778252E-001	1.000000000000000E+000	9	1.0087902E-002	8.3169974E-003	0	-1.169977149680425E-004	-1.2003580E-001	9.0333009E-003	2.5147078E+000	1.0861253E+000	1.0850793E+000	-4.7654662E-002	-4.1443863E+000	2.2851670E+000	2.2791915E+000	1.6514932E-001	2.2447138E-004	8.1166446E-001	1.4464757E-001	8.2445264E-001	1.0104660E+001	-3.267390260110707E-006
1.9020934E+004	1.2327614E+000	3.8621753E-001	1.2918454E+000	-1.7395494E+001	4.996554263954749E+000	-1.7443037E-001	-2.3864365E-001	2.1664883E+001	1.9364183E+000	1.000000000000000E+000	9	9.9609960E-003	7.7106715E-003	0	-9.413601310491666E-005	-1.1822114E-001	8.1659853E-003	1.0354379E+000	1.0590498E+000	1.0588769E+000	-1.9137897E-002	-9.1004543E+000	2.3208520E+000	2.2916384E+000	3.6707965E-001	1.4423064E-004	7.3868269E-001	2.3142533E-001	7.7408642E-001	1.7395494E+001	2.286170186312584E-005
1.2850729E+004	1.2591019E+000	5.2828896E-001	1.3654401E+000	-2.2761753E+001	5.251555529393954E+000	-1.7424080E-001	-1.6827857E-001	2.3443413E+001	3.5092847E+000	1.000000000000000E+000	9	1.1008892E-002	8.0625229E-003	0	-1.114731069790562E-004	-1.1422891E-001	8.6000841E-003	-1.5671903E+000	1.0666741E+000	1.0662751E+000	2.9172705E-002	-1.3481083E+001	2.3912637E+000	2.3253770E+000	5.5746168E-001	-2.5697309E-004	6.7532921E-001	2.8335196E-001	7.3236459E-001	2.2761753E+001	-1.733709387413950E-005
8.6846787E+003	1.2971585E+000	7.8222758E-001	1.5147607E+000	-3.1091305E+001	5.506529488164233E+000	-1.7411722E-001	-1.3879833E-001	2.3427895E+001	6.2475743E+000	1.000000000000000E+000	9	1.0623014E-002	7.0129978E-003	0	-1.261151203348353E-004	-1.2418085E-001	7.6513155E-003	-1.6255503E+000	1.0910193E+000	1.0905802E+000	3.0949378E-002	-1.8806974E+001	2.5224102E+000	2.3877387E+000	8.1317693E-001	-9.6491596E-005	5.6533378E-001	3.4091416E-001	6.6017026E-001	3.1091305E+001	-1.464201335577914E-005
5.8640142E+003	1.3301595E+000	1.1050826E+000	1.7293155E+000	-3.9719448E+001	5.761540140287252E+000	-1.7396864E-001	-1.6239002E-001	2.4560114E+001	1.0029318E+001	1.000000000000000E+000	9	9.9341087E-003	5.7445322E-003	0	-1.417487107905456E-004	-1.2511683E-001	6.2491568E-003	-9.7185355E-001	1.0878444E+000	1.0876878E+000	1.8451178E-002	-2.4923517E+001	2.6661422E+000	2.4178474E+000	1.1235338E+000	3.0471213E-004	4.4479024E-001	3.6952710E-001	5.7826346E-001	3.9719448E+001	-1.563359045571029E-005
3.9600762E+003	1.4414560E+000	1.5782266E+000	2.1374271E+000	-4.7593327E+001	6.062809621318593E+000	-1.7420673E-001	-2.0402023E-001	2.5465208E+001	1.3883639E+001	1.000000000000000E+000	9	9.7169327E-003	4.5460886E-003	0	-1.587682439138233E-004	-1.2320666E-001	5.2056964E-003	2.1456356E-001	1.1450934E+000	1.1450855E+000	-4.2881826E-003	-3.1320965E+001	3.0277843E+000	2.5865414E+000	1.5739384E+000	6.3989894E-005	3.1551409E-001	3.4545121E-001	4.6785221E-001	4.7593327E+001	-1.701953312327774E-005
2.6787200E+003	1.4784185E+000	2.2035508E+000	2.6535556E+000	-5.6141331E+001	6.492082868353464E+000	-1.7410274E-001	-1.4289808E-001	2.6963095E+001	1.8593428E+001	1.000000000000000E+000	9	9.1740843E-003	3.4572799E-003	0	-1.784138775108537E-004	-1.2653035E-001	4.0212078E-003	-7.1032686E+000	1.1631132E+000	1.1541862E+000	1.4382836E-001	-4.1722000E+001	3.5271513E+000	2.6326046E+000	2.3473792E+000	1.4423064E-004	2.0996214E-001	3.1294402E-001	3.7685284E-001	5.6141331E+001	-1.964563359703041E-005
1.8082643E+003	1.6694570E+000	3.1286025E+000	3.5461586E+000	-6.1915127E+001	7.181041701085633E+000	-1.7380220E-001	-1.8570615E-002	2.8132469E+001	2.1897388E+001	1.000000000000000E+000	10	9.8174820E-003	2.7684837E-003	0	-1.907698047752234E-004	-1.2668316E-001	2.9530355E-003	-5.2090149E+000	1.0666617E+000	1.0622566E+000	9.6841440E-002	-4.9737858E+001	4.2267890E+000	2.7317135E+000	3.2254438E+000	3.0471213E-004	1.3275746E-001	2.4879068E-001	2.8199530E-001	6.1915127E+001	-1.235592726436962E-005
1.2219551E+003	1.8059188E+000	4.4770317E+000	4.8275414E+000	-6.8032127E+001	7.625570388830965E+000	-1.7428796E-001	-2.6582478E-002	2.9092077E+001	2.5020908E+001	1.000000000000000E+000	10	9.2709037E-003	1.9204194E-003	0	-1.951964928895209E-004	-1.2435276E-001	2.2122406E-003	-1.1901276E+001	1.1519570E+000	1.1271950E+000	2.3756346E-001	-5.8112820E+001	5.5525279E+000	2.9331138E+000	4.7145953E+000	-1.7673234E-004	7.7490091E-002	1.9210477E-001	2.0714478E-001	6.8032127E+001	-4.426688114297559E-006
8.2526404E+002	1.9085430E+000	6.6101241E+000	6.8801365E+000	-7.3894966E+001	8.070836756698554E+000	-1.7415759E-001	-2.4151728E-002	2.9175451E+001	2.6930393E+001	1.000000000000000E+000	10	9.1791106E-003	1.3341466E-003	0	-1.978660257985046E-004	-1.2528874E-001	1.5466879E-003	-2.2112219E+001	1.1593088E+000	1.0740397E+000	4.3638915E-001	-6.7058479E+001	7.6517415E+000	2.9825826E+000	7.0465131E+000	6.3989894E-005	4.0318832E-002	1.3964182E-001	1.4534596E-001	7.3894966E+001	-2.669532908983663E-006
5.5803571E+002	2.0736341E+000	9.5876846E+000	9.8093653E+000	-7.7795982E+001	8.732592414744431E+000	-1.7399760E-001	-2.2037858E-002	2.9747084E+001	2.8417776E+001	1.000000000000000E+000	10	1.0093543E-002	1.0289700E-003	0	-2.021443710153884E-004	-1.2431455E-001	1.1037494E-003	-2.1638918E+001	1.0726740E+000	9.9707866E-001	3.9555502E-001	-7.2902794E+001	1.0444824E+001	3.0707128E+000	9.9832401E+000	7.0591585E-004	2.1550154E-002	9.9639587E-002	1.0194340E-001	7.7795982E+001	-4.278345216883781E-006
3.7705118E+002	3.0313272E+000	1.3593684E+001	1.3927569E+001	-7.7428993E+001	9.176834755897289E+000	-1.7416106E-001	-2.0501858E-002	3.1051502E+001	2.9580555E+001	1.000000000000000E+000	10	9.9849040E-003	7.1691646E-004	0	-2.049935976612226E-004	-1.2345498E-001	1.1610439E-003	-1.3484092E+001	1.6194967E+000	1.5748547E+000	3.7762675E-001	-7.1753197E+001	1.4711031E+001	4.6061821E+000	1.3971311E+001	-4.9769535E-004	1.5627233E-002	7.0078775E-002	7.1800038E-002	7.7428993E+001	-2.849226645834288E-006
2.5475545E+002	3.0256763E+000	1.9443422E+001	1.9677433E+001	-8.1154892E+001	9.623040803737240E+000	-1.7415032E-001	-2.2507625E-002	3.2130978E+001	3.1371298E+001	1.000000000000000E+000	10	9.7085182E-003	4.9338338E-004	0	-2.077580733292012E-004	-1.2479209E-001	5.7558093E-004	-1.4663995E+001	1.1665998E+000	1.1286001E+000	2.9532477E-001	-7.8114815E+001	2.0171171E+001	4.1542764E+000	1.9738747E+001	6.3989894E-005	7.8142202E-003	5.0215270E-002	5.0819635E-002	8.1154892E+001	-2.764475667978519E-006
1.7203688E+002	4.1039491E+000	2.8765734E+001	2.9057011E+001	-8.1880516E+001	1.030452062273980E+001	-1.7429692E-001	-2.8610725E-003	3.2160526E+001	3.1518982E+001	1.000000000000000E+000	11	1.0046149E-002	3.4573924E-004	0	-2.090643952332418E-004	-1.2448647E-001	7.2354765E-004	-3.9002415E+001	2.0927553E+000	1.6263208E+000	1.3170822E+000	-7.9215317E+001	3.0623713E+001	5.7302699E+000	3.0082815E+001	3.8495287E-004	4.8607164E-003	3.4070116E-002	3.4415103E-002	8.1880516E+001	-1.306321904040605E-006
1.1622738E+002	5.1203856E+000	4.1705902E+001	4.2019051E+001	-8.3000618E+001	1.074474941703375E+001	-1.7393078E-001	-2.2604633E-003	3.2833275E+001	3.2345715E+001	1.000000000000000E+000	11	1.0020945E-002	2.3848577E-004	0	-2.093346458796522E-004	-1.2131561E-001	1.9235080E-004	-1.9474659E+001	8.0655044E-001	7.6040691E-001	2.6889578E-001	-8.2024605E+001	4.2384754E+001	5.8807926E+000	4.1974796E+001	-1.6250851E-005	2.9000805E-003	2.3621367E-002	2.3798728E-002	8.3000618E+001	-2.702506464104151E-007
7.8517616E+001	8.1118059E+000	5.9286232E+001	5.9838604E+001	-8.2208916E+001	1.119868351859623E+001	-1.7469147E-001	-3.3121901E-003	3.4190006E+001	3.3561703E+001	1.000000000000000E+000	11	9.8695522E-003	1.6493621E-004	0	-2.099668222730725E-004	-1.2435276E-001	2.8449172E-004	-3.3740685E+001	1.7248591E+000	1.4343238E+000	9.5804715E-001	-8.0995941E+001	6.0995914E+001	9.5461292E+000	6.0244278E+001	-2.5697309E-004	2.2654508E-003	1.6557354E-002	1.6711621E-002	8.2208916E+001	-6.321763934202731E-007
5.3047844E+001	1.0975692E+001	8.5273422E+001	8.5976868E+001	-8.2665688E+001	1.165925370043260E+001	-1.7395502E-001	-2.9046990E-003	3.5183472E+001	3.4610100E+001	1.000000000000000E+000	11	9.7616818E-003	1.1353847E-004	0	-2.101721886181278E-004	-1.2408534E-001	5.1017350E-004	-5.6059803E+001	4.4933977E+000	2.5087867E+000	3.7278161E+000	-8.1384705E+001	9.0016953E+001	1.3484478E+001	8.9001236E+001	-1.6250851E-005	1.4848016E-003	1.1535872E-002	1.1631035E-002	8.2665688E+001	-2.053663450553680E-007
3.5837154E+001	1.5925586E+001	1.2012701E+002	1.2117806E+002	-8.2448166E+001	1.209516262778197E+001	-1.7418726E-001	-2.7947179E-003	3.6969704E+001	3.6331161E+001	1.000000000000000E+000	11	9.5466366E-003	7.8781886E-005	0	-2.105584762412537E-004	-1.2675956E-001	6.8488187E-004	-3.9835403E+001	8.6933928E+000	6.6755505E+000	5.5688510E+000	-7.9806679E+001	1.2771162E+002	2.2601135E+001	1.2569585E+002	3.8495287E-004	1.0845452E-003	8.1807412E-003	8.2523189E-003	8.2448166E+001	-3.862876231258976E-007
2.4232319E+001	2.1054235E+001	1.7514534E+002	1.7640627E+002	-8.3145363E+001	1.280318335475749E+001	-1.7407121E-001	-7.8879518E-004	3.7499596E+001	3.6965427E+001	1.000000000000000E+000	12	9.8236389E-003	5.5687586E-005	0	-2.107461695236691E-004	-1.4524990E-001	2.2142709E-004	-7.2076927E+001	3.9762380E+000	1.2236465E+000	3.7832735E+000	-8.2902794E+001	1.8031017E+002	2.2277882E+001	1.7892862E+002	-1.6250851E-005	6.7656784E-004	5.6282138E-003	5.6687328E-003	8.3145363E+001	-1.876932824153527E-007
1.6366972E+001	3.4547470E+001	2.6405228E+002	2.6630270E+002	-8.2546005E+001	1.321313598754932E+001	-1.7408520E-001	-3.4819005E-004	3.6826622E+001	3.6206837E+001	1.000000000000000E+000	12	1.0210119E-002	3.8340277E-005	0	-2.109987719425642E-004	-1.2677866E-001	3.3553477E-004	-1.0699734E+002	8.7514963E+000	-2.5583010E+000	8.3692160E+000	-8.3302696E+001	2.7429321E+002	3.1989170E+001	2.7242148E+002	2.2447138E-004	4.8715269E-004	3.7233920E-003	3.7551252E-003	8.2546005E+001	-2.526024188951334E-007
1.1050212E+001	4.3778080E+001	3.7464078E+002	3.7718991E+002	-8.3335014E+001	1.361886792688165E+001	-1.7420520E-001	-1.0445482E-003	3.8444527E+001	3.7926647E+001	1.000000000000000E+000	12	9.9570621E-003	2.6398007E-005	0	-2.109330598141330E-004	-1.2672135E-001	5.3415220E-004	2.2401375E+001	2.0234566E+001	1.8707603E+001	-7.7112422E+000	-8.0335617E+001	3.7221198E+002	6.2485683E+001	3.6692953E+002	2.2447138E-004	3.0770645E-004	2.6332671E-003	2.6511843E-003	8.3335014E+001	6.571212843116858E-008
7.4689322E+000	7.9902321E+001	4.9780020E+002	5.0417203E+002	-8.0881187E+001	1.392669932817080E+001	-1.7413315E-001	-7.1778457E-004	4.2806187E+001	4.1731037E+001	1.000000000000000E+000	12	9.6111149E-003	1.9063165E-005	0	-2.110859180634054E-004	-1.2647304E-001	2.8721351E-004	-7.2864388E+001	1.5066412E+001	4.4390817E+000	1.4397615E+001	-8.0649261E+001	5.1909546E+002	8.4341400E+001	5.1219781E+002	3.8495287E-004	3.1434165E-004	1.9583828E-003	1.9834500E-003	8.0881187E+001	-1.528582492723587E-007
5.0468345E+000	9.3510147E+001	7.2923376E+002	7.3520477E+002	-8.2692802E+001	1.436900297581451E+001	-1.7412454E-001	-2.9473641E-004	4.3244843E+001	4.2545261E+001	1.000000000000000E+000	12	9.7858775E-003	1.3310411E-005	0	-2.111061135590935E-004	-1.3227992E-001	3.1767142E-004	-4.4336853E+001	2.3866386E+001	1.7070274E+001	1.6679632E+001	-8.1567413E+001	7.5406555E+002	1.1058042E+002	7.4591339E+002	3.8495287E-004	1.7299835E-004	1.3491187E-003	1.3601653E-003	8.2692802E+001	-2.019549568809537E-008