EC-Lab ASCII FILE
Nb header lines : 65                          

Potentio Electrochemical Impedance Spectroscopy

Run on channel : 5 (SN 30436)
User : 
CE vs. WE compliance from -10 V to 10 V
Electrode connection : standard
Potential control : Ewe
Ewe ctrl range : min = -10.00 V, max = 10.00 V
Safety Limits :
	Do not start on E overload
Acquisition started on : 01/25/2023 13:02:07.900
Loaded Setting File :  NONE
Saved on :
	File : 2022_01_25 Co50Ni25Fe25Nx elec3 set1_C05.mpr
	Directory : C:\Users\grupogalan\Documents\EC-Lab\Data\Scott\
	Host : 169.254.104.159
Device : VSP (SN 1176)
Address : USB
EC-Lab for windows v11.46 (software)
Internet server v11.40 (firmware)
Command interpretor v11.40 (firmware)
Electrode material : 
Initial state : 
Electrolyte : 
Comments : 
Electrode surface area : 0.000 cm²
Characteristic mass : 0.001 g
Equivalent Weight : 0.000 g/eq.
Density : 0.000 g/cm3
Volume (V) : 0.001 cm³
Record Ece
Record Analogic IN 1
Cycle Definition : Charge/Discharge alternance
Mode                Single sine         
E (V)               0.0000              
vs.                 Eoc                 
tE (h:m:s)          0:00:0.0000         
record              0                   
dI                  0.000               
unit dI             mA                  
dt (s)              0.000               
fi                  200.000             
unit fi             kHz                 
ff                  100.000             
unit ff             mHz                 
Nd                  6                   
Points              per decade          
spacing             Logarithmic         
Va (mV)             10.0                
pw                  0.10                
Na                  2                   
corr                0                   
E range min (V)     -10.000             
E range max (V)     10.000              
I Range             Auto                
Bandwidth           5                   
nc cycles           0                   
goto Ns'            0                   
nr cycles           0                   
inc. cycle          0                   

freq/Hz	Re(Z)/Ohm	-Im(Z)/Ohm	|Z|/Ohm	Phase(Z)/deg	time/s	<Ewe>/V	<I>/mA	Cs/µF	Cp/µF	cycle number	I Range	|Ewe|/V	|I|/A	Ns	(Q-Qo)/mA.h	<Ece>/V	|Ece|/V	Phase(Zce)/deg	|Zce|/Ohm	Re(Zce)/Ohm	-Im(Zce)/Ohm	Phase(Zwe-ce)/deg	|Zwe-ce|/Ohm	Re(Zwe-ce)/Ohm	-Im(Zwe-ce)/Ohm	Analog IN 1/V	Re(Y)/Ohm-1	Im(Y)/Ohm-1	|Y|/Ohm-1	Phase(Y)/deg	dq/mA.h	
1.9999814E+005	1.3702041E+000	-1.3304749E+000	1.9098750E+000	4.4157192E+001	2.651560232596239E+000	-1.6036475E-001	-1.2933192E-001	-5.9811884E-001	-2.9026252E-001	1.000000000000000E+000	9	6.6310940E-003	3.4720041E-003	0	-1.728220232537327E-005	6.2594570E-002	1.4196330E-003	-5.1746895E+001	4.0888000E-001	2.5315252E-001	3.2108667E-001	3.1872969E+001	1.9115834E+000	1.6233566E+000	-1.0093882E+000	-1.6250851E-005	3.7564304E-001	-3.6475122E-001	5.2359444E-001	-4.4157192E+001	-1.728220232537327E-005
1.3512284E+005	1.0070447E+000	-5.6706870E-001	1.1557274E+000	2.9383942E+001	3.028558037156472E+000	-1.6029154E-001	-1.4774296E-001	-2.0770917E+000	-5.0005323E-001	1.000000000000000E+000	9	1.0095064E-002	8.7348139E-003	0	-1.983435975253168E-005	7.1343102E-002	6.0974155E-003	7.3373275E+000	6.9805902E-001	6.9234294E-001	-8.9149669E-002	2.1114063E+001	1.8216861E+000	1.6993876E+000	-6.5621835E-001	-9.6491596E-005	7.5394195E-001	-4.2454609E-001	8.6525595E-001	-2.9383942E+001	-2.552157427158415E-006
9.1291195E+004	9.6452552E-001	-2.2168596E-001	9.8967373E-001	1.2944025E+001	3.527535954170162E+000	-1.6057067E-001	-1.7267631E-001	-7.8641729E+000	-3.9458933E-001	1.000000000000000E+000	9	1.0126917E-002	1.0232581E-002	0	-6.489369784316255E-005	8.4485002E-002	7.6635531E-003	1.3537449E+001	7.4893647E-001	7.2812885E-001	-1.7531168E-001	1.3199652E+001	1.7385874E+000	1.6926544E+000	-3.9699763E-001	-1.7673234E-004	9.8475826E-001	-2.2633626E-001	1.0104340E+000	-1.2944025E+001	-4.505933809063087E-005
6.1674211E+004	9.4746768E-001	-6.1853096E-002	9.4948453E-001	3.7351136E+000	4.026513417862589E+000	-1.6046014E-001	-1.3656203E-001	-4.1721035E+001	-1.7705254E-001	1.000000000000000E+000	9	9.6399486E-003	1.0152823E-002	0	-6.623897870236801E-005	6.0359687E-002	7.6214401E-003	9.9637489E+000	7.5067198E-001	7.3934990E-001	-1.2988505E-001	6.4848952E+000	1.6976800E+000	1.6868176E+000	-1.9173814E-001	2.2447138E-004	1.0509660E+000	-6.8609722E-002	1.0532031E+000	-3.7351136E+000	-1.345280859205462E-006
4.1669758E+004	9.5464629E-001	7.1364820E-002	9.5731002E-001	-4.2752085E+000	4.403527409100207E+000	-1.6039306E-001	-1.4729570E-001	5.3519863E+001	2.9742545E-001	1.000000000000000E+000	9	9.5153516E-003	9.9396762E-003	0	-5.921198616321716E-005	7.7169091E-002	7.4391817E-003	7.4970956E+000	7.4843299E-001	7.4203497E-001	-9.7652495E-002	8.8764602E-001	1.6968849E+000	1.6966813E+000	-2.6287675E-002	6.2567508E-004	1.0416871E+000	7.7871583E-002	1.0445937E+000	4.2752085E+000	7.026992539150847E-006
2.8150979E+004	9.9030906E-001	1.4717589E-001	1.0011857E+000	-8.4532042E+000	4.902535672852537E+000	-1.6050157E-001	-1.5799206E-001	3.8414040E+001	8.3010703E-001	1.000000000000000E+000	9	1.0079191E-002	1.0067255E-002	0	-4.344873296019311E-005	7.5602762E-002	7.5958651E-003	4.6628060E+000	7.5451201E-001	7.5201488E-001	-6.1335430E-002	-2.8205564E+000	1.7444372E+000	1.7423239E+000	8.5840464E-002	-9.6491596E-005	9.8796487E-001	1.4682750E-001	9.9881577E-001	8.4532042E+000	1.576325320302405E-005
1.9020934E+004	1.0068713E+000	2.4276753E-001	1.0357249E+000	-1.3555895E+001	5.279537077381974E+000	-1.6068044E-001	-3.0218825E-001	3.4466541E+001	1.8936081E+000	1.000000000000000E+000	9	1.0971085E-002	1.0592664E-002	0	1.954426839848101E-005	7.8811832E-002	8.1836227E-003	2.5973668E+000	7.7257460E-001	7.7178091E-001	-3.5010822E-002	-6.6622834E+000	1.7907447E+000	1.7786522E+000	2.0775670E-001	-5.7793607E-004	9.3861002E-001	2.2630899E-001	9.6550739E-001	1.3555895E+001	6.299300135867412E-005
1.2850729E+004	1.0248288E+000	3.7210521E-001	1.0902919E+000	-1.9955460E+001	5.656550588639220E+000	-1.6048850E-001	-1.6634049E-001	3.3283318E+001	3.8767929E+000	1.000000000000000E+000	9	1.0280751E-002	9.4293561E-003	0	1.067417828112634E-005	7.2393693E-002	7.3350938E-003	1.3056487E+000	7.7789974E-001	7.7769780E-001	-1.7725144E-002	-1.1122600E+001	1.8370322E+000	1.8025266E+000	3.5438007E-001	1.4423064E-004	8.6211616E-001	3.1302586E-001	9.1718560E-001	1.9955460E+001	-8.870090117354669E-006
8.6846787E+003	1.0664029E+000	5.6894386E-001	1.2086821E+000	-2.8080669E+001	5.911565027403412E+000	-1.6064021E-001	-1.6354530E-001	3.2210461E+001	7.1369333E+000	1.000000000000000E+000	9	1.0134063E-002	8.3843907E-003	0	-5.246953704083959E-006	7.3081352E-002	6.2796455E-003	-6.9413847E-001	7.4896860E-001	7.4891365E-001	9.0735340E-003	-1.7662066E+001	1.9051189E+000	1.8153166E+000	5.7801741E-001	-5.7793607E-004	7.2995687E-001	3.8944423E-001	8.2734746E-001	2.8080669E+001	-1.592113198521030E-005
5.8640142E+003	1.1122483E+000	8.4044254E-001	1.3940731E+000	-3.7075607E+001	6.166558132885257E+000	-1.6085050E-001	-1.7886317E-001	3.2293648E+001	1.1737133E+001	1.000000000000000E+000	9	9.7311186E-003	6.9803502E-003	0	-1.482474777361171E-005	7.3482484E-002	5.5187377E-003	-1.7471623E+000	7.9061043E-001	7.9024285E-001	2.4104930E-002	-2.4438435E+001	2.0897164E+000	1.9024911E+000	8.6454749E-001	1.4423064E-004	5.7230902E-001	4.3245104E-001	7.1732247E-001	3.7075607E+001	-9.577794069527751E-006
3.9600762E+003	1.1178391E+000	1.1033623E+000	1.5706600E+000	-4.4626579E+001	6.611863167374395E+000	-1.6082072E-001	-2.2537568E-001	3.6424908E+001	1.7975061E+001	1.000000000000000E+000	9	9.8185400E-003	6.2512192E-003	0	-3.795005314341850E-005	7.1419507E-002	5.0942274E-003	2.8038526E-001	8.1491739E-001	8.1490761E-001	-3.9879009E-003	-2.9631849E+001	2.2235408E+000	1.9327466E+000	1.0993744E+000	3.8495287E-004	4.5312178E-001	4.4725358E-001	6.3667506E-001	4.4626579E+001	-2.312530536980679E-005
2.6787200E+003	1.2494737E+000	1.6372217E+000	2.0595338E+000	-5.2650318E+001	7.041116201056866E+000	-1.6069928E-001	-1.7651524E-001	3.6289864E+001	2.2933083E+001	1.000000000000000E+000	9	9.9830376E-003	4.8472318E-003	0	-6.247622314468027E-005	7.5220726E-002	3.7312044E-003	-6.6678870E-001	7.6975983E-001	7.6970768E-001	8.9579998E-003	-3.9189358E+001	2.6051872E+000	2.0191813E+000	1.6461797E+000	-1.6250851E-005	2.9457051E-001	3.8598430E-001	4.8554677E-001	5.2650318E+001	-2.452617000126177E-005
1.8082643E+003	1.2566965E+000	2.2835124E+000	2.6064756E+000	-6.1174480E+001	7.487088488938753E+000	-1.6045180E-001	-1.7375733E-001	3.8543831E+001	2.9583822E+001	1.000000000000000E+000	9	9.4450265E-003	3.6236774E-003	0	-8.694769846003813E-005	7.4246548E-002	2.8622341E-003	-5.9337316E+000	7.8987002E-001	7.8563797E-001	8.1655286E-002	-4.9189220E+001	3.1249237E+000	2.0423346E+000	2.3651676E+000	6.3989894E-005	1.8497926E-001	3.3612132E-001	3.8365984E-001	6.1174480E+001	-2.447147531535786E-005
1.2219551E+003	1.3121754E+000	3.2803752E+000	3.5330818E+000	-6.8198212E+001	8.175597801600816E+000	-1.6039772E-001	-2.7659902E-002	3.9704651E+001	3.4227962E+001	1.000000000000000E+000	10	9.8237162E-003	2.7804950E-003	0	-1.022878994466802E-004	7.1744241E-002	2.5604514E-003	-5.8118215E+000	9.2086172E-001	9.1612834E-001	9.3247898E-002	-5.6554935E+001	4.0431018E+000	2.2283037E+000	3.3736231E+000	1.4423064E-004	1.0511979E-001	2.6279446E-001	2.8303903E-001	6.8198212E+001	-1.534020098664203E-005
8.2526404E+002	1.3882227E+000	4.7013698E+000	4.9020443E+000	-7.3549156E+001	8.620832516142400E+000	-1.6035609E-001	-2.7633820E-002	4.1020676E+001	3.7730896E+001	1.000000000000000E+000	10	9.4129061E-003	1.9202002E-003	0	-1.072066005013314E-004	7.2412796E-002	1.6329978E-003	-1.1356319E+001	8.5043103E-001	8.3378094E-001	1.6745833E-001	-6.5469307E+001	5.3518958E+000	2.2220037E+000	4.8688283E+000	-9.6491596E-005	5.7770312E-002	1.9564553E-001	2.0399652E-001	7.3549156E+001	-4.918701054651244E-006
5.5803571E+002	1.6668051E+000	6.9646502E+000	7.1613259E+000	-7.6540916E+001	9.067603444050292E+000	-1.6057988E-001	-2.8200526E-002	4.0950466E+001	3.8732059E+001	1.000000000000000E+000	10	9.5494017E-003	1.3334684E-003	0	-1.092168861492294E-004	7.4781388E-002	1.1338165E-003	-1.6606455E+001	8.5027629E-001	8.1481159E-001	2.4300586E-001	-7.1001266E+001	7.6229081E+000	2.4816167E+000	7.2076559E+000	-1.6250851E-005	3.2501090E-002	1.3580395E-001	1.3963895E-001	7.6540916E+001	-2.010285647898038E-006
3.7705118E+002	1.8233974E+000	9.8557243E+000	1.0022978E+001	-7.9518288E+001	9.510804558420205E+000	-1.6056529E-001	-2.3980239E-002	4.2828342E+001	4.1410915E+001	1.000000000000000E+000	10	9.2461314E-003	9.2249346E-004	0	-1.128687115798368E-004	7.4418463E-002	9.5461000E-004	-1.8895832E+001	1.0348150E+000	9.7904766E-001	3.3512339E-001	-7.4623947E+001	1.0569157E+001	2.8024449E+000	1.0190847E+001	4.6519362E-004	1.8150462E-002	9.8105878E-002	9.9770747E-002	7.9518288E+001	-3.651825430607365E-006
2.5475545E+002	2.6652412E+000	1.3612844E+001	1.3871302E+001	-7.8922264E+001	9.957113699609181E+000	-1.6047706E-001	-2.3070574E-002	4.5893147E+001	4.4198860E+001	1.000000000000000E+000	10	8.8971984E-003	6.4141047E-004	0	-1.158018536635597E-004	7.1094781E-002	3.4741781E-004	-3.1013144E+001	5.4164660E-001	4.6421775E-001	2.7907512E-001	-7.7304787E+001	1.4240046E+001	3.1294589E+000	1.3891918E+001	3.8495287E-004	1.3851666E-002	7.0748039E-002	7.2091289E-002	7.8922264E+001	-2.933142083722887E-006
1.7203688E+002	2.9753025E+000	2.0187317E+001	2.0405396E+001	-8.1615837E+001	1.039748030717601E+001	-1.6063544E-001	-2.7689788E-002	4.5826847E+001	4.4852551E+001	1.000000000000000E+000	10	9.0993671E-003	4.4592947E-004	0	-1.194574010348394E-004	7.2890334E-002	6.9881178E-004	-2.6240490E+001	1.5670904E+000	1.4055957E+000	6.9287306E-001	-7.8150581E+001	2.1334822E+001	4.3808980E+000	2.0880190E+001	3.8495287E-004	7.1456381E-003	4.8482895E-002	4.9006645E-002	8.1615837E+001	-3.655547371279682E-006
1.1622738E+002	4.5349560E+000	2.9329763E+001	2.9678289E+001	-8.1210556E+001	1.107972209961008E+001	-1.6034108E-001	-2.5378396E-003	4.6687771E+001	4.5597656E+001	1.000000000000000E+000	11	9.2435107E-003	3.1145700E-004	0	-1.217111417577423E-004	6.6357590E-002	8.4607647E-004	-6.7861252E+001	2.7165112E+000	1.0237195E+000	2.5162337E+000	-8.0098846E+001	3.2327488E+001	5.5586758E+000	3.1845997E+001	5.4543436E-004	5.1486720E-003	3.3298973E-002	3.3694666E-002	8.1210556E+001	-2.253740722902876E-006
7.8517616E+001	6.0325971E+000	4.3204857E+001	4.3623981E+001	-8.2051308E+001	1.153364569451151E+001	-1.6078871E-001	-3.9564208E-003	4.6915943E+001	4.6018768E+001	1.000000000000000E+000	11	9.3737347E-003	2.1487573E-004	0	-1.222601437077877E-004	6.9910482E-002	3.0197477E-004	-3.0875963E+001	1.4053460E+000	1.2061808E+000	7.2119719E-001	-8.0642067E+001	4.4518517E+001	7.2387781E+000	4.3926056E+001	2.2447138E-004	3.1699599E-003	2.2702932E-002	2.2923172E-002	8.2051308E+001	-5.490019500454559E-007