EC-Lab ASCII FILE
Nb header lines : 63                          

Potentio Electrochemical Impedance Spectroscopy

Run on channel : 5 (SN 30436)
User : 
CE vs. WE compliance from -10 V to 10 V
Electrode connection : standard
Potential control : Ewe
Ewe ctrl range : min = -10.00 V, max = 10.00 V
Safety Limits :
	Do not start on E overload
Acquisition started on : 01/27/2023 11:19:20.435
Loaded Setting File :  NONE
Saved on :
	File : 2022_01_27 Ni60Co30Fe10Ox 1mg ref309_C05.mpr
	Directory : C:\Users\grupogalan\Documents\EC-Lab\Data\Scott\
	Host : 169.254.104.159
Device : VSP (SN 1176)
Address : USB
EC-Lab for windows v11.46 (software)
Internet server v11.40 (firmware)
Command interpretor v11.40 (firmware)
Electrode material : 
Initial state : 
Electrolyte : 
Comments : 
Electrode surface area : 0.001 cm²
Characteristic mass : 0.001 g
Equivalent Weight : 0.000 g/eq.
Density : 0.000 g/cm3
Volume (V) : 0.001 cm³
Cycle Definition : Charge/Discharge alternance
Mode                Single sine         
E (V)               0.0000              
vs.                 Eoc                 
tE (h:m:s)          0:00:0.0000         
record              0                   
dI                  0.000               
unit dI             mA                  
dt (s)              0.000               
fi                  200.000             
unit fi             kHz                 
ff                  100.000             
unit ff             mHz                 
Nd                  6                   
Points              per decade          
spacing             Logarithmic         
Va (mV)             10.0                
pw                  0.10                
Na                  2                   
corr                0                   
E range min (V)     -10.000             
E range max (V)     10.000              
I Range             Auto                
Bandwidth           5                   
nc cycles           0                   
goto Ns'            0                   
nr cycles           0                   
inc. cycle          0                   

freq/Hz	Re(Z)/Ohm	-Im(Z)/Ohm	|Z|/Ohm	Phase(Z)/deg	time/s	<Ewe>/V	<I>/mA	Cs/µF	Cp/µF	cycle number	I Range	|Ewe|/V	|I|/A	Ns	(Q-Qo)/mA.h	Re(Y)/Ohm-1	Im(Y)/Ohm-1	|Y|/Ohm-1	Phase(Y)/deg	Re(C)/nF	Im(C)/nF	|C|/nF	Phase(C)/deg	Re(M)	Im(M)	|M|	Phase(M)/deg	Re(Permittivity)	Im(Permittivity)	|Permittivity|	Phase(Permittivity)/deg	Re(Resistivity)/Ohm.cm	Im(Resistivity)/Ohm.cm	|Resistivity|/Ohm.cm	Phase(Resistivity)/deg	Re(Conductivity)/mS/cm	Im(Conductivity)/mS/cm	|Conductivity|/mS/cm	Phase(Conductivity)/deg	Tan(Delta)	Loss Angle(Delta)/deg	dq/mA.h	
1.9999814E+005	2.0148630E+000	-1.2978175E+000	2.3966651E+000	3.2786472E+001	2.759498184401309E+000	6.1297946E-002	-1.8823655E-001	-6.1316955E-001	-1.7980140E-001	1.000000000000000E+000	9	8.3468761E-003	3.4827045E-003	0	-3.729417165257958E-005	3.5077679E-001	-2.2594301E-001	4.1724646E-001	-3.2786472E+001	-1.7980138E+002	2.7914188E+002	3.3203723E+002	-1.2278647E+002	0.0000000E+000	0.0000000E+000	0.0000000E+000	1.2278647E+002	0.0000000E+000	0.0000000E+000	0.0000000E+000	-1.2278647E+002	0.0000000E+000	0.0000000E+000	0.0000000E+000	3.2786472E+001	0.0000000E+000	0.0000000E+000	0.0000000E+000	-3.2786472E+001	-1.5525011E+000	-3.2786472E+001	-3.729417165257958E-005
1.3512284E+005	1.6429631E+000	-5.0474775E-001	1.7187489E+000	1.7077898E+001	3.181477751088096E+000	6.1094880E-002	-1.8067077E-001	-2.3335490E+000	-2.0125230E-001	1.000000000000000E+000	9	1.0470138E-002	6.0917204E-003	0	-6.956126851801916E-005	5.5616403E-001	-1.7086358E-001	5.8181852E-001	-1.7077898E+001	-2.0125230E+002	6.5507996E+002	6.8529718E+002	-1.0707790E+002	0.0000000E+000	0.0000000E+000	0.0000000E+000	1.0707790E+002	0.0000000E+000	0.0000000E+000	0.0000000E+000	-1.0707790E+002	0.0000000E+000	0.0000000E+000	0.0000000E+000	1.7077898E+001	0.0000000E+000	0.0000000E+000	0.0000000E+000	-1.7077898E+001	-3.2550180E+000	-1.7077898E+001	-3.226709686543958E-005
9.1291195E+004	1.6160283E+000	-1.0185716E-001	1.6192352E+000	3.6065431E+000	3.603475237818202E+000	6.1300948E-002	-1.7047752E-001	-1.7115896E+001	-6.7727178E-002	1.000000000000000E+000	9	1.0307271E-002	6.3655181E-003	0	-8.770987532567233E-005	6.1635244E-001	-3.8848273E-002	6.1757553E-001	-3.6065431E+000	-6.7727203E+001	1.0745344E+003	1.0766667E+003	-9.3606544E+001	0.0000000E+000	0.0000000E+000	0.0000000E+000	9.3606544E+001	0.0000000E+000	0.0000000E+000	0.0000000E+000	-9.3606544E+001	0.0000000E+000	0.0000000E+000	0.0000000E+000	3.6065431E+000	0.0000000E+000	0.0000000E+000	0.0000000E+000	-3.6065431E+000	-1.5865632E+001	-3.6065431E+000	-1.814860680765317E-005
6.1674211E+004	1.5968096E+000	5.0327811E-002	1.5976025E+000	-1.8052353E+000	4.025488137820503E+000	6.1472841E-002	-1.6622879E-001	5.1275330E+001	5.0884686E-002	1.000000000000000E+000	9	1.0444090E-002	6.5373518E-003	0	-1.093711541060669E-004	6.2562728E-001	1.9718351E-002	6.2593794E-001	1.8052353E+000	5.0884731E+001	1.6144783E+003	1.6152799E+003	-8.8194763E+001	0.0000000E+000	0.0000000E+000	0.0000000E+000	8.8194763E+001	0.0000000E+000	0.0000000E+000	0.0000000E+000	-8.8194763E+001	0.0000000E+000	0.0000000E+000	0.0000000E+000	-1.8052353E+000	0.0000000E+000	0.0000000E+000	0.0000000E+000	1.8052353E+000	3.1728176E+001	1.8052353E+000	-2.166127878039454E-005
4.1669758E+004	1.6100242E+000	2.0056278E-001	1.6224684E+000	-7.1008286E+000	4.584492324414896E+000	6.1313130E-002	-1.6708598E-001	1.9043591E+001	2.9100269E-001	1.000000000000000E+000	9	9.8028043E-003	6.0419077E-003	0	-1.258388528803674E-004	6.1161762E-001	7.6189980E-002	6.1634487E-001	7.1008286E+000	2.9100278E+002	2.3360339E+003	2.3540894E+003	-8.2899170E+001	0.0000000E+000	0.0000000E+000	0.0000000E+000	8.2899170E+001	0.0000000E+000	0.0000000E+000	0.0000000E+000	-8.2899170E+001	0.0000000E+000	0.0000000E+000	0.0000000E+000	-7.1008286E+000	0.0000000E+000	0.0000000E+000	0.0000000E+000	7.1008286E+000	8.0275326E+000	7.1008286E+000	-1.646769877430052E-005
2.8150979E+004	1.6455431E+000	3.5031477E-001	1.6824187E+000	-1.2018114E+001	5.006492104410427E+000	6.1413385E-002	-1.6773821E-001	1.6138687E+001	6.9970810E-001	1.000000000000000E+000	9	1.0960040E-002	6.5144543E-003	0	-1.346048199673597E-004	5.8135456E-001	1.2376284E-001	5.9438235E-001	1.2018114E+001	6.9970807E+002	3.2867583E+003	3.3604124E+003	-7.7981888E+001	0.0000000E+000	0.0000000E+000	0.0000000E+000	7.7981888E+001	0.0000000E+000	0.0000000E+000	0.0000000E+000	-7.7981888E+001	0.0000000E+000	0.0000000E+000	0.0000000E+000	-1.2018114E+001	0.0000000E+000	0.0000000E+000	0.0000000E+000	1.2018114E+001	4.6973271E+000	1.2018114E+001	-8.765967086992317E-006
1.9020934E+004	1.6999996E+000	5.3580308E-001	1.7824376E+000	-1.7493723E+001	5.428477191162528E+000	6.1117154E-002	-1.6460754E-001	1.5616478E+001	1.4111230E+000	1.000000000000000E+000	9	1.0493116E-002	5.8869477E-003	0	-1.525388605508746E-004	5.3508180E-001	1.6864620E-001	5.6102949E-001	1.7493723E+001	1.4111228E+003	4.4772207E+003	4.6943340E+003	-7.2506279E+001	0.0000000E+000	0.0000000E+000	0.0000000E+000	7.2506279E+001	0.0000000E+000	0.0000000E+000	0.0000000E+000	-7.2506279E+001	0.0000000E+000	0.0000000E+000	0.0000000E+000	-1.7493723E+001	0.0000000E+000	0.0000000E+000	0.0000000E+000	1.7493723E+001	3.1728067E+000	1.7493723E+001	-1.793404058351492E-005
1.2850729E+004	1.7570869E+000	8.0497688E-001	1.9327033E+000	-2.4614010E+001	5.713473684707424E+000	6.1060868E-002	-1.7146519E-001	1.5385406E+001	2.6689808E+000	1.000000000000000E+000	9	1.0471205E-002	5.4179062E-003	0	-1.658174843437349E-004	4.7039515E-001	2.1550286E-001	5.1740998E-001	2.4614010E+001	2.6689812E+003	5.8257954E+003	6.4080693E+003	-6.5385986E+001	0.0000000E+000	0.0000000E+000	0.0000000E+000	6.5385986E+001	0.0000000E+000	0.0000000E+000	0.0000000E+000	-6.5385986E+001	0.0000000E+000	0.0000000E+000	0.0000000E+000	-2.4614010E+001	0.0000000E+000	0.0000000E+000	0.0000000E+000	2.4614010E+001	2.1827793E+000	2.4614010E+001	-1.327862379286025E-005
8.6833721E+003	1.7853258E+000	1.0854146E+000	2.0893810E+000	-3.1298117E+001	6.017980845848797E+000	6.1357327E-002	-1.8654077E-001	1.6886360E+001	4.5571375E+000	1.000000000000000E+000	9	9.6727312E-003	4.6294723E-003	0	-1.803571335725848E-004	4.0896130E-001	2.4863395E-001	4.7861066E-001	3.1298117E+001	4.5571372E+003	7.4957285E+003	8.7723115E+003	-5.8701881E+001	0.0000000E+000	0.0000000E+000	0.0000000E+000	5.8701881E+001	0.0000000E+000	0.0000000E+000	0.0000000E+000	-5.8701881E+001	0.0000000E+000	0.0000000E+000	0.0000000E+000	-3.1298117E+001	0.0000000E+000	0.0000000E+000	0.0000000E+000	3.1298117E+001	1.6448330E+000	3.1298117E+001	-1.453964922884995E-005
5.8650859E+003	1.9313776E+000	1.5518571E+000	2.4775956E+000	-3.8781792E+001	6.433828998939134E+000	6.1341040E-002	-1.6313547E-001	1.7486143E+001	6.8601980E+000	1.000000000000000E+000	9	9.4854170E-003	3.8284766E-003	0	-2.018592970429713E-004	3.1463450E-001	2.5280803E-001	4.0361711E-001	3.8781792E+001	6.8601978E+003	8.5379199E+003	1.0952552E+004	-5.1218208E+001	0.0000000E+000	0.0000000E+000	0.0000000E+000	5.1218208E+001	0.0000000E+000	0.0000000E+000	0.0000000E+000	-5.1218208E+001	0.0000000E+000	0.0000000E+000	0.0000000E+000	-3.8781792E+001	0.0000000E+000	0.0000000E+000	0.0000000E+000	3.8781792E+001	1.2445589E+000	3.8781792E+001	-2.150216347038644E-005
3.9611973E+003	2.0185525E+000	2.2343225E+000	3.0111048E+000	-4.7904415E+001	6.896941607585177E+000	6.1320163E-002	-1.3167992E-001	1.7982407E+001	9.9011993E+000	1.000000000000000E+000	9	9.2258248E-003	3.0639335E-003	0	-2.170782825933097E-004	2.2263239E-001	2.4643032E-001	3.3210403E-001	4.7904415E+001	9.9011992E+003	8.9450342E+003	1.3343439E+004	-4.2095585E+001	0.0000000E+000	0.0000000E+000	0.0000000E+000	4.2095585E+001	0.0000000E+000	0.0000000E+000	0.0000000E+000	-4.2095585E+001	0.0000000E+000	0.0000000E+000	0.0000000E+000	-4.7904415E+001	0.0000000E+000	0.0000000E+000	0.0000000E+000	4.7904415E+001	9.0342933E-001	4.7904415E+001	-1.521898555033839E-005
2.6774299E+003	2.1246212E+000	3.0371926E+000	3.7065556E+000	-5.5025883E+001	7.579946093377657E+000	6.1376765E-002	-1.3156812E-001	1.9571751E+001	1.3141148E+001	1.000000000000000E+000	9	1.0018726E-002	2.7029747E-003	0	-2.417033132240694E-004	1.5464664E-001	2.2107077E-001	2.6979226E-001	5.5025883E+001	1.3141149E+004	9.1926875E+003	1.6037310E+004	-3.4974117E+001	0.0000000E+000	0.0000000E+000	0.0000000E+000	3.4974117E+001	0.0000000E+000	0.0000000E+000	0.0000000E+000	-3.4974117E+001	0.0000000E+000	0.0000000E+000	0.0000000E+000	-5.5025883E+001	0.0000000E+000	0.0000000E+000	0.0000000E+000	5.5025883E+001	6.9953454E-001	5.5025883E+001	-2.462503063075969E-005
1.8082643E+003	2.2498834E+000	4.3673363E+000	4.9127998E+000	-6.2744221E+001	8.293963273958070E+000	6.1458085E-002	-2.1064769E-002	2.0153090E+001	1.5926368E+001	1.000000000000000E+000	10	1.0503471E-002	2.1379807E-003	0	-2.570218099281709E-004	9.3218453E-002	1.8094997E-001	2.0354992E-001	6.2744221E+001	1.5926366E+004	8.2046504E+003	1.7915508E+004	-2.7255779E+001	0.0000000E+000	0.0000000E+000	0.0000000E+000	2.7255779E+001	0.0000000E+000	0.0000000E+000	0.0000000E+000	-2.7255779E+001	0.0000000E+000	0.0000000E+000	0.0000000E+000	-6.2744221E+001	0.0000000E+000	0.0000000E+000	0.0000000E+000	6.2744221E+001	5.1516145E-001	6.2744221E+001	-1.531849670410157E-005
1.2219551E+003	2.4317133E+000	6.2619033E+000	6.7174892E+000	-6.8777092E+001	8.755438095860882E+000	6.1221533E-002	-2.0781454E-002	2.0799770E+001	1.8074125E+001	1.000000000000000E+000	10	1.0121248E-002	1.5067010E-003	0	-2.589475041405919E-004	5.3888783E-002	1.3876899E-001	1.4886515E-001	6.8777092E+001	1.8074125E+004	7.0188062E+003	1.9389111E+004	-2.1222908E+001	0.0000000E+000	0.0000000E+000	0.0000000E+000	2.1222908E+001	0.0000000E+000	0.0000000E+000	0.0000000E+000	-2.1222908E+001	0.0000000E+000	0.0000000E+000	0.0000000E+000	-6.8777092E+001	0.0000000E+000	0.0000000E+000	0.0000000E+000	6.8777092E+001	3.8833454E-001	6.8777092E+001	-1.925694212420953E-006
8.2526404E+002	2.5696895E+000	8.9022827E+000	9.2657404E+000	-7.3898949E+001	9.216670437788707E+000	6.1303020E-002	-1.9482190E-002	2.1663361E+001	1.9997160E+001	1.000000000000000E+000	10	9.7614545E-003	1.0534996E-003	0	-2.610104772115592E-004	2.9930934E-002	1.0369102E-001	1.0792445E-001	7.3898949E+001	1.9997160E+004	5.7722813E+003	2.0813594E+004	-1.6101051E+001	0.0000000E+000	0.0000000E+000	0.0000000E+000	1.6101051E+001	0.0000000E+000	0.0000000E+000	0.0000000E+000	-1.6101051E+001	0.0000000E+000	0.0000000E+000	0.0000000E+000	-7.3898949E+001	0.0000000E+000	0.0000000E+000	0.0000000E+000	7.3898949E+001	2.8865513E-001	7.3898949E+001	-2.062973070967276E-006
5.5803571E+002	3.0262058E+000	1.3022191E+001	1.3369195E+001	-7.6917336E+001	9.680453019769629E+000	6.1396670E-002	-2.0030245E-002	2.1901512E+001	2.0779337E+001	1.000000000000000E+000	10	9.8380372E-003	7.3587359E-004	0	-2.639628654702877E-004	1.6931208E-002	7.2857380E-002	7.4798822E-002	7.6917336E+001	2.0779338E+004	4.8288760E+003	2.1333047E+004	-1.3082664E+001	0.0000000E+000	0.0000000E+000	0.0000000E+000	1.3082664E+001	0.0000000E+000	0.0000000E+000	0.0000000E+000	-1.3082664E+001	0.0000000E+000	0.0000000E+000	0.0000000E+000	-7.6917336E+001	0.0000000E+000	0.0000000E+000	0.0000000E+000	7.6917336E+001	2.3238838E-001	7.6917336E+001	-2.952388258728521E-006
3.7705118E+002	3.4275327E+000	1.8860523E+001	1.9169437E+001	-7.9700012E+001	1.013965053496577E+001	6.1331470E-002	-2.1754531E-002	2.2380308E+001	2.1664806E+001	1.000000000000000E+000	10	9.7624650E-003	5.0927239E-004	0	-2.662984938557994E-004	9.3274517E-003	5.1325716E-002	5.2166373E-002	7.9700012E+001	2.1664807E+004	3.9371580E+003	2.2019652E+004	-1.0299988E+001	0.0000000E+000	0.0000000E+000	0.0000000E+000	1.0299988E+001	0.0000000E+000	0.0000000E+000	0.0000000E+000	-1.0299988E+001	0.0000000E+000	0.0000000E+000	0.0000000E+000	-7.9700012E+001	0.0000000E+000	0.0000000E+000	0.0000000E+000	7.9700012E+001	1.8173052E-001	7.9700012E+001	-2.335628385511713E-006
2.5475545E+002	4.2175050E+000	2.6298138E+001	2.6634176E+001	-8.0888901E+001	1.060193226355477E+001	6.1406501E-002	-1.8464420E-002	2.3755909E+001	2.3160244E+001	1.000000000000000E+000	10	9.3888650E-003	3.5251194E-004	0	-2.682590827156544E-004	5.9453440E-003	3.7072036E-002	3.7545744E-002	8.0888901E+001	2.3160242E+004	3.7142715E+003	2.3456186E+004	-9.1110992E+000	0.0000000E+000	0.0000000E+000	0.0000000E+000	9.1110992E+000	0.0000000E+000	0.0000000E+000	0.0000000E+000	-9.1110992E+000	0.0000000E+000	0.0000000E+000	0.0000000E+000	-8.0888901E+001	0.0000000E+000	0.0000000E+000	0.0000000E+000	8.0888901E+001	1.6037276E-001	8.0888901E+001	-1.960588859854990E-006
1.7203688E+002	4.9413433E+000	3.9888756E+001	4.0193653E+001	-8.2938286E+001	1.130839648374240E+001	6.1352700E-002	-3.1239139E-003	2.3192530E+001	2.2841999E+001	1.000000000000000E+000	11	9.8542273E-003	2.4516875E-004	0	-2.700680706530596E-004	3.0586512E-003	2.4690822E-002	2.4879551E-002	8.2938286E+001	2.2842000E+004	2.8296228E+003	2.3016598E+004	-7.0617142E+000	0.0000000E+000	0.0000000E+000	0.0000000E+000	7.0617142E+000	0.0000000E+000	0.0000000E+000	0.0000000E+000	-7.0617142E+000	0.0000000E+000	0.0000000E+000	0.0000000E+000	-8.2938286E+001	0.0000000E+000	0.0000000E+000	0.0000000E+000	8.2938286E+001	1.2387810E-001	8.2938286E+001	-1.808987937405230E-006
1.1622738E+002	7.0181613E+000	5.6764915E+001	5.7197117E+001	-8.2951973E+001	1.176565135886267E+001	6.1415959E-002	-3.3668077E-003	2.4123022E+001	2.3759834E+001	1.000000000000000E+000	11	9.6617388E-003	1.6892003E-004	0	-2.703759166797714E-004	2.1452354E-003	1.7351288E-002	1.7483398E-002	8.2951973E+001	2.3759836E+004	2.9375596E+003	2.3940740E+004	-7.0480270E+000	0.0000000E+000	0.0000000E+000	0.0000000E+000	7.0480270E+000	0.0000000E+000	0.0000000E+000	0.0000000E+000	-7.0480270E+000	0.0000000E+000	0.0000000E+000	0.0000000E+000	-8.2951973E+001	0.0000000E+000	0.0000000E+000	0.0000000E+000	8.2951973E+001	1.2363555E-001	8.2951973E+001	-3.078460267117496E-007
7.8517616E+001	1.1143383E+001	8.1416550E+001	8.2175598E+001	-8.2206421E+001	1.223554615446483E+001	6.1342850E-002	-2.7604180E-003	2.4896618E+001	2.4438805E+001	1.000000000000000E+000	11	9.5752049E-003	1.1652127E-004	0	-2.707531370646717E-004	1.6501801E-003	1.2056657E-002	1.2169062E-002	8.2206421E+001	2.4438803E+004	3.3449097E+003	2.4666648E+004	-7.7935791E+000	0.0000000E+000	0.0000000E+000	0.0000000E+000	7.7935791E+000	0.0000000E+000	0.0000000E+000	0.0000000E+000	-7.7935791E+000	0.0000000E+000	0.0000000E+000	0.0000000E+000	-8.2206421E+001	0.0000000E+000	0.0000000E+000	0.0000000E+000	8.2206421E+001	1.3686877E-001	8.2206421E+001	-3.772203849002976E-007
5.3047844E+001	1.7930998E+001	1.2166850E+002	1.2298270E+002	-8.1616333E+001	1.271212353711599E+001	6.1169874E-002	-3.6658116E-003	2.4658930E+001	2.4134733E+001	1.000000000000000E+000	11	9.8637082E-003	8.0204030E-005	0	-2.711428780774424E-004	1.1855409E-003	8.0443351E-003	8.1312256E-003	8.1616333E+001	2.4134734E+004	3.5568779E+003	2.4395426E+004	-8.3836670E+000	0.0000000E+000	0.0000000E+000	0.0000000E+000	8.3836670E+000	0.0000000E+000	0.0000000E+000	0.0000000E+000	-8.3836670E+000	0.0000000E+000	0.0000000E+000	0.0000000E+000	-8.1616333E+001	0.0000000E+000	0.0000000E+000	0.0000000E+000	8.1616333E+001	1.4737585E-001	8.1616333E+001	-3.897410127707288E-007
3.5837154E+001	2.1268402E+001	1.7089795E+002	1.7221629E+002	-8.2905960E+001	1.316410142523819E+001	6.1493531E-002	-2.5096980E-003	2.5986618E+001	2.5590277E+001	1.000000000000000E+000	11	9.7094951E-003	5.6379653E-005	0	-2.714152786551612E-004	7.1711128E-004	5.7622003E-003	5.8066514E-003	8.2905960E+001	2.5590275E+004	3.1847341E+003	2.5787686E+004	-7.0940399E+000	0.0000000E+000	0.0000000E+000	0.0000000E+000	7.0940399E+000	0.0000000E+000	0.0000000E+000	0.0000000E+000	-7.0940399E+000	0.0000000E+000	0.0000000E+000	0.0000000E+000	-8.2905960E+001	0.0000000E+000	0.0000000E+000	0.0000000E+000	8.2905960E+001	1.2445089E-001	8.2905960E+001	-2.724005777187820E-007
2.4232319E+001	2.8676363E+001	2.5140111E+002	2.5303133E+002	-8.3492615E+001	1.389607535337564E+001	6.1302330E-002	-2.7865116E-004	2.6125099E+001	2.5789551E+001	1.000000000000000E+000	12	9.8220957E-003	3.8817707E-005	0	-2.716502554202440E-004	4.4789427E-004	3.9266176E-003	3.9520799E-003	8.3492615E+001	2.5789551E+004	2.9417156E+003	2.5956783E+004	-6.5073853E+000	0.0000000E+000	0.0000000E+000	0.0000000E+000	6.5073853E+000	0.0000000E+000	0.0000000E+000	0.0000000E+000	-6.5073853E+000	0.0000000E+000	0.0000000E+000	0.0000000E+000	-8.3492615E+001	0.0000000E+000	0.0000000E+000	0.0000000E+000	8.3492615E+001	1.1406618E-001	8.3492615E+001	-2.349767650828226E-007
1.6366972E+001	5.2786877E+001	3.5048541E+002	3.5443826E+002	-8.1435013E+001	1.432302046698169E+001	6.1388351E-002	-2.4171073E-004	2.7744816E+001	2.7129423E+001	1.000000000000000E+000	12	9.8009640E-003	2.7652104E-005	0	-2.716760370868303E-004	4.2018911E-004	2.7899009E-003	2.8213658E-003	8.1435013E+001	2.7129420E+004	4.0859829E+003	2.7435391E+004	-8.5649872E+000	0.0000000E+000	0.0000000E+000	0.0000000E+000	8.5649872E+000	0.0000000E+000	0.0000000E+000	0.0000000E+000	-8.5649872E+000	0.0000000E+000	0.0000000E+000	0.0000000E+000	-8.1435013E+001	0.0000000E+000	0.0000000E+000	0.0000000E+000	8.1435013E+001	1.5061076E-001	8.1435013E+001	-2.578166658634418E-008
1.1050212E+001	7.8037727E+001	5.0524158E+002	5.1123276E+002	-8.1219688E+001	1.474672686045233E+001	6.1456796E-002	-3.8362158E-004	2.8506931E+001	2.7842695E+001	1.000000000000000E+000	12	9.8413564E-003	1.9250247E-005	0	-2.718814282351709E-004	2.9858461E-004	1.9331329E-003	1.9560561E-003	8.1219688E+001	2.7842695E+004	4.3004805E+003	2.8172855E+004	-8.7803116E+000	0.0000000E+000	0.0000000E+000	0.0000000E+000	8.7803116E+000	0.0000000E+000	0.0000000E+000	0.0000000E+000	-8.7803116E+000	0.0000000E+000	0.0000000E+000	0.0000000E+000	-8.1219688E+001	0.0000000E+000	0.0000000E+000	0.0000000E+000	8.1219688E+001	1.5445627E-001	8.1219688E+001	-2.053911483405261E-007
