EC-Lab ASCII FILE
Nb header lines : 63                          

Potentio Electrochemical Impedance Spectroscopy

Run on channel : 5 (SN 30436)
User : 
CE vs. WE compliance from -10 V to 10 V
Electrode connection : standard
Potential control : Ewe
Ewe ctrl range : min = -10.00 V, max = 10.00 V
Safety Limits :
	Do not start on E overload
Acquisition started on : 01/30/2023 10:30:37.764
Loaded Setting File :  NONE
Saved on :
	File : 2022_01_30 CoNx 1mg ref309_C05.mpr
	Directory : C:\Users\grupogalan\Documents\EC-Lab\Data\Scott\
	Host : 169.254.104.159
Device : VSP (SN 1176)
Address : USB
EC-Lab for windows v11.46 (software)
Internet server v11.40 (firmware)
Command interpretor v11.40 (firmware)
Electrode material : 
Initial state : 
Electrolyte : 
Comments : 
Electrode surface area : 0.001 cm²
Characteristic mass : 0.001 g
Equivalent Weight : 0.000 g/eq.
Density : 0.000 g/cm3
Volume (V) : 0.001 cm³
Cycle Definition : Charge/Discharge alternance
Mode                Single sine         
E (V)               0.0000              
vs.                 Eoc                 
tE (h:m:s)          0:00:0.0000         
record              0                   
dI                  0.000               
unit dI             mA                  
dt (s)              0.000               
fi                  200.000             
unit fi             kHz                 
ff                  100.000             
unit ff             mHz                 
Nd                  6                   
Points              per decade          
spacing             Logarithmic         
Va (mV)             10.0                
pw                  0.10                
Na                  2                   
corr                0                   
E range min (V)     -10.000             
E range max (V)     10.000              
I Range             Auto                
Bandwidth           5                   
nc cycles           0                   
goto Ns'            0                   
nr cycles           0                   
inc. cycle          0                   

freq/Hz	Re(Z)/Ohm	-Im(Z)/Ohm	|Z|/Ohm	Phase(Z)/deg	time/s	<Ewe>/V	<I>/mA	Cs/µF	Cp/µF	cycle number	I Range	|Ewe|/V	|I|/A	Ns	(Q-Qo)/mA.h	Re(Y)/Ohm-1	Im(Y)/Ohm-1	|Y|/Ohm-1	Phase(Y)/deg	Re(C)/nF	Im(C)/nF	|C|/nF	Phase(C)/deg	Re(M)	Im(M)	|M|	Phase(M)/deg	Re(Permittivity)	Im(Permittivity)	|Permittivity|	Phase(Permittivity)/deg	Re(Resistivity)/Ohm.cm	Im(Resistivity)/Ohm.cm	|Resistivity|/Ohm.cm	Phase(Resistivity)/deg	Re(Conductivity)/mS/cm	Im(Conductivity)/mS/cm	|Conductivity|/mS/cm	Phase(Conductivity)/deg	Tan(Delta)	Loss Angle(Delta)/deg	dq/mA.h	
1.9999814E+005	1.3804376E+000	-1.3351555E+000	1.9204812E+000	4.4044689E+001	2.380494193028426E+000	-2.1070318E-001	-1.8286973E-001	-5.9602207E-001	-2.8807521E-001	1.000000000000000E+000	9	6.6685639E-003	3.4723401E-003	0	-2.785063620188480E-005	3.7428004E-001	-3.6200261E-001	5.2070284E-001	-4.4044689E+001	-2.8807523E+002	2.9784534E+002	4.1436600E+002	-1.3404469E+002	0.0000000E+000	0.0000000E+000	0.0000000E+000	1.3404469E+002	0.0000000E+000	0.0000000E+000	0.0000000E+000	-1.3404469E+002	0.0000000E+000	0.0000000E+000	0.0000000E+000	4.4044689E+001	0.0000000E+000	0.0000000E+000	0.0000000E+000	-4.4044689E+001	-1.0339153E+000	-4.4044689E+001	-2.785063620188480E-005
1.3512284E+005	1.0053252E+000	-5.5875152E-001	1.1501660E+000	2.9064947E+001	2.802473359770374E+000	-2.1061005E-001	-1.6866983E-001	-2.1080098E+000	-4.9749532E-001	1.000000000000000E+000	9	1.0062112E-002	8.7484000E-003	0	-5.350235129023592E-005	7.5995076E-001	-4.2237443E-001	8.6943966E-001	-2.9064947E+001	-4.9749533E+002	8.9511084E+002	1.0240728E+003	-1.1906495E+002	0.0000000E+000	0.0000000E+000	0.0000000E+000	1.1906495E+002	0.0000000E+000	0.0000000E+000	0.0000000E+000	-1.1906495E+002	0.0000000E+000	0.0000000E+000	0.0000000E+000	2.9064947E+001	0.0000000E+000	0.0000000E+000	0.0000000E+000	-2.9064947E+001	-1.7992349E+000	-2.9064947E+001	-2.565171508835111E-005
9.1291195E+004	9.7466481E-001	-2.1368632E-001	9.9781430E-001	1.2365923E+001	3.361483279644744E+000	-2.1054524E-001	-1.6689950E-001	-8.1585789E+000	-3.7416962E-001	1.000000000000000E+000	9	1.0025805E-002	1.0047766E-002	0	-9.902616400954624E-005	9.7893947E-001	-2.1462351E-001	1.0021905E+000	-1.2365923E+001	-3.7416956E+002	1.7066603E+003	1.7471956E+003	-1.0236592E+002	0.0000000E+000	0.0000000E+000	0.0000000E+000	1.0236592E+002	0.0000000E+000	0.0000000E+000	0.0000000E+000	-1.0236592E+002	0.0000000E+000	0.0000000E+000	0.0000000E+000	1.2365923E+001	0.0000000E+000	0.0000000E+000	0.0000000E+000	-1.2365923E+001	-4.5611944E+000	-1.2365923E+001	-4.552381271931033E-005
6.1674211E+004	9.6783406E-001	-5.0994173E-002	9.6917653E-001	3.0160663E+000	3.920490079530282E+000	-2.1049152E-001	-1.6291167E-001	-5.0605293E+001	-1.4009780E-001	1.000000000000000E+000	9	9.7651631E-003	1.0075732E-002	0	-1.054535719452639E-004	1.0303745E+000	-5.4289363E-002	1.0318037E+000	-3.0160663E+000	-1.4009785E+002	2.6589590E+003	2.6626472E+003	-9.3016068E+001	0.0000000E+000	0.0000000E+000	0.0000000E+000	9.3016068E+001	0.0000000E+000	0.0000000E+000	0.0000000E+000	-9.3016068E+001	0.0000000E+000	0.0000000E+000	0.0000000E+000	3.0160663E+000	0.0000000E+000	0.0000000E+000	0.0000000E+000	-3.0160663E+000	-1.8979307E+001	-3.0160663E+000	-6.427407935717688E-006
4.1669758E+004	9.8817396E-001	4.4413310E-002	9.8917150E-001	-2.5734172E+000	4.342478926206240E+000	-2.1052514E-001	-1.6710450E-001	8.5997536E+001	1.7336807E-001	1.000000000000000E+000	9	9.9701285E-003	1.0079272E-002	0	-1.027990814893920E-004	1.0099275E+000	4.5391019E-002	1.0109470E+000	2.5734172E+000	1.7336810E+002	3.8573530E+003	3.8612471E+003	-8.7426582E+001	0.0000000E+000	0.0000000E+000	0.0000000E+000	8.7426582E+001	0.0000000E+000	0.0000000E+000	0.0000000E+000	-8.7426582E+001	0.0000000E+000	0.0000000E+000	0.0000000E+000	-2.5734172E+000	0.0000000E+000	0.0000000E+000	0.0000000E+000	2.5734172E+000	2.2249500E+001	2.5734172E+000	2.654490455871898E-006
2.8150979E+004	1.0202500E+000	1.6250083E-001	1.0331101E+000	-9.0497971E+000	4.901483619440114E+000	-2.1048276E-001	-1.6483106E-001	3.4791332E+001	8.6077368E-001	1.000000000000000E+000	9	1.0365659E-002	1.0033450E-002	0	-1.013550237715762E-004	9.5590198E-001	1.5225175E-001	9.6795100E-001	9.0497971E+000	8.6077356E+002	5.4043066E+003	5.4724272E+003	-8.0950203E+001	0.0000000E+000	0.0000000E+000	0.0000000E+000	8.0950203E+001	0.0000000E+000	0.0000000E+000	0.0000000E+000	-8.0950203E+001	0.0000000E+000	0.0000000E+000	0.0000000E+000	-9.0497971E+000	0.0000000E+000	0.0000000E+000	0.0000000E+000	9.0497971E+000	6.2784295E+000	9.0497971E+000	1.444057717815860E-006
1.9020934E+004	1.0214052E+000	2.7442509E-001	1.0576284E+000	-1.5038743E+001	5.460473912680754E+000	-2.1047013E-001	-1.5640815E-001	3.0490496E+001	2.0527966E+000	1.000000000000000E+000	9	1.0034017E-002	9.4872806E-003	0	-9.768885215167474E-005	9.1312850E-001	2.4533394E-001	9.4551170E-001	1.5038743E+001	2.0527966E+003	7.6404722E+003	7.9114341E+003	-7.4961258E+001	0.0000000E+000	0.0000000E+000	0.0000000E+000	7.4961258E+001	0.0000000E+000	0.0000000E+000	0.0000000E+000	-7.4961258E+001	0.0000000E+000	0.0000000E+000	0.0000000E+000	-1.5038743E+001	0.0000000E+000	0.0000000E+000	0.0000000E+000	1.5038743E+001	3.7219820E+000	1.5038743E+001	3.666171619901438E-006
1.2850729E+004	1.0278181E+000	3.9519581E-001	1.1011765E+000	-2.1031740E+001	5.882489506067941E+000	-2.1061191E-001	-1.6384342E-001	3.1338634E+001	4.0363688E+000	1.000000000000000E+000	9	1.0202628E-002	9.2652068E-003	0	-1.189649598912543E-004	8.4762228E-001	3.2591057E-001	9.0811962E-001	2.1031740E+001	4.0363684E+003	1.0497715E+004	1.1246968E+004	-6.8968262E+001	0.0000000E+000	0.0000000E+000	0.0000000E+000	6.8968262E+001	0.0000000E+000	0.0000000E+000	0.0000000E+000	-6.8968262E+001	0.0000000E+000	0.0000000E+000	0.0000000E+000	-2.1031740E+001	0.0000000E+000	0.0000000E+000	0.0000000E+000	2.1031740E+001	2.6007819E+000	2.1031740E+001	-2.127610773957955E-005
8.6833721E+003	1.0591658E+000	5.8511537E-001	1.2100382E+000	-2.8917593E+001	6.186974853859283E+000	-2.1059532E-001	-1.8756558E-001	3.1324938E+001	7.3244514E+000	1.000000000000000E+000	9	1.0195134E-002	8.4254649E-003	0	-1.394707726999186E-004	7.2337890E-001	3.9961645E-001	8.2642019E-001	2.8917593E+001	7.3244517E+003	1.3258597E+004	1.5147210E+004	-6.1082405E+001	0.0000000E+000	0.0000000E+000	0.0000000E+000	6.1082405E+001	0.0000000E+000	0.0000000E+000	0.0000000E+000	-6.1082405E+001	0.0000000E+000	0.0000000E+000	0.0000000E+000	-2.8917593E+001	0.0000000E+000	0.0000000E+000	0.0000000E+000	2.8917593E+001	1.8101829E+000	2.8917593E+001	-2.050581280866432E-005
5.8650859E+003	1.1284765E+000	8.3738756E-001	1.4052321E+000	-3.6577312E+001	6.603853220352903E+000	-2.1047883E-001	-2.0519416E-001	3.2405537E+001	1.1507372E+001	1.000000000000000E+000	9	9.8127238E-003	6.9829919E-003	0	-1.603106724311494E-004	5.7147396E-001	4.2406300E-001	7.1162623E-001	3.6577312E+001	1.1507371E+004	1.5507514E+004	1.9310686E+004	-5.3422688E+001	0.0000000E+000	0.0000000E+000	0.0000000E+000	5.3422688E+001	0.0000000E+000	0.0000000E+000	0.0000000E+000	-5.3422688E+001	0.0000000E+000	0.0000000E+000	0.0000000E+000	-3.6577312E+001	0.0000000E+000	0.0000000E+000	0.0000000E+000	3.6577312E+001	1.3476156E+000	3.6577312E+001	-2.083989973123080E-005
3.9611973E+003	1.1511080E+000	1.1525365E+000	1.6289229E+000	-4.5035530E+001	7.066955829010112E+000	-2.1059893E-001	-1.6389945E-001	3.4860931E+001	1.7452084E+001	1.000000000000000E+000	9	9.0313414E-003	5.5443640E-003	0	-1.768015896404265E-004	4.3382540E-001	4.3436378E-001	6.1390257E-001	4.5035530E+001	1.7452084E+004	1.7430451E+004	2.4665682E+004	-4.4964470E+001	0.0000000E+000	0.0000000E+000	0.0000000E+000	4.4964470E+001	0.0000000E+000	0.0000000E+000	0.0000000E+000	-4.4964470E+001	0.0000000E+000	0.0000000E+000	0.0000000E+000	-4.5035530E+001	0.0000000E+000	0.0000000E+000	0.0000000E+000	4.5035530E+001	9.9876058E-001	4.5035530E+001	-1.649091720927714E-005
2.6774299E+003	1.2140526E+000	1.7142137E+000	2.1005838E+000	-5.4692841E+001	7.749941701447824E+000	-2.1044011E-001	-1.7112978E-001	3.4676643E+001	2.3093351E+001	1.000000000000000E+000	9	1.0100407E-002	4.8083807E-003	0	-2.055654305441680E-004	2.7514237E-001	3.8849455E-001	4.7605813E-001	5.4692841E+001	2.3093354E+004	1.6355338E+004	2.8298410E+004	-3.5307159E+001	0.0000000E+000	0.0000000E+000	0.0000000E+000	3.5307159E+001	0.0000000E+000	0.0000000E+000	0.0000000E+000	-3.5307159E+001	0.0000000E+000	0.0000000E+000	0.0000000E+000	-5.4692841E+001	0.0000000E+000	0.0000000E+000	0.0000000E+000	5.4692841E+001	7.0822704E-001	5.4692841E+001	-2.876384090374148E-005
1.8082643E+003	1.3256806E+000	2.3958998E+000	2.7382047E+000	-6.1043709E+001	8.211965670052450E+000	-2.1039322E-001	-1.6671337E-001	3.6735809E+001	2.8125164E+001	1.000000000000000E+000	9	9.7651388E-003	3.5662560E-003	0	-2.240795035692863E-004	1.7681010E-001	3.1954852E-001	3.6520278E-001	6.1043709E+001	2.8125160E+004	1.5561995E+004	3.2143434E+004	-2.8956291E+001	0.0000000E+000	0.0000000E+000	0.0000000E+000	2.8956291E+001	0.0000000E+000	0.0000000E+000	0.0000000E+000	-2.8956291E+001	0.0000000E+000	0.0000000E+000	0.0000000E+000	-6.1043709E+001	0.0000000E+000	0.0000000E+000	0.0000000E+000	6.1043709E+001	5.5331224E-001	6.1043709E+001	-1.851407302511828E-005
1.2219551E+003	1.3949292E+000	3.5435443E+000	3.8082192E+000	-6.8512741E+001	8.924456663866295E+000	-2.1031253E-001	-2.0766513E-002	3.6755898E+001	3.1824303E+001	1.000000000000000E+000	10	1.0314342E-002	2.7084423E-003	0	-2.410347109181651E-004	9.6185200E-002	2.4433967E-001	2.6258993E-001	6.8512741E+001	3.1824303E+004	1.2527752E+004	3.4201328E+004	-2.1487259E+001	0.0000000E+000	0.0000000E+000	0.0000000E+000	2.1487259E+001	0.0000000E+000	0.0000000E+000	0.0000000E+000	-2.1487259E+001	0.0000000E+000	0.0000000E+000	0.0000000E+000	-6.8512741E+001	0.0000000E+000	0.0000000E+000	0.0000000E+000	6.8512741E+001	3.9365366E-001	6.8512741E+001	-1.695520734887882E-005
8.2526404E+002	1.5110272E+000	4.9820304E+000	5.2061338E+000	-7.3127686E+001	9.385686659152270E+000	-2.1056123E-001	-2.0781437E-002	3.8709789E+001	3.5448910E+001	1.000000000000000E+000	10	9.7034993E-003	1.8638589E-003	0	-2.429159458370026E-004	5.5749591E-002	1.8381278E-001	1.9208112E-001	7.3127686E+001	3.5448910E+004	1.0751495E+004	3.7043488E+004	-1.6872314E+001	0.0000000E+000	0.0000000E+000	0.0000000E+000	1.6872314E+001	0.0000000E+000	0.0000000E+000	0.0000000E+000	-1.6872314E+001	0.0000000E+000	0.0000000E+000	0.0000000E+000	-7.3127686E+001	0.0000000E+000	0.0000000E+000	0.0000000E+000	7.3127686E+001	3.0329546E-001	7.3127686E+001	-1.881234918837439E-006
5.5803571E+002	1.7305619E+000	7.3782287E+000	7.5784631E+000	-7.6799896E+001	9.849465107807191E+000	-2.1044225E-001	-2.2308145E-002	3.8655029E+001	3.6639370E+001	1.000000000000000E+000	10	9.7019533E-003	1.2802007E-003	0	-2.442505950330071E-004	3.0131789E-002	1.2846649E-001	1.3195288E-001	7.6799896E+001	3.6639367E+004	8.5937559E+003	3.7633707E+004	-1.3200104E+001	0.0000000E+000	0.0000000E+000	0.0000000E+000	1.3200104E+001	0.0000000E+000	0.0000000E+000	0.0000000E+000	-1.3200104E+001	0.0000000E+000	0.0000000E+000	0.0000000E+000	-7.6799896E+001	0.0000000E+000	0.0000000E+000	0.0000000E+000	7.6799896E+001	2.3454978E-001	7.6799896E+001	-1.334649196004515E-006
3.7705118E+002	1.7743855E+000	1.0650736E+001	1.0797528E+001	-8.0541534E+001	1.030866000966125E+001	-2.1041213E-001	-2.0710632E-002	3.9631474E+001	3.8561218E+001	1.000000000000000E+000	10	9.5371921E-003	8.8327553E-004	0	-2.462251346343012E-004	1.5219464E-002	9.1354698E-002	9.2613786E-002	8.0541534E+001	3.8561219E+004	6.4242021E+003	3.9092684E+004	-9.4584656E+000	0.0000000E+000	0.0000000E+000	0.0000000E+000	9.4584656E+000	0.0000000E+000	0.0000000E+000	0.0000000E+000	-9.4584656E+000	0.0000000E+000	0.0000000E+000	0.0000000E+000	-8.0541534E+001	0.0000000E+000	0.0000000E+000	0.0000000E+000	8.0541534E+001	1.6659746E-001	8.0541534E+001	-1.974539601294167E-006
2.5475545E+002	2.1173034E+000	1.5586250E+001	1.5729404E+001	-8.2264046E+001	1.077094032493187E+001	-2.1032238E-001	-2.1821637E-002	4.0082520E+001	3.9356255E+001	1.000000000000000E+000	10	9.6140699E-003	6.1121641E-004	0	-2.493958707301871E-004	8.5577322E-003	6.2996596E-002	6.3575201E-002	8.2264046E+001	3.9356250E+004	5.3463242E+003	3.9717723E+004	-7.7359543E+000	0.0000000E+000	0.0000000E+000	0.0000000E+000	7.7359543E+000	0.0000000E+000	0.0000000E+000	0.0000000E+000	-7.7359543E+000	0.0000000E+000	0.0000000E+000	0.0000000E+000	-8.2264046E+001	0.0000000E+000	0.0000000E+000	0.0000000E+000	8.2264046E+001	1.3584431E-001	8.2264046E+001	-3.170736095885836E-006
1.7203688E+002	2.7552626E+000	2.2323185E+001	2.2492579E+001	-8.2963791E+001	1.122739994656877E+001	-2.1058647E-001	-2.2488985E-002	4.1442162E+001	4.0820305E+001	1.000000000000000E+000	10	9.4944807E-003	4.2211617E-004	0	-2.513035475853330E-004	5.4460885E-003	4.4124283E-002	4.4459108E-002	8.2963791E+001	4.0820305E+004	5.0382915E+003	4.1130059E+004	-7.0362091E+000	0.0000000E+000	0.0000000E+000	0.0000000E+000	7.0362091E+000	0.0000000E+000	0.0000000E+000	0.0000000E+000	-7.0362091E+000	0.0000000E+000	0.0000000E+000	0.0000000E+000	-8.2963791E+001	0.0000000E+000	0.0000000E+000	0.0000000E+000	8.2963791E+001	1.2342605E-001	8.2963791E+001	-1.907676855145873E-006
1.1622738E+002	4.2255573E+000	3.2864735E+001	3.3135269E+001	-8.2673439E+001	1.193362672684452E+001	-2.1033148E-001	-2.6509911E-003	4.1665977E+001	4.0988388E+001	1.000000000000000E+000	11	9.6511291E-003	2.9126456E-004	0	-2.533666763998626E-004	3.8486007E-003	2.9932922E-002	3.0179324E-002	8.2673439E+001	4.0988387E+004	5.2700474E+003	4.1325793E+004	-7.3265610E+000	0.0000000E+000	0.0000000E+000	0.0000000E+000	7.3265610E+000	0.0000000E+000	0.0000000E+000	0.0000000E+000	-7.3265610E+000	0.0000000E+000	0.0000000E+000	0.0000000E+000	-8.2673439E+001	0.0000000E+000	0.0000000E+000	0.0000000E+000	8.2673439E+001	1.2857421E-001	8.2673439E+001	-2.063128814529692E-006
7.8517616E+001	4.7352037E+000	4.8442402E+001	4.8673283E+001	-8.4417122E+001	1.240351578910486E+001	-2.1050772E-001	-2.7430793E-003	4.1843441E+001	4.1447414E+001	1.000000000000000E+000	11	9.7233765E-003	1.9976826E-004	0	-2.538062976740588E-004	1.9987451E-003	2.0447697E-002	2.0545153E-002	8.4417122E+001	4.1447406E+004	4.0514492E+003	4.1644949E+004	-5.5828781E+000	0.0000000E+000	0.0000000E+000	0.0000000E+000	5.5828781E+000	0.0000000E+000	0.0000000E+000	0.0000000E+000	-5.5828781E+000	0.0000000E+000	0.0000000E+000	0.0000000E+000	-8.4417122E+001	0.0000000E+000	0.0000000E+000	0.0000000E+000	8.4417122E+001	9.7749151E-002	8.4417122E+001	-4.396212741961786E-007
5.3047844E+001	5.7978249E+000	6.9167641E+001	6.9410210E+001	-8.5208511E+001	1.288012778511620E+001	-2.1047921E-001	-2.8308805E-003	4.3375992E+001	4.3073349E+001	1.000000000000000E+000	11	9.5214499E-003	1.3717651E-004	0	-2.541796407060780E-004	1.2034226E-003	1.4356753E-002	1.4407102E-002	8.5208511E+001	4.3073348E+004	3.6105266E+003	4.3224406E+004	-4.7914886E+000	0.0000000E+000	0.0000000E+000	0.0000000E+000	4.7914886E+000	0.0000000E+000	0.0000000E+000	0.0000000E+000	-4.7914886E+000	0.0000000E+000	0.0000000E+000	0.0000000E+000	-8.5208511E+001	0.0000000E+000	0.0000000E+000	0.0000000E+000	8.5208511E+001	8.3822794E-002	8.5208511E+001	-3.733430320192036E-007
3.5837154E+001	8.5716400E+000	9.9841293E+001	1.0020856E+002	-8.5093040E+001	1.333205780657590E+001	-2.1037102E-001	-2.7919214E-003	4.4481194E+001	4.4155735E+001	1.000000000000000E+000	11	9.5154978E-003	9.4956929E-005	0	-2.545939881036482E-004	8.5359911E-004	9.9426117E-003	9.9791866E-003	8.5093040E+001	4.4155734E+004	3.7908848E+003	4.4318164E+004	-4.9069595E+000	0.0000000E+000	0.0000000E+000	0.0000000E+000	4.9069595E+000	0.0000000E+000	0.0000000E+000	0.0000000E+000	-4.9069595E+000	0.0000000E+000	0.0000000E+000	0.0000000E+000	-8.5093040E+001	0.0000000E+000	0.0000000E+000	0.0000000E+000	8.5093040E+001	8.5852653E-002	8.5093040E+001	-4.143473975701424E-007
2.4232319E+001	1.4213928E+001	1.4493102E+002	1.4562636E+002	-8.4398705E+001	1.380707465580781E+001	-2.1029109E-001	-2.4638411E-003	4.5317280E+001	4.4885548E+001	1.000000000000000E+000	11	9.5061623E-003	6.5277760E-005	0	-2.547699637860205E-004	6.7024544E-004	6.8341005E-003	6.8668886E-003	8.4398705E+001	4.4885547E+004	4.4020908E+003	4.5100895E+004	-5.6012955E+000	0.0000000E+000	0.0000000E+000	0.0000000E+000	5.6012955E+000	0.0000000E+000	0.0000000E+000	0.0000000E+000	-5.6012955E+000	0.0000000E+000	0.0000000E+000	0.0000000E+000	-8.4398705E+001	0.0000000E+000	0.0000000E+000	0.0000000E+000	8.4398705E+001	9.8073751E-002	8.4398705E+001	-1.759756823723423E-007
1.6366972E+001	1.6939125E+001	2.0743465E+002	2.0812512E+002	-8.5331581E+001	1.446903388723149E+001	-2.1043974E-001	2.6399237E-005	4.6878155E+001	4.6567623E+001	1.000000000000000E+000	12	9.3376059E-003	4.4865348E-005	0	-2.552446467378565E-004	3.9105880E-004	4.7888616E-003	4.8048021E-003	8.5331581E+001	4.6567625E+004	3.8027156E+003	4.6722633E+004	-4.6684189E+000	0.0000000E+000	0.0000000E+000	0.0000000E+000	4.6684189E+000	0.0000000E+000	0.0000000E+000	0.0000000E+000	-4.6684189E+000	0.0000000E+000	0.0000000E+000	0.0000000E+000	-8.5331581E+001	0.0000000E+000	0.0000000E+000	0.0000000E+000	8.5331581E+001	8.1660055E-002	8.5331581E+001	-4.746829518359626E-007
1.1050212E+001	2.8908728E+001	3.0147540E+002	3.0285828E+002	-8.4522606E+001	1.489272988072480E+001	-2.1045983E-001	-4.2113988E-004	4.7774666E+001	4.7339375E+001	1.000000000000000E+000	12	9.3082404E-003	3.0734642E-005	0	-2.554567037698523E-004	3.1517388E-004	3.2867980E-003	3.3018745E-003	8.4522606E+001	4.7339371E+004	4.5394126E+003	4.7556516E+004	-5.4773941E+000	0.0000000E+000	0.0000000E+000	0.0000000E+000	5.4773941E+000	0.0000000E+000	0.0000000E+000	0.0000000E+000	-5.4773941E+000	0.0000000E+000	0.0000000E+000	0.0000000E+000	-8.4522606E+001	0.0000000E+000	0.0000000E+000	0.0000000E+000	8.4522606E+001	9.5890835E-002	8.4522606E+001	-2.120570319958564E-007
