EC-Lab ASCII FILE
Nb header lines : 63                          

Potentio Electrochemical Impedance Spectroscopy

Run on channel : 5 (SN 30436)
User : 
CE vs. WE compliance from -10 V to 10 V
Electrode connection : standard
Potential control : Ewe
Ewe ctrl range : min = -10.00 V, max = 10.00 V
Safety Limits :
	Do not start on E overload
Acquisition started on : 01/26/2023 11:17:27.002
Loaded Setting File :  NONE
Saved on :
	File : 2022_01_26 IrOx 1mg  ref309 elect1_C05.mpr
	Directory : C:\Users\grupogalan\Documents\EC-Lab\Data\Scott\
	Host : 169.254.104.159
Device : VSP (SN 1176)
Address : USB
EC-Lab for windows v11.46 (software)
Internet server v11.40 (firmware)
Command interpretor v11.40 (firmware)
Electrode material : 
Initial state : 
Electrolyte : 
Comments : 
Electrode surface area : 0.001 cm²
Characteristic mass : 0.001 g
Equivalent Weight : 0.000 g/eq.
Density : 0.000 g/cm3
Volume (V) : 0.001 cm³
Cycle Definition : Charge/Discharge alternance
Mode                Single sine         
E (V)               0.0000              
vs.                 Eoc                 
tE (h:m:s)          0:00:0.0000         
record              0                   
dI                  0.000               
unit dI             mA                  
dt (s)              0.000               
fi                  200.000             
unit fi             kHz                 
ff                  100.000             
unit ff             mHz                 
Nd                  6                   
Points              per decade          
spacing             Logarithmic         
Va (mV)             10.0                
pw                  0.10                
Na                  2                   
corr                0                   
E range min (V)     -10.000             
E range max (V)     10.000              
I Range             Auto                
Bandwidth           5                   
nc cycles           0                   
goto Ns'            0                   
nr cycles           0                   
inc. cycle          0                   

freq/Hz	Re(Z)/Ohm	-Im(Z)/Ohm	|Z|/Ohm	Phase(Z)/deg	time/s	<Ewe>/V	<I>/mA	Cs/µF	Cp/µF	cycle number	I Range	|Ewe|/V	|I|/A	Ns	(Q-Qo)/mA.h	Re(Y)/Ohm-1	Im(Y)/Ohm-1	|Y|/Ohm-1	Phase(Y)/deg	Re(C)/nF	Im(C)/nF	|C|/nF	Phase(C)/deg	Re(M)	Im(M)	|M|	Phase(M)/deg	Re(Permittivity)	Im(Permittivity)	|Permittivity|	Phase(Permittivity)/deg	Re(Resistivity)/Ohm.cm	Im(Resistivity)/Ohm.cm	|Resistivity|/Ohm.cm	Phase(Resistivity)/deg	Re(Conductivity)/mS/cm	Im(Conductivity)/mS/cm	|Conductivity|/mS/cm	Phase(Conductivity)/deg	Tan(Delta)	Loss Angle(Delta)/deg	dq/mA.h	
1.9999814E+005	1.2425345E+000	-1.3625077E+000	1.8439955E+000	4.7636852E+001	2.068478818197036E+000	-6.4982489E-002	-1.3686037E-001	-5.8405697E-001	-3.1886983E-001	1.000000000000000E+000	9	6.4002858E-003	3.4708793E-003	0	-2.107288811129466E-005	3.6541700E-001	-4.0069997E-001	5.4230070E-001	-4.7636852E+001	-3.1886987E+002	2.9079230E+002	4.3155319E+002	-1.3763686E+002	0.0000000E+000	0.0000000E+000	0.0000000E+000	1.3763686E+002	0.0000000E+000	0.0000000E+000	0.0000000E+000	-1.3763686E+002	0.0000000E+000	0.0000000E+000	0.0000000E+000	4.7636852E+001	0.0000000E+000	0.0000000E+000	0.0000000E+000	-4.7636852E+001	-9.1194677E-001	-4.7636852E+001	-2.107288811129466E-005
1.3512284E+005	8.6763346E-001	-5.3743535E-001	1.0206001E+000	3.1775181E+001	2.353482458420331E+000	-6.4783290E-002	-1.4403459E-001	-2.1916194E+000	-6.0772401E-001	1.000000000000000E+000	9	9.8164314E-003	9.6182935E-003	0	-2.421592219944836E-005	8.3296180E-001	-5.1595879E-001	9.7981572E-001	-3.1775181E+001	-6.0772394E+002	9.8110718E+002	1.1540796E+003	-1.2177518E+002	0.0000000E+000	0.0000000E+000	0.0000000E+000	1.2177518E+002	0.0000000E+000	0.0000000E+000	0.0000000E+000	-1.2177518E+002	0.0000000E+000	0.0000000E+000	0.0000000E+000	3.1775181E+001	0.0000000E+000	0.0000000E+000	0.0000000E+000	-3.1775181E+001	-1.6143960E+000	-3.1775181E+001	-3.143034088153704E-006
9.1291195E+004	8.0967486E-001	-2.5291657E-001	8.4825712E-001	1.7347139E+001	2.912495684955502E+000	-6.4819776E-002	-1.4938276E-001	-6.8930902E+000	-6.1279255E-001	1.000000000000000E+000	9	1.0198869E-002	1.2023322E-002	0	-6.616853734431788E-005	1.1252671E+000	-3.5149753E-001	1.1788878E+000	-1.7347139E+001	-6.1279248E+002	1.9617643E+003	2.0552454E+003	-1.0734714E+002	0.0000000E+000	0.0000000E+000	0.0000000E+000	1.0734714E+002	0.0000000E+000	0.0000000E+000	0.0000000E+000	-1.0734714E+002	0.0000000E+000	0.0000000E+000	0.0000000E+000	1.7347139E+001	0.0000000E+000	0.0000000E+000	0.0000000E+000	-1.7347139E+001	-3.2013514E+000	-1.7347139E+001	-4.195261514486951E-005
6.1674211E+004	7.8748423E-001	-1.1352663E-001	7.9562533E-001	8.2034521E+000	3.471478218183620E+000	-6.4839661E-002	-1.4155613E-001	-2.2731012E+001	-4.6280399E-001	1.000000000000000E+000	9	9.8319119E-003	1.2357465E-002	0	-1.079408706773449E-004	1.2440122E+000	-1.7934141E-001	1.2568730E+000	-8.2034521E+000	-4.6280408E+002	3.2102673E+003	3.2434556E+003	-9.8203453E+001	0.0000000E+000	0.0000000E+000	0.0000000E+000	9.8203453E+001	0.0000000E+000	0.0000000E+000	0.0000000E+000	-9.8203453E+001	0.0000000E+000	0.0000000E+000	0.0000000E+000	8.2034521E+000	0.0000000E+000	0.0000000E+000	0.0000000E+000	-8.2034521E+000	-6.9365592E+000	-8.2034521E+000	-4.177233333302704E-005
4.1669758E+004	7.8672737E-001	-2.9187227E-002	7.8726858E-001	2.1246729E+000	3.893482291576220E+000	-6.4735174E-002	-1.3805279E-001	-1.3085982E+002	-1.7986478E-001	1.000000000000000E+000	9	9.2400145E-003	1.1736801E-002	0	-1.621400632197037E-004	1.2693413E+000	-4.7091983E-002	1.2702146E+000	-2.1246729E+000	-1.7986470E+002	4.8481665E+003	4.8515020E+003	-9.2124672E+001	0.0000000E+000	0.0000000E+000	0.0000000E+000	9.2124672E+001	0.0000000E+000	0.0000000E+000	0.0000000E+000	-9.2124672E+001	0.0000000E+000	0.0000000E+000	0.0000000E+000	2.1246729E+000	0.0000000E+000	0.0000000E+000	0.0000000E+000	-2.1246729E+000	-2.6954510E+001	-2.1246729E+000	-5.419919254235882E-005
2.8150979E+004	8.1041646E-001	2.5017835E-002	8.1080252E-001	-1.7681789E+000	4.315476498304633E+000	-6.4884715E-002	-1.3384131E-001	2.2598360E+002	2.1515240E-001	1.000000000000000E+000	9	1.0546601E-002	1.3007608E-002	0	-1.588338715220905E-004	1.2327588E+000	3.8055688E-002	1.2333460E+000	1.7681789E+000	2.1515263E+002	6.9695493E+003	6.9728696E+003	-8.8231819E+001	0.0000000E+000	0.0000000E+000	0.0000000E+000	8.8231819E+001	0.0000000E+000	0.0000000E+000	0.0000000E+000	-8.8231819E+001	0.0000000E+000	0.0000000E+000	0.0000000E+000	-1.7681789E+000	0.0000000E+000	0.0000000E+000	0.0000000E+000	1.7681789E+000	3.2393547E+001	1.7681789E+000	3.306191697613226E-006
1.9020934E+004	8.4383798E-001	7.8386426E-002	8.4747094E-001	-5.3071322E+000	4.874481458187802E+000	-6.4910874E-002	-1.3816459E-001	1.0674497E+002	9.1322869E-001	1.000000000000000E+000	9	1.0204681E-002	1.2041335E-002	0	-2.002135488791391E-004	1.1749231E+000	1.0914184E-001	1.1799815E+000	5.3071322E+000	9.1322815E+002	9.8310010E+003	9.8733262E+003	-8.4692871E+001	0.0000000E+000	0.0000000E+000	0.0000000E+000	8.4692871E+001	0.0000000E+000	0.0000000E+000	0.0000000E+000	-8.4692871E+001	0.0000000E+000	0.0000000E+000	0.0000000E+000	-5.3071322E+000	0.0000000E+000	0.0000000E+000	0.0000000E+000	5.3071322E+000	1.0765103E+001	5.3071322E+000	-4.137967735704862E-005
1.2850729E+004	8.7638247E-001	1.1458747E-001	8.8384193E-001	-7.4491954E+000	5.296480118209729E+000	-6.4717583E-002	-1.3346864E-001	1.0808247E+002	1.8166878E+000	1.000000000000000E+000	9	1.0350762E-002	1.1711101E-002	0	-1.964290436708058E-004	1.1218750E+000	1.4668576E-001	1.1314241E+000	7.4491954E+000	1.8166880E+003	1.3894307E+004	1.4012569E+004	-8.2550804E+001	0.0000000E+000	0.0000000E+000	0.0000000E+000	8.2550804E+001	0.0000000E+000	0.0000000E+000	0.0000000E+000	-8.2550804E+001	0.0000000E+000	0.0000000E+000	0.0000000E+000	-7.4491954E+000	0.0000000E+000	0.0000000E+000	0.0000000E+000	7.4491954E+000	7.6481528E+000	7.4491954E+000	3.784505208333342E-006
8.6833721E+003	9.1555423E-001	1.6232920E-001	9.2983347E-001	-1.0054147E+001	5.600981786032207E+000	-6.4868227E-002	-1.5493594E-001	1.1291071E+002	3.4412642E+000	1.000000000000000E+000	9	1.0981337E-002	1.1810004E-002	0	-2.182378902163926E-004	1.0589458E+000	1.8775274E-001	1.0754614E+000	1.0054147E+001	3.4412639E+003	1.9409102E+004	1.9711813E+004	-7.9945854E+001	0.0000000E+000	0.0000000E+000	0.0000000E+000	7.9945854E+001	0.0000000E+000	0.0000000E+000	0.0000000E+000	-7.9945854E+001	0.0000000E+000	0.0000000E+000	0.0000000E+000	-1.0054147E+001	0.0000000E+000	0.0000000E+000	0.0000000E+000	1.0054147E+001	5.6401081E+000	1.0054147E+001	-2.180884654558678E-005
5.8650859E+003	9.7050726E-001	1.7544903E-001	9.8623866E-001	-1.0247298E+001	6.017859245825093E+000	-6.4809702E-002	-1.7550878E-001	1.5466597E+002	4.8947744E+000	1.000000000000000E+000	9	1.0912747E-002	1.1065017E-002	0	-2.462049657063455E-004	9.9777985E-001	1.8037941E-001	1.0139533E+000	1.0247298E+001	4.8947754E+003	2.7075752E+004	2.7514635E+004	-7.9752701E+001	0.0000000E+000	0.0000000E+000	0.0000000E+000	7.9752701E+001	0.0000000E+000	0.0000000E+000	0.0000000E+000	-7.9752701E+001	0.0000000E+000	0.0000000E+000	0.0000000E+000	-1.0247298E+001	0.0000000E+000	0.0000000E+000	0.0000000E+000	1.0247298E+001	5.5315623E+000	1.0247298E+001	-2.796707548995296E-005
3.9611973E+003	1.0089318E+000	2.3734100E-001	1.0364720E+000	-1.3237576E+001	6.480970334494486E+000	-6.4718291E-002	-1.5433964E-001	1.6928595E+002	8.8766956E+000	1.000000000000000E+000	9	1.0572731E-002	1.0200691E-002	0	-2.655851603388761E-004	9.3917537E-001	2.2093150E-001	9.6481144E-001	1.3237576E+001	8.8766973E+003	3.7734648E+004	3.8764668E+004	-7.6762421E+001	0.0000000E+000	0.0000000E+000	0.0000000E+000	7.6762421E+001	0.0000000E+000	0.0000000E+000	0.0000000E+000	-7.6762421E+001	0.0000000E+000	0.0000000E+000	0.0000000E+000	-1.3237576E+001	0.0000000E+000	0.0000000E+000	0.0000000E+000	1.3237576E+001	4.2509794E+000	1.3237576E+001	-1.938019463253052E-005
2.6774299E+003	1.0824873E+000	2.5624925E-001	1.1124040E+000	-1.3318049E+001	6.942950329772430E+000	-6.4646058E-002	-1.5497325E-001	2.3197404E+002	1.2309475E+001	1.000000000000000E+000	9	1.0472232E-002	9.4140554E-003	0	-2.808392262414046E-004	8.7477785E-001	2.0707971E-001	8.9895397E-001	1.3318049E+001	1.2309474E+004	5.1999578E+004	5.3436684E+004	-7.6681953E+001	0.0000000E+000	0.0000000E+000	0.0000000E+000	7.6681953E+001	0.0000000E+000	0.0000000E+000	0.0000000E+000	-7.6681953E+001	0.0000000E+000	0.0000000E+000	0.0000000E+000	-1.3318049E+001	0.0000000E+000	0.0000000E+000	0.0000000E+000	1.3318049E+001	4.2243533E+000	1.3318049E+001	-1.525406590252852E-005
1.8082643E+003	1.1572914E+000	2.7103841E-001	1.1886064E+000	-1.3181142E+001	7.404933871730464E+000	-6.4795598E-002	-1.6106685E-001	3.2473373E+002	1.6885464E+001	1.000000000000000E+000	9	1.0385374E-002	8.7374374E-003	0	-2.991949933369954E-004	8.1915599E-001	1.9184688E-001	8.4132141E-001	1.3181142E+001	1.6885465E+004	7.2098266E+004	7.4049164E+004	-7.6818855E+001	0.0000000E+000	0.0000000E+000	0.0000000E+000	7.6818855E+001	0.0000000E+000	0.0000000E+000	0.0000000E+000	-7.6818855E+001	0.0000000E+000	0.0000000E+000	0.0000000E+000	-1.3181142E+001	0.0000000E+000	0.0000000E+000	0.0000000E+000	1.3181142E+001	4.2698426E+000	1.3181142E+001	-1.835576709559083E-005
1.2219551E+003	1.2196066E+000	2.8484136E-001	1.2524276E+000	-1.3145895E+001	7.866435333591653E+000	-6.4781867E-002	-1.5883072E-001	4.5725858E+002	2.3651718E+001	1.000000000000000E+000	9	1.0234012E-002	8.1713405E-003	0	-3.248203193428926E-004	7.7752525E-001	1.8159245E-001	7.9844934E-001	1.3145895E+001	2.3651723E+004	1.0126967E+005	1.0399495E+005	-7.6854103E+001	0.0000000E+000	0.0000000E+000	0.0000000E+000	7.6854103E+001	0.0000000E+000	0.0000000E+000	0.0000000E+000	-7.6854103E+001	0.0000000E+000	0.0000000E+000	0.0000000E+000	-1.3145895E+001	0.0000000E+000	0.0000000E+000	0.0000000E+000	1.3145895E+001	4.2817049E+000	1.3145895E+001	-2.562532600589718E-005
8.2526404E+002	1.2915958E+000	2.5876117E-001	1.3172612E+000	-1.1328784E+001	8.327708155564324E+000	-6.4605050E-002	-1.5694861E-001	7.4529480E+002	2.8759577E+001	1.000000000000000E+000	9	1.0185952E-002	7.7326745E-003	0	-3.472173724092233E-004	7.4435961E-001	1.4912665E-001	7.5915086E-001	1.1328784E+001	2.8759568E+004	1.4355227E+005	1.4640480E+005	-7.8671219E+001	0.0000000E+000	0.0000000E+000	0.0000000E+000	7.8671219E+001	0.0000000E+000	0.0000000E+000	0.0000000E+000	-7.8671219E+001	0.0000000E+000	0.0000000E+000	0.0000000E+000	-1.1328784E+001	0.0000000E+000	0.0000000E+000	0.0000000E+000	1.1328784E+001	4.9914594E+000	1.1328784E+001	-2.239705306633069E-005
5.5803571E+002	1.3346616E+000	2.6561573E-001	1.3608356E+000	-1.1255575E+001	8.791437430860242E+000	-6.4765304E-002	-1.6630331E-001	1.0737529E+003	4.0907284E+001	1.000000000000000E+000	9	1.0017634E-002	7.3613850E-003	0	-3.611944394424920E-004	7.2070891E-001	1.4343081E-001	7.3484266E-001	1.1255575E+001	4.0907289E+004	2.0555025E+005	2.0958128E+005	-7.8744423E+001	0.0000000E+000	0.0000000E+000	0.0000000E+000	7.8744423E+001	0.0000000E+000	0.0000000E+000	0.0000000E+000	-7.8744423E+001	0.0000000E+000	0.0000000E+000	0.0000000E+000	-1.1255575E+001	0.0000000E+000	0.0000000E+000	0.0000000E+000	1.1255575E+001	5.0247836E+000	1.1255575E+001	-1.397706703326873E-005
3.7705118E+002	1.4341395E+000	3.0338347E-001	1.4658778E+000	-1.1944476E+001	9.250682306075760E+000	-6.4468883E-002	-1.4751942E-001	1.3913229E+003	5.9595875E+001	1.000000000000000E+000	9	1.0335700E-002	7.0508602E-003	0	-3.814325959727996E-004	6.6741484E-001	1.4118755E-001	6.8218511E-001	1.1944476E+001	5.9595867E+004	2.8171872E+005	2.8795331E+005	-7.8055527E+001	0.0000000E+000	0.0000000E+000	0.0000000E+000	7.8055527E+001	0.0000000E+000	0.0000000E+000	0.0000000E+000	-7.8055527E+001	0.0000000E+000	0.0000000E+000	0.0000000E+000	-1.1944476E+001	0.0000000E+000	0.0000000E+000	0.0000000E+000	1.1944476E+001	4.7271509E+000	1.1944476E+001	-2.023815653030760E-005
2.5475545E+002	1.4629530E+000	3.0439746E-001	1.4942855E+000	-1.1753860E+001	9.712926034670090E+000	-6.4548619E-002	-1.5691137E-001	2.0523699E+003	8.5166840E+001	1.000000000000000E+000	9	1.0121820E-002	6.7736860E-003	0	-4.079951749138224E-004	6.5518385E-001	1.3632448E-001	6.6921616E-001	1.1753860E+001	8.5166844E+004	4.0931706E+005	4.1808353E+005	-7.8246140E+001	0.0000000E+000	0.0000000E+000	0.0000000E+000	7.8246140E+001	0.0000000E+000	0.0000000E+000	0.0000000E+000	-7.8246140E+001	0.0000000E+000	0.0000000E+000	0.0000000E+000	-1.1753860E+001	0.0000000E+000	0.0000000E+000	0.0000000E+000	1.1753860E+001	4.8060617E+000	1.1753860E+001	-2.656257894102277E-005
1.7203688E+002	1.5317208E+000	3.3273274E-001	1.5674436E+000	-1.2255843E+001	1.016938354968443E+001	-6.4778417E-002	-1.6544612E-001	2.7803730E+003	1.2528823E+002	1.000000000000000E+000	9	1.0216901E-002	6.5181935E-003	0	-4.215006312475177E-004	6.2344152E-001	1.3542901E-001	6.3798147E-001	1.2255843E+001	1.2528823E+005	5.7675888E+005	5.9021006E+005	-7.7744156E+001	0.0000000E+000	0.0000000E+000	0.0000000E+000	7.7744156E+001	0.0000000E+000	0.0000000E+000	0.0000000E+000	-7.7744156E+001	0.0000000E+000	0.0000000E+000	0.0000000E+000	-1.2255843E+001	0.0000000E+000	0.0000000E+000	0.0000000E+000	1.2255843E+001	4.6034565E+000	1.2255843E+001	-1.350545633369536E-005
1.1622738E+002	1.5669743E+000	3.6445683E-001	1.6087999E+000	-1.3093427E+001	1.062664095809669E+001	-6.4835057E-002	-1.6840905E-001	3.7572112E+003	1.9282072E+002	1.000000000000000E+000	9	1.0053914E-002	6.2493253E-003	0	-4.442914052172823E-004	6.0542142E-001	1.4081275E-001	6.2158132E-001	1.3093427E+001	1.9282077E+005	8.2902850E+005	8.5115694E+005	-7.6906570E+001	0.0000000E+000	0.0000000E+000	0.0000000E+000	7.6906570E+001	0.0000000E+000	0.0000000E+000	0.0000000E+000	-7.6906570E+001	0.0000000E+000	0.0000000E+000	0.0000000E+000	-1.3093427E+001	0.0000000E+000	0.0000000E+000	0.0000000E+000	1.3093427E+001	4.2994785E+000	1.3093427E+001	-2.279077396976454E-005
7.8517616E+001	1.6641259E+000	4.3084776E-001	1.7189953E+000	-1.4515346E+001	1.109650815368514E+001	-6.4733960E-002	-1.5212223E-001	4.7046704E+003	2.9554764E+002	1.000000000000000E+000	9	1.0323179E-002	6.0053561E-003	0	-4.637795481218491E-004	5.6316644E-001	1.4580569E-001	5.8173513E-001	1.4515346E+001	2.9554759E+005	1.1415366E+006	1.1791753E+006	-7.5484657E+001	0.0000000E+000	0.0000000E+000	0.0000000E+000	7.5484657E+001	0.0000000E+000	0.0000000E+000	0.0000000E+000	-7.5484657E+001	0.0000000E+000	0.0000000E+000	0.0000000E+000	-1.4515346E+001	0.0000000E+000	0.0000000E+000	0.0000000E+000	1.4515346E+001	3.8624454E+000	1.4515346E+001	-1.948814290456677E-005
5.3047844E+001	1.7183878E+000	4.9041891E-001	1.7869996E+000	-1.5928469E+001	1.157313462966704E+001	-6.4719819E-002	-1.5853262E-001	6.1176577E+003	4.6075568E+002	1.000000000000000E+000	9	1.0131491E-002	5.6695542E-003	0	-4.880873832910632E-004	5.3811151E-001	1.5357420E-001	5.5959719E-001	1.5928469E+001	4.6075559E+005	1.6144503E+006	1.6789120E+006	-7.4071533E+001	0.0000000E+000	0.0000000E+000	0.0000000E+000	7.4071533E+001	0.0000000E+000	0.0000000E+000	0.0000000E+000	-7.4071533E+001	0.0000000E+000	0.0000000E+000	0.0000000E+000	-1.5928469E+001	0.0000000E+000	0.0000000E+000	0.0000000E+000	1.5928469E+001	3.5039184E+000	1.5928469E+001	-2.430783516921416E-005
3.5837154E+001	1.7791544E+000	6.3309902E-001	1.8884398E+000	-1.9587727E+001	1.227209620954818E+001	-6.4760640E-002	-2.1603413E-002	7.0147949E+003	7.8840973E+002	1.000000000000000E+000	10	1.0186164E-002	5.3939573E-003	0	-5.050998920264084E-004	4.9889296E-001	1.7752738E-001	5.2953768E-001	1.9587727E+001	7.8840956E+005	2.2156135E+006	2.3517085E+006	-7.0412277E+001	0.0000000E+000	0.0000000E+000	0.0000000E+000	7.0412277E+001	0.0000000E+000	0.0000000E+000	0.0000000E+000	-7.0412277E+001	0.0000000E+000	0.0000000E+000	0.0000000E+000	-1.9587727E+001	0.0000000E+000	0.0000000E+000	0.0000000E+000	1.9587727E+001	2.8102310E+000	1.9587727E+001	-1.701250873534520E-005
2.4232319E+001	1.8959135E+000	8.0063331E-001	2.0580335E+000	-2.2894053E+001	1.274708209879464E+001	-6.4595126E-002	-1.5923537E-002	8.2033555E+003	1.2415206E+003	1.000000000000000E+000	10	1.0390475E-002	5.0487397E-003	0	-4.931236367614086E-004	4.4762433E-001	1.8902916E-001	4.8590076E-001	2.2894053E+001	1.2415205E+006	2.9399423E+006	3.1913373E+006	-6.7105949E+001	0.0000000E+000	0.0000000E+000	0.0000000E+000	6.7105949E+001	0.0000000E+000	0.0000000E+000	0.0000000E+000	-6.7105949E+001	0.0000000E+000	0.0000000E+000	0.0000000E+000	-2.2894053E+001	0.0000000E+000	0.0000000E+000	0.0000000E+000	2.2894053E+001	2.3680172E+000	2.2894053E+001	1.197625526499981E-005
1.6366972E+001	1.9486091E+000	1.1032476E+000	2.2392483E+000	-2.9517319E+001	1.317403190574260E+001	-6.4961351E-002	-1.9368388E-002	8.8141162E+003	2.1395396E+003	1.000000000000000E+000	10	1.0318555E-002	4.6080444E-003	0	-4.914829680521482E-004	3.8861561E-001	2.2002323E-001	4.4657844E-001	2.9517319E+001	2.1395395E+006	3.7789575E+006	4.3425970E+006	-6.0482681E+001	0.0000000E+000	0.0000000E+000	0.0000000E+000	6.0482681E+001	0.0000000E+000	0.0000000E+000	0.0000000E+000	-6.0482681E+001	0.0000000E+000	0.0000000E+000	0.0000000E+000	-2.9517319E+001	0.0000000E+000	0.0000000E+000	0.0000000E+000	2.9517319E+001	1.7662481E+000	2.9517319E+001	1.640668709260401E-006
1.1050212E+001	1.9884435E+000	1.3853452E+000	2.4234457E+000	-3.4864861E+001	1.359773667254194E+001	-6.4924508E-002	-2.3059294E-002	1.0396604E+004	3.3973552E+003	1.000000000000000E+000	10	9.8802801E-003	4.0769554E-003	0	-5.078102789222679E-004	3.3856860E-001	2.3588017E-001	4.1263562E-001	3.4864861E+001	3.3973550E+006	4.8763650E+006	5.9431435E+006	-5.5135139E+001	0.0000000E+000	0.0000000E+000	0.0000000E+000	5.5135139E+001	0.0000000E+000	0.0000000E+000	0.0000000E+000	-5.5135139E+001	0.0000000E+000	0.0000000E+000	0.0000000E+000	-3.4864861E+001	0.0000000E+000	0.0000000E+000	0.0000000E+000	3.4864861E+001	1.4353415E+000	3.4864861E+001	-1.632731087011969E-005
