EC-Lab ASCII FILE
Nb header lines : 63                          

Potentio Electrochemical Impedance Spectroscopy

Run on channel : 5 (SN 30436)
User : 
CE vs. WE compliance from -10 V to 10 V
Electrode connection : standard
Potential control : Ewe
Ewe ctrl range : min = -10.00 V, max = 10.00 V
Safety Limits :
	Do not start on E overload
Acquisition started on : 01/27/2023 13:24:25.322
Loaded Setting File :  NONE
Saved on :
	File : 2022_01_27 FeNx 1mg ref309_C05.mpr
	Directory : C:\Users\grupogalan\Documents\EC-Lab\Data\Scott\
	Host : 169.254.104.159
Device : VSP (SN 1176)
Address : USB
EC-Lab for windows v11.46 (software)
Internet server v11.40 (firmware)
Command interpretor v11.40 (firmware)
Electrode material : 
Initial state : 
Electrolyte : 
Comments : 
Electrode surface area : 0.001 cm²
Characteristic mass : 0.001 g
Equivalent Weight : 0.000 g/eq.
Density : 0.000 g/cm3
Volume (V) : 0.001 cm³
Cycle Definition : Charge/Discharge alternance
Mode                Single sine         
E (V)               0.0000              
vs.                 Eoc                 
tE (h:m:s)          0:00:0.0000         
record              0                   
dI                  0.000               
unit dI             mA                  
dt (s)              0.000               
fi                  200.000             
unit fi             kHz                 
ff                  100.000             
unit ff             mHz                 
Nd                  6                   
Points              per decade          
spacing             Logarithmic         
Va (mV)             10.0                
pw                  0.10                
Na                  2                   
corr                0                   
E range min (V)     -10.000             
E range max (V)     10.000              
I Range             Auto                
Bandwidth           5                   
nc cycles           0                   
goto Ns'            0                   
nr cycles           0                   
inc. cycle          0                   

freq/Hz	Re(Z)/Ohm	-Im(Z)/Ohm	|Z|/Ohm	Phase(Z)/deg	time/s	<Ewe>/V	<I>/mA	Cs/µF	Cp/µF	cycle number	I Range	|Ewe|/V	|I|/A	Ns	(Q-Qo)/mA.h	Re(Y)/Ohm-1	Im(Y)/Ohm-1	|Y|/Ohm-1	Phase(Y)/deg	Re(C)/nF	Im(C)/nF	|C|/nF	Phase(C)/deg	Re(M)	Im(M)	|M|	Phase(M)/deg	Re(Permittivity)	Im(Permittivity)	|Permittivity|	Phase(Permittivity)/deg	Re(Resistivity)/Ohm.cm	Im(Resistivity)/Ohm.cm	|Resistivity|/Ohm.cm	Phase(Resistivity)/deg	Re(Conductivity)/mS/cm	Im(Conductivity)/mS/cm	|Conductivity|/mS/cm	Phase(Conductivity)/deg	Tan(Delta)	Loss Angle(Delta)/deg	dq/mA.h	
1.9999814E+005	1.8119928E+000	-1.3181139E+000	2.2407012E+000	3.6033600E+001	1.974492147070123E+000	-2.2543032E-001	-1.8402509E-001	-6.0372788E-001	-2.0891961E-001	1.000000000000000E+000	9	7.7913762E-003	3.4772044E-003	0	-2.277807862722936E-005	3.6090139E-001	-2.6253369E-001	4.4628885E-001	-3.6033600E+001	-2.0891963E+002	2.8719888E+002	3.5514871E+002	-1.2603360E+002	0.0000000E+000	0.0000000E+000	0.0000000E+000	1.2603360E+002	0.0000000E+000	0.0000000E+000	0.0000000E+000	-1.2603360E+002	0.0000000E+000	0.0000000E+000	0.0000000E+000	3.6033600E+001	0.0000000E+000	0.0000000E+000	0.0000000E+000	-3.6033600E+001	-1.3746860E+000	-3.6033600E+001	-2.277807862722936E-005
1.3512284E+005	1.4553062E+000	-5.3827029E-001	1.5516608E+000	2.0297791E+001	2.396497873793123E+000	-2.2544070E-001	-1.8411818E-001	-2.1882198E+000	-2.6332870E-001	1.000000000000000E+000	9	1.0394293E-002	6.6988179E-003	0	-3.445471629120099E-005	6.0445058E-001	-2.2356658E-001	6.4447075E-001	-2.0297791E+001	-2.6332874E+002	7.1195441E+002	7.5909229E+002	-1.1029779E+002	0.0000000E+000	0.0000000E+000	0.0000000E+000	1.1029779E+002	0.0000000E+000	0.0000000E+000	0.0000000E+000	-1.1029779E+002	0.0000000E+000	0.0000000E+000	0.0000000E+000	2.0297791E+001	0.0000000E+000	0.0000000E+000	0.0000000E+000	-2.0297791E+001	-2.7036717E+000	-2.0297791E+001	-1.167663766397164E-005
9.1291195E+004	1.4269794E+000	-2.1592012E-001	1.4432228E+000	8.6043091E+000	2.818490640522214E+000	-2.2534195E-001	-1.7916135E-001	-8.0741749E+000	-1.8072474E-001	1.000000000000000E+000	9	9.4742868E-003	6.5646740E-003	0	-6.227715274950283E-005	6.8509531E-001	-1.0366363E-001	6.9289374E-001	-8.6043091E+000	-1.8072475E+002	1.1943792E+003	1.2079747E+003	-9.8604309E+001	0.0000000E+000	0.0000000E+000	0.0000000E+000	9.8604309E+001	0.0000000E+000	0.0000000E+000	0.0000000E+000	-9.8604309E+001	0.0000000E+000	0.0000000E+000	0.0000000E+000	8.6043091E+000	0.0000000E+000	0.0000000E+000	0.0000000E+000	-8.6043091E+000	-6.6088305E+000	-8.6043091E+000	-2.782243645830183E-005
6.1674211E+004	1.4225748E+000	-3.7679803E-002	1.4230736E+000	1.5172411E+000	3.240488580573583E+000	-2.2529785E-001	-1.7247143E-001	-6.8486961E+001	-4.8014276E-002	1.000000000000000E+000	9	1.0400201E-002	7.3082666E-003	0	-7.504306648847543E-005	7.0245796E-001	-1.8606035E-002	7.0270431E-001	-1.5172411E+000	-4.8014313E+001	1.8127456E+003	1.8133813E+003	-9.1517242E+001	0.0000000E+000	0.0000000E+000	0.0000000E+000	9.1517242E+001	0.0000000E+000	0.0000000E+000	0.0000000E+000	-9.1517242E+001	0.0000000E+000	0.0000000E+000	0.0000000E+000	1.5172411E+000	0.0000000E+000	0.0000000E+000	0.0000000E+000	-1.5172411E+000	-3.7754307E+001	-1.5172411E+000	-1.276591373897261E-005
4.1669758E+004	1.4302740E+000	6.5130226E-002	1.4317561E+000	-2.6072705E+000	3.662493560608709E+000	-2.2517405E-001	-1.7699967E-001	5.8643051E+001	1.2135108E-001	1.000000000000000E+000	9	1.0813516E-002	7.5526237E-003	0	-1.220431732491901E-004	6.9771993E-001	3.1771995E-002	6.9844294E-001	2.6072705E+000	1.2135103E+002	2.6648962E+003	2.6676577E+003	-8.7392731E+001	0.0000000E+000	0.0000000E+000	0.0000000E+000	8.7392731E+001	0.0000000E+000	0.0000000E+000	0.0000000E+000	-8.7392731E+001	0.0000000E+000	0.0000000E+000	0.0000000E+000	-2.6072705E+000	0.0000000E+000	0.0000000E+000	0.0000000E+000	2.6072705E+000	2.1960218E+001	2.6072705E+000	-4.700010676071463E-005
2.8150979E+004	1.4287585E+000	1.7735207E-001	1.4397238E+000	-7.0759411E+000	4.221491667121882E+000	-2.2515021E-001	-1.6516657E-001	3.1877951E+001	4.8373166E-001	1.000000000000000E+000	9	1.0222209E-002	7.1001174E-003	0	-1.492270528139132E-004	6.8928754E-001	8.5561395E-002	6.9457763E-001	7.0759411E+000	4.8373178E+002	3.8969702E+003	3.9268784E+003	-8.2924057E+001	0.0000000E+000	0.0000000E+000	0.0000000E+000	8.2924057E+001	0.0000000E+000	0.0000000E+000	0.0000000E+000	-8.2924057E+001	0.0000000E+000	0.0000000E+000	0.0000000E+000	-7.0759411E+000	0.0000000E+000	0.0000000E+000	0.0000000E+000	7.0759411E+000	8.0560579E+000	7.0759411E+000	-2.718387956472319E-005
1.9020934E+004	1.4696335E+000	2.5198728E-001	1.4910802E+000	-9.7294760E+000	4.643478647194570E+000	-2.2515878E-001	-1.6447711E-001	3.3205475E+001	9.4834191E-001	1.000000000000000E+000	9	1.0529767E-002	7.0618382E-003	0	-1.803144726939500E-004	6.6100854E-001	1.1333828E-001	6.7065477E-001	9.7294760E+000	9.4834192E+002	5.5308940E+003	5.6116079E+003	-8.0270523E+001	0.0000000E+000	0.0000000E+000	0.0000000E+000	8.0270523E+001	0.0000000E+000	0.0000000E+000	0.0000000E+000	-8.0270523E+001	0.0000000E+000	0.0000000E+000	0.0000000E+000	-9.7294760E+000	0.0000000E+000	0.0000000E+000	0.0000000E+000	9.7294760E+000	5.8321733E+000	9.7294760E+000	-3.108741988003670E-005
1.2850729E+004	1.5006517E+000	4.1745636E-001	1.5576346E+000	-1.5545683E+001	4.928478980757063E+000	-2.2527815E-001	-1.6984394E-001	2.9667522E+001	2.1309452E+000	1.000000000000000E+000	9	1.0707854E-002	6.8744328E-003	0	-1.942790803337670E-004	6.1851293E-001	1.7206001E-001	6.4199913E-001	1.5545683E+001	2.1309453E+003	7.6602173E+003	7.9510918E+003	-7.4454315E+001	0.0000000E+000	0.0000000E+000	0.0000000E+000	7.4454315E+001	0.0000000E+000	0.0000000E+000	0.0000000E+000	-7.4454315E+001	0.0000000E+000	0.0000000E+000	0.0000000E+000	-1.5545683E+001	0.0000000E+000	0.0000000E+000	0.0000000E+000	1.5545683E+001	3.5947511E+000	1.5545683E+001	-1.396460763981706E-005
8.6833721E+003	1.5743814E+000	6.0776591E-001	1.6876185E+000	-2.1108320E+001	5.232998381892685E+000	-2.2523341E-001	-1.9000679E-001	3.0157505E+001	3.9112854E+000	1.000000000000000E+000	9	1.0433345E-002	6.1822888E-003	0	-2.082953432292820E-004	5.5279154E-001	2.1339674E-001	5.9255099E-001	2.1108320E+001	3.9112859E+003	1.0131952E+004	1.0860691E+004	-6.8891678E+001	0.0000000E+000	0.0000000E+000	0.0000000E+000	6.8891678E+001	0.0000000E+000	0.0000000E+000	0.0000000E+000	-6.8891678E+001	0.0000000E+000	0.0000000E+000	0.0000000E+000	-2.1108320E+001	0.0000000E+000	0.0000000E+000	0.0000000E+000	2.1108320E+001	2.5904403E+000	2.1108320E+001	-1.401626289551495E-005
5.8650859E+003	1.6354786E+000	8.1394917E-001	1.8268288E+000	-2.6458729E+001	5.649832135037286E+000	-2.2523519E-001	-1.8329829E-001	3.3338684E+001	6.6183133E+000	1.000000000000000E+000	9	9.9537224E-003	5.4486343E-003	0	-2.297576633884261E-004	4.9005988E-001	2.4389425E-001	5.4739666E-001	2.6458729E+001	6.6183130E+003	1.3298262E+004	1.4854152E+004	-6.3541271E+001	0.0000000E+000	0.0000000E+000	0.0000000E+000	6.3541271E+001	0.0000000E+000	0.0000000E+000	0.0000000E+000	-6.3541271E+001	0.0000000E+000	0.0000000E+000	0.0000000E+000	-2.6458729E+001	0.0000000E+000	0.0000000E+000	0.0000000E+000	2.6458729E+001	2.0093129E+000	2.6458729E+001	-2.146232015914416E-005
3.9611973E+003	1.7255528E+000	1.0953190E+000	2.0438337E+000	-3.2405914E+001	6.112936210352927E+000	-2.2521701E-001	-1.5078054E-001	3.6682003E+001	1.0535210E+001	1.000000000000000E+000	9	9.6105877E-003	4.7022356E-003	0	-2.489027990975883E-004	4.1308281E-001	2.6221016E-001	4.8927659E-001	3.2405914E+001	1.0535209E+004	1.6597045E+004	1.9658396E+004	-5.7594086E+001	0.0000000E+000	0.0000000E+000	0.0000000E+000	5.7594086E+001	0.0000000E+000	0.0000000E+000	0.0000000E+000	-5.7594086E+001	0.0000000E+000	0.0000000E+000	0.0000000E+000	-3.2405914E+001	0.0000000E+000	0.0000000E+000	0.0000000E+000	3.2405914E+001	1.5753883E+000	3.2405914E+001	-1.914513570916218E-005
2.6774299E+003	1.8723415E+000	1.5522926E+000	2.4321339E+000	-3.9660934E+001	6.574965938954847E+000	-2.2516599E-001	-1.5007247E-001	3.8293797E+001	1.5599138E+001	1.000000000000000E+000	9	9.5446995E-003	3.9244136E-003	0	-2.664181041885038E-004	3.1652653E-001	2.6242101E-001	4.1116157E-001	3.9660934E+001	1.5599141E+004	1.8815344E+004	2.4440752E+004	-5.0339066E+001	0.0000000E+000	0.0000000E+000	0.0000000E+000	5.0339066E+001	0.0000000E+000	0.0000000E+000	0.0000000E+000	-5.0339066E+001	0.0000000E+000	0.0000000E+000	0.0000000E+000	-3.9660934E+001	0.0000000E+000	0.0000000E+000	0.0000000E+000	3.9660934E+001	1.2061782E+000	3.9660934E+001	-1.751530509091549E-005
1.8082643E+003	2.0174024E+000	2.1431384E+000	2.9432898E+000	-4.6731010E+001	7.036951907561161E+000	-2.2520801E-001	-1.5303543E-001	4.1068424E+001	2.1774210E+001	1.000000000000000E+000	9	9.2983041E-003	3.1591535E-003	0	-2.851414722081196E-004	2.3287697E-001	2.4739116E-001	3.3975589E-001	4.6731010E+001	2.1774211E+004	2.0496738E+004	2.9903721E+004	-4.3268990E+001	0.0000000E+000	0.0000000E+000	0.0000000E+000	4.3268990E+001	0.0000000E+000	0.0000000E+000	0.0000000E+000	-4.3268990E+001	0.0000000E+000	0.0000000E+000	0.0000000E+000	-4.6731010E+001	0.0000000E+000	0.0000000E+000	0.0000000E+000	4.6731010E+001	9.4133091E-001	4.6731010E+001	-1.872336801961582E-005
1.2219551E+003	2.2196052E+000	2.9454110E+000	3.6881015E+000	-5.2999020E+001	7.749451781361131E+000	-2.2510116E-001	-1.9910892E-002	4.4220024E+001	2.8203634E+001	1.000000000000000E+000	10	9.4653573E-003	2.5664580E-003	0	-3.002841402551081E-004	1.6318116E-001	2.1654101E-001	2.7114221E-001	5.2999020E+001	2.8203631E+004	2.1253717E+004	3.5315227E+004	-3.7000980E+001	0.0000000E+000	0.0000000E+000	0.0000000E+000	3.7000980E+001	0.0000000E+000	0.0000000E+000	0.0000000E+000	-3.7000980E+001	0.0000000E+000	0.0000000E+000	0.0000000E+000	-5.2999020E+001	0.0000000E+000	0.0000000E+000	0.0000000E+000	5.2999020E+001	7.5358081E-001	5.2999020E+001	-1.514266804698855E-005
8.2526404E+002	2.6646767E+000	4.0182014E+000	4.8214564E+000	-5.6449589E+001	8.210682043340057E+000	-2.2537078E-001	-1.9720767E-002	4.7994946E+001	3.3335148E+001	1.000000000000000E+000	10	9.2659704E-003	1.9218198E-003	0	-3.012370823787464E-004	1.1462729E-001	1.7285231E-001	2.0740621E-001	5.6449589E+001	3.3335148E+004	2.2106258E+004	3.9998984E+004	-3.3550411E+001	0.0000000E+000	0.0000000E+000	0.0000000E+000	3.3550411E+001	0.0000000E+000	0.0000000E+000	0.0000000E+000	-3.3550411E+001	0.0000000E+000	0.0000000E+000	0.0000000E+000	-5.6449589E+001	0.0000000E+000	0.0000000E+000	0.0000000E+000	5.6449589E+001	6.6315162E-001	5.6449589E+001	-9.529421236382455E-007
5.5803571E+002	3.3007746E+000	5.4741373E+000	6.3922839E+000	-5.8911022E+001	8.674466731987195E+000	-2.2514051E-001	-2.0460829E-002	5.2100567E+001	3.8208652E+001	1.000000000000000E+000	10	9.1791265E-003	1.4359697E-003	0	-3.036429434743736E-004	8.0779985E-002	1.3396877E-001	1.5643860E-001	5.8911022E+001	3.8208652E+004	2.3038908E+004	4.4617176E+004	-3.1088978E+001	0.0000000E+000	0.0000000E+000	0.0000000E+000	3.1088978E+001	0.0000000E+000	0.0000000E+000	0.0000000E+000	-3.1088978E+001	0.0000000E+000	0.0000000E+000	0.0000000E+000	-5.8911022E+001	0.0000000E+000	0.0000000E+000	0.0000000E+000	5.8911022E+001	6.0297620E-001	5.8911022E+001	-2.405861095627177E-006
3.7705118E+002	4.2853098E+000	7.3860784E+000	8.5392056E+000	-5.9878235E+001	9.133673767180881E+000	-2.2523372E-001	-1.8913643E-002	5.7148640E+001	4.2756168E+001	1.000000000000000E+000	10	9.1848867E-003	1.0756138E-003	0	-3.053407693098416E-004	5.8768857E-002	1.0129289E-001	1.1710691E-001	5.9878235E+001	4.2756172E+004	2.4806590E+004	4.9431336E+004	-3.0121765E+001	0.0000000E+000	0.0000000E+000	0.0000000E+000	3.0121765E+001	0.0000000E+000	0.0000000E+000	0.0000000E+000	-3.0121765E+001	0.0000000E+000	0.0000000E+000	0.0000000E+000	-5.9878235E+001	0.0000000E+000	0.0000000E+000	0.0000000E+000	5.9878235E+001	5.8018744E-001	5.9878235E+001	-1.697825835467984E-006
2.5475545E+002	5.3686061E+000	9.8524008E+000	1.1220148E+001	-6.1413883E+001	9.595947709109169E+000	-2.2514723E-001	-1.7890269E-002	6.3409534E+001	4.8892422E+001	1.000000000000000E+000	10	9.0522757E-003	8.0678752E-004	0	-3.074101766217290E-004	4.2644631E-002	7.8260899E-002	8.9125380E-002	6.1413883E+001	4.8892418E+004	2.6641645E+004	5.5679852E+004	-2.8586117E+001	0.0000000E+000	0.0000000E+000	0.0000000E+000	2.8586117E+001	0.0000000E+000	0.0000000E+000	0.0000000E+000	-2.8586117E+001	0.0000000E+000	0.0000000E+000	0.0000000E+000	-6.1413883E+001	0.0000000E+000	0.0000000E+000	0.0000000E+000	6.1413883E+001	5.4490334E-001	6.1413883E+001	-2.069407311887448E-006
1.7203688E+002	7.3115168E+000	1.3197357E+001	1.5087362E+001	-6.1012947E+001	1.005236858411809E+001	-2.2534530E-001	-1.8704882E-002	7.0098969E+001	5.3636314E+001	1.000000000000000E+000	10	9.1876974E-003	6.0896645E-004	0	-3.099022598460106E-004	3.2120392E-002	5.7977613E-002	6.6280641E-002	6.1012947E+001	5.3636313E+004	2.9715252E+004	6.1317617E+004	-2.8987053E+001	0.0000000E+000	0.0000000E+000	0.0000000E+000	2.8987053E+001	0.0000000E+000	0.0000000E+000	0.0000000E+000	-2.8987053E+001	0.0000000E+000	0.0000000E+000	0.0000000E+000	-6.1012947E+001	0.0000000E+000	0.0000000E+000	0.0000000E+000	6.1012947E+001	5.5401373E-001	6.1012947E+001	-2.492083224281568E-006
1.1622738E+002	9.4503689E+000	1.7740126E+001	2.0100286E+001	-6.1955261E+001	1.050962372587492E+001	-2.2537360E-001	-2.2000592E-002	7.7188927E+001	6.0126221E+001	1.000000000000000E+000	10	9.3105026E-003	4.6320248E-004	0	-3.122745683742566E-004	2.3390753E-002	4.3908861E-002	4.9750533E-002	6.1955261E+001	6.0126219E+004	3.2029926E+004	6.8125461E+004	-2.8044739E+001	0.0000000E+000	0.0000000E+000	0.0000000E+000	2.8044739E+001	0.0000000E+000	0.0000000E+000	0.0000000E+000	-2.8044739E+001	0.0000000E+000	0.0000000E+000	0.0000000E+000	-6.1955261E+001	0.0000000E+000	0.0000000E+000	0.0000000E+000	6.1955261E+001	5.3271151E-001	6.1955261E+001	-2.372308528246026E-006
7.8517616E+001	1.2538214E+001	2.2697390E+001	2.5930258E+001	-6.1083401E+001	1.123455464022118E+001	-2.2512963E-001	-1.2754705E-003	8.9305275E+001	6.8425072E+001	1.000000000000000E+000	11	9.1588469E-003	3.5321078E-004	0	-3.135248351437856E-004	1.8647557E-002	3.3756875E-002	3.8564984E-002	6.1083401E+001	6.8425078E+004	3.7798543E+004	7.8171102E+004	-2.8916599E+001	0.0000000E+000	0.0000000E+000	0.0000000E+000	2.8916599E+001	0.0000000E+000	0.0000000E+000	0.0000000E+000	-2.8916599E+001	0.0000000E+000	0.0000000E+000	0.0000000E+000	-6.1083401E+001	0.0000000E+000	0.0000000E+000	0.0000000E+000	6.1083401E+001	5.5240774E-001	6.1083401E+001	-1.250266769529051E-006
5.3047844E+001	1.6893547E+001	2.9278280E+001	3.3802509E+001	-6.0015083E+001	1.171112863623421E+001	-2.2539395E-001	-1.7017928E-003	1.0247237E+002	7.6877640E+001	1.000000000000000E+000	11	9.1824606E-003	2.7165026E-004	0	-3.135222944113621E-004	1.4785056E-002	2.5624044E-002	2.9583603E-002	6.0015083E+001	7.6877648E+004	4.4358348E+004	8.8757172E+004	-2.9984917E+001	0.0000000E+000	0.0000000E+000	0.0000000E+000	2.9984917E+001	0.0000000E+000	0.0000000E+000	0.0000000E+000	-2.9984917E+001	0.0000000E+000	0.0000000E+000	0.0000000E+000	-6.0015083E+001	0.0000000E+000	0.0000000E+000	0.0000000E+000	6.0015083E+001	5.7699931E-001	6.0015083E+001	2.540732423495645E-009
3.5837154E+001	2.2210220E+001	3.9239803E+001	4.5089424E+001	-6.0489597E+001	1.216305751106120E+001	-2.2521128E-001	-1.4447345E-003	1.1317742E+002	8.5716431E+001	1.000000000000000E+000	11	9.2635974E-003	2.0544945E-004	0	-3.138004054233882E-004	1.0924548E-002	1.9300895E-002	2.2178149E-002	6.0489597E+001	8.5716430E+004	4.8516566E+004	9.8494484E+004	-2.9510403E+001	0.0000000E+000	0.0000000E+000	0.0000000E+000	2.9510403E+001	0.0000000E+000	0.0000000E+000	0.0000000E+000	-2.9510403E+001	0.0000000E+000	0.0000000E+000	0.0000000E+000	-6.0489597E+001	0.0000000E+000	0.0000000E+000	0.0000000E+000	6.0489597E+001	5.6601250E-001	6.0489597E+001	-2.781110120260010E-007
2.4232319E+001	2.9875158E+001	4.9210831E+001	5.7569359E+001	-5.8738689E+001	1.263811652027653E+001	-2.2510475E-001	-1.2510563E-003	1.3346410E+002	9.7522102E+001	1.000000000000000E+000	11	9.1292253E-003	1.5857785E-004	0	-3.137340783416018E-004	9.0142051E-003	1.4848339E-002	1.7370351E-002	5.8738689E+001	9.7522102E+004	5.9204211E+004	1.1408637E+005	-3.1261311E+001	0.0000000E+000	0.0000000E+000	0.0000000E+000	3.1261311E+001	0.0000000E+000	0.0000000E+000	0.0000000E+000	-3.1261311E+001	0.0000000E+000	0.0000000E+000	0.0000000E+000	-5.8738689E+001	0.0000000E+000	0.0000000E+000	0.0000000E+000	5.8738689E+001	6.0708505E-001	5.8738689E+001	6.632708178630660E-008
1.6366972E+001	3.7242794E+001	6.4570641E+001	7.4541222E+001	-6.0024685E+001	1.327003943029558E+001	-2.2516169E-001	-7.4085302E-004	1.5059714E+002	1.1300402E+002	1.000000000000000E+000	11	1.0238960E-002	1.3735970E-004	0	-3.138876977777109E-004	6.7026922E-003	1.1620963E-002	1.3415396E-002	6.0024685E+001	1.1300402E+005	6.5178004E+004	1.3045337E+005	-2.9975315E+001	0.0000000E+000	0.0000000E+000	0.0000000E+000	2.9975315E+001	0.0000000E+000	0.0000000E+000	0.0000000E+000	-2.9975315E+001	0.0000000E+000	0.0000000E+000	0.0000000E+000	-6.0024685E+001	0.0000000E+000	0.0000000E+000	0.0000000E+000	6.0024685E+001	5.7677597E-001	6.0024685E+001	-1.536194361090380E-007
1.1050212E+001	4.8084423E+001	8.3186096E+001	9.6083496E+001	-5.9970612E+001	1.369375433043751E+001	-2.2515108E-001	-2.7594762E-004	1.7314055E+002	1.2977849E+002	1.000000000000000E+000	11	1.0120461E-002	1.0532985E-004	0	-3.136987456309580E-004	5.2084299E-003	9.0105878E-003	1.0407615E-002	5.9970612E+001	1.2977848E+005	7.5016422E+004	1.4989969E+005	-3.0029388E+001	0.0000000E+000	0.0000000E+000	0.0000000E+000	3.0029388E+001	0.0000000E+000	0.0000000E+000	0.0000000E+000	-3.0029388E+001	0.0000000E+000	0.0000000E+000	0.0000000E+000	-5.9970612E+001	0.0000000E+000	0.0000000E+000	0.0000000E+000	5.9970612E+001	5.7803440E-001	5.9970612E+001	1.889521467528590E-007
