EC-Lab ASCII FILE
Nb header lines : 63                          

Potentio Electrochemical Impedance Spectroscopy

Run on channel : 5 (SN 30436)
User : 
CE vs. WE compliance from -10 V to 10 V
Electrode connection : standard
Potential control : Ewe
Ewe ctrl range : min = -10.00 V, max = 10.00 V
Safety Limits :
	Do not start on E overload
Acquisition started on : 01/31/2023 13:05:58.350
Loaded Setting File :  C:\Users\grupogalan\Documents\EC-Lab\Data\Scott\_cyclic_pause_tafel_CA.mps
Saved on :
	File : 2023_01_31_Co45Ni45Fe10Nx 1mg ref309_01_PEIS_C05.mpr
	Directory : C:\Users\grupogalan\Documents\EC-Lab\Data\Scott\
	Host : 169.254.104.159
Device : VSP (SN 1176)
Address : USB
EC-Lab for windows v11.46 (software)
Internet server v11.40 (firmware)
Command interpretor v11.40 (firmware)
Electrode material : 
Initial state : 
Electrolyte : 
Comments : 
Electrode surface area : 0.001 cm²
Characteristic mass : 0.001 g
Equivalent Weight : 0.000 g/eq.
Density : 0.000 g/cm3
Volume (V) : 0.001 cm³
Cycle Definition : Charge/Discharge alternance
Mode                Single sine         
E (V)               0.0000              
vs.                 Eoc                 
tE (h:m:s)          0:00:0.0000         
record              0                   
dI                  0.000               
unit dI             mA                  
dt (s)              0.000               
fi                  200.000             
unit fi             kHz                 
ff                  100.000             
unit ff             mHz                 
Nd                  6                   
Points              per decade          
spacing             Logarithmic         
Va (mV)             10.0                
pw                  0.10                
Na                  2                   
corr                0                   
E range min (V)     -10.000             
E range max (V)     10.000              
I Range             Auto                
Bandwidth           5                   
nc cycles           0                   
goto Ns'            0                   
nr cycles           0                   
inc. cycle          0                   

freq/Hz	Re(Z)/Ohm	-Im(Z)/Ohm	|Z|/Ohm	Phase(Z)/deg	time/s	<Ewe>/V	<I>/mA	Cs/µF	Cp/µF	cycle number	I Range	|Ewe|/V	|I|/A	Ns	(Q-Qo)/mA.h	Re(Y)/Ohm-1	Im(Y)/Ohm-1	|Y|/Ohm-1	Phase(Y)/deg	Re(C)/nF	Im(C)/nF	|C|/nF	Phase(C)/deg	Re(M)	Im(M)	|M|	Phase(M)/deg	Re(Permittivity)	Im(Permittivity)	|Permittivity|	Phase(Permittivity)/deg	Re(Resistivity)/Ohm.cm	Im(Resistivity)/Ohm.cm	|Resistivity|/Ohm.cm	Phase(Resistivity)/deg	Re(Conductivity)/mS/cm	Im(Conductivity)/mS/cm	|Conductivity|/mS/cm	Phase(Conductivity)/deg	Tan(Delta)	Loss Angle(Delta)/deg	dq/mA.h	
1.9999814E+005	2.1142192E+000	-1.9956086E+000	2.9072971E+000	4.3346886E+001	2.120476394047728E+000	-1.5687050E-001	-1.7770790E-001	-3.9876664E-001	-1.8788439E-001	1.000000000000000E+000	9	1.0132915E-002	3.4853388E-003	0	-2.389214742338906E-005	2.5013313E-001	-2.3610029E-001	3.4396210E-001	-4.3346886E+001	-1.8788440E+002	1.9905144E+002	2.7371887E+002	-1.3334689E+002	0.0000000E+000	0.0000000E+000	0.0000000E+000	1.3334689E+002	0.0000000E+000	0.0000000E+000	0.0000000E+000	-1.3334689E+002	0.0000000E+000	0.0000000E+000	0.0000000E+000	4.3346886E+001	0.0000000E+000	0.0000000E+000	0.0000000E+000	-4.3346886E+001	-1.0594358E+000	-4.3346886E+001	-2.389214742338906E-005
1.3512284E+005	1.0724190E+000	-7.4467254E-001	1.3056109E+000	3.4775562E+001	2.542487107421039E+000	-1.5685555E-001	-1.7636608E-001	-1.5817069E+000	-5.1455188E-001	1.000000000000000E+000	9	1.0158711E-002	7.7808108E-003	0	-5.368543568864051E-005	6.2912506E-001	-4.3685549E-001	7.6592499E-001	-3.4775562E+001	-5.1455182E+002	7.4101733E+002	9.0214758E+002	-1.2477556E+002	0.0000000E+000	0.0000000E+000	0.0000000E+000	1.2477556E+002	0.0000000E+000	0.0000000E+000	0.0000000E+000	-1.2477556E+002	0.0000000E+000	0.0000000E+000	0.0000000E+000	3.4775562E+001	0.0000000E+000	0.0000000E+000	0.0000000E+000	-3.4775562E+001	-1.4401217E+000	-3.4775562E+001	-2.979328826525145E-005
9.1291195E+004	8.9828640E-001	-2.4962306E-001	9.3232512E-001	1.5529977E+001	3.101485320628854E+000	-1.5681276E-001	-1.7699958E-001	-6.9840369E+000	-5.0065798E-001	1.000000000000000E+000	9	9.4621470E-003	1.0148978E-002	0	-5.167031186513810E-005	1.0334276E+000	-2.8717721E-001	1.0725873E+000	-1.5529977E+001	-5.0065796E+002	1.8016536E+003	1.8699235E+003	-1.0552998E+002	0.0000000E+000	0.0000000E+000	0.0000000E+000	1.0552998E+002	0.0000000E+000	0.0000000E+000	0.0000000E+000	-1.0552998E+002	0.0000000E+000	0.0000000E+000	0.0000000E+000	1.5529977E+001	0.0000000E+000	0.0000000E+000	0.0000000E+000	-1.5529977E+001	-3.5985713E+000	-1.5529977E+001	2.015123823502409E-006
6.1674211E+004	8.9154494E-001	-6.2342741E-002	8.9372200E-001	3.9999902E+000	3.660488947149133E+000	-1.5697096E-001	-1.7748408E-001	-4.1393356E+001	-2.0141765E-001	1.000000000000000E+000	9	9.9780988E-003	1.1164656E-002	0	-1.272244247975759E-004	1.1161906E+000	-7.8051455E-002	1.1189162E+000	-3.9999902E+000	-2.0141777E+002	2.8804138E+003	2.8874475E+003	-9.3999992E+001	0.0000000E+000	0.0000000E+000	0.0000000E+000	9.3999992E+001	0.0000000E+000	0.0000000E+000	0.0000000E+000	-9.3999992E+001	0.0000000E+000	0.0000000E+000	0.0000000E+000	3.9999902E+000	0.0000000E+000	0.0000000E+000	0.0000000E+000	-3.9999902E+000	-1.4300702E+001	-3.9999902E+000	-7.555411293243782E-005
4.1669758E+004	8.9545166E-001	5.3110626E-002	8.9702535E-001	-3.3943248E+000	4.082497073890409E+000	-1.5688664E-001	-1.7051466E-001	7.1914711E+001	2.5209901E-001	1.000000000000000E+000	9	9.9547561E-003	1.1097520E-002	0	-1.303667860056998E-004	1.1128399E+000	6.6004261E-002	1.1147957E+000	3.3943248E+000	2.5209904E+002	4.2504204E+003	4.2578901E+003	-8.6605675E+001	0.0000000E+000	0.0000000E+000	0.0000000E+000	8.6605675E+001	0.0000000E+000	0.0000000E+000	0.0000000E+000	-8.6605675E+001	0.0000000E+000	0.0000000E+000	0.0000000E+000	-3.3943248E+000	0.0000000E+000	0.0000000E+000	0.0000000E+000	3.3943248E+000	1.6860123E+001	3.3943248E+000	-3.142361208123882E-006
2.8150979E+004	9.0791565E-001	1.3779382E-001	9.1831255E-001	-8.6298885E+000	4.504480800562305E+000	-1.5680486E-001	-1.6736536E-001	4.1029560E+001	9.2379445E-001	1.000000000000000E+000	9	1.0841496E-002	1.1805889E-002	0	-1.552428506735014E-004	1.0766250E+000	1.6339874E-001	1.0889539E+000	8.6298885E+000	9.2379462E+002	6.0868291E+003	6.1565317E+003	-8.1370110E+001	0.0000000E+000	0.0000000E+000	0.0000000E+000	8.1370110E+001	0.0000000E+000	0.0000000E+000	0.0000000E+000	-8.1370110E+001	0.0000000E+000	0.0000000E+000	0.0000000E+000	-8.6298885E+000	0.0000000E+000	0.0000000E+000	0.0000000E+000	8.6298885E+000	6.5889430E+000	8.6298885E+000	-2.487606466780159E-005
1.9020934E+004	9.2284662E-001	2.4942733E-001	9.5596015E-001	-1.5124547E+001	5.063496720482362E+000	-1.5679295E-001	-1.6688086E-001	3.3546272E+001	2.2837722E+000	1.000000000000000E+000	9	1.0132860E-002	1.0599668E-002	0	-1.404729444363362E-004	1.0098338E+000	2.7293828E-001	1.0460687E+000	1.5124547E+001	2.2837727E+003	8.4496406E+003	8.7528311E+003	-7.4875450E+001	0.0000000E+000	0.0000000E+000	0.0000000E+000	7.4875450E+001	0.0000000E+000	0.0000000E+000	0.0000000E+000	-7.4875450E+001	0.0000000E+000	0.0000000E+000	0.0000000E+000	-1.5124547E+001	0.0000000E+000	0.0000000E+000	0.0000000E+000	1.5124547E+001	3.6998615E+000	1.5124547E+001	1.476990623716523E-005
1.2850729E+004	9.4041365E-001	3.7214556E-001	1.0113704E+000	-2.1589964E+001	5.485479833878344E+000	-1.5683925E-001	-1.6887480E-001	3.3279709E+001	4.5059333E+000	1.000000000000000E+000	9	1.0471356E-002	1.0353631E-002	0	-1.797864657588717E-004	9.1938716E-001	3.6382484E-001	9.8875743E-001	2.1589964E+001	4.5059336E+003	1.1386515E+004	1.2245658E+004	-6.8410034E+001	0.0000000E+000	0.0000000E+000	0.0000000E+000	6.8410034E+001	0.0000000E+000	0.0000000E+000	0.0000000E+000	-6.8410034E+001	0.0000000E+000	0.0000000E+000	0.0000000E+000	-2.1589964E+001	0.0000000E+000	0.0000000E+000	0.0000000E+000	2.1589964E+001	2.5270050E+000	2.1589964E+001	-3.931352132253556E-005
8.6833721E+003	9.6689099E-001	5.2666330E-001	1.1010233E+000	-2.8577028E+001	5.934987775224727E+000	-1.5671171E-001	-1.8300000E-001	3.4801556E+001	7.9629092E+000	1.000000000000000E+000	9	1.0115632E-002	9.1874823E-003	0	-2.044882204221406E-004	7.9759878E-001	4.3445021E-001	9.0824598E-001	2.8577028E+001	7.9629072E+003	1.4618949E+004	1.6646969E+004	-6.1422974E+001	0.0000000E+000	0.0000000E+000	0.0000000E+000	6.1422974E+001	0.0000000E+000	0.0000000E+000	0.0000000E+000	-6.1422974E+001	0.0000000E+000	0.0000000E+000	0.0000000E+000	-2.8577028E+001	0.0000000E+000	0.0000000E+000	0.0000000E+000	2.8577028E+001	1.8358806E+000	2.8577028E+001	-2.470175466326891E-005
5.8650859E+003	1.0233293E+000	7.6683706E-001	1.2787658E+000	-3.6846245E+001	6.351823661709204E+000	-1.5695439E-001	-2.0502643E-001	3.5386913E+001	1.2725265E+001	1.000000000000000E+000	9	9.8388521E-003	7.6940223E-003	0	-2.240824238594828E-004	6.2579685E-001	4.6894410E-001	7.8200400E-001	3.6846245E+001	1.2725265E+004	1.6981621E+004	2.1220457E+004	-5.3153755E+001	0.0000000E+000	0.0000000E+000	0.0000000E+000	5.3153755E+001	0.0000000E+000	0.0000000E+000	0.0000000E+000	-5.3153755E+001	0.0000000E+000	0.0000000E+000	0.0000000E+000	-3.6846245E+001	0.0000000E+000	0.0000000E+000	0.0000000E+000	3.6846245E+001	1.3344806E+000	3.6846245E+001	-1.959420343734222E-005
3.9611973E+003	1.1199368E+000	1.0868468E+000	1.5606071E+000	-4.4140930E+001	6.814926937018754E+000	-1.5684538E-001	-1.7698108E-001	3.6967949E+001	1.7929777E+001	1.000000000000000E+000	9	9.4698351E-003	6.0680457E-003	0	-2.499910861525374E-004	4.5983961E-001	4.4625303E-001	6.4077628E-001	4.4140930E+001	1.7929773E+004	1.8475664E+004	2.5745426E+004	-4.5859070E+001	0.0000000E+000	0.0000000E+000	0.0000000E+000	4.5859070E+001	0.0000000E+000	0.0000000E+000	0.0000000E+000	-4.5859070E+001	0.0000000E+000	0.0000000E+000	0.0000000E+000	-4.4140930E+001	0.0000000E+000	0.0000000E+000	0.0000000E+000	4.4140930E+001	1.0304458E+000	4.4140930E+001	-2.590866229305460E-005
2.6774299E+003	1.1342826E+000	1.5447067E+000	1.9164331E+000	-5.3710056E+001	7.497967289469671E+000	-1.5675193E-001	-1.7722335E-001	3.8481853E+001	2.5001192E+001	1.000000000000000E+000	9	9.8988088E-003	5.1652254E-003	0	-2.864943952424607E-004	3.0884027E-001	4.2058977E-001	5.2180272E-001	5.3710056E+001	2.5001193E+004	1.8358447E+004	3.1017611E+004	-3.6289944E+001	0.0000000E+000	0.0000000E+000	0.0000000E+000	3.6289944E+001	0.0000000E+000	0.0000000E+000	0.0000000E+000	-3.6289944E+001	0.0000000E+000	0.0000000E+000	0.0000000E+000	-5.3710056E+001	0.0000000E+000	0.0000000E+000	0.0000000E+000	5.3710056E+001	7.3430288E-001	5.3710056E+001	-3.650330908992327E-005
1.8082643E+003	1.1908215E+000	2.1738014E+000	2.4786022E+000	-6.1285805E+001	7.959954378078692E+000	-1.5691160E-001	-1.7202428E-001	4.0489124E+001	3.1143288E+001	1.000000000000000E+000	9	9.4654588E-003	3.8188698E-003	0	-3.056642696860945E-004	1.9383538E-001	3.5383943E-001	4.0345320E-001	6.1285805E+001	3.1143285E+004	1.7060480E+004	3.5510059E+004	-2.8714195E+001	0.0000000E+000	0.0000000E+000	0.0000000E+000	2.8714195E+001	0.0000000E+000	0.0000000E+000	0.0000000E+000	-2.8714195E+001	0.0000000E+000	0.0000000E+000	0.0000000E+000	-6.1285805E+001	0.0000000E+000	0.0000000E+000	0.0000000E+000	6.1285805E+001	5.4780602E-001	6.1285805E+001	-1.916987444363380E-005
1.2219551E+003	1.3120691E+000	3.1329944E+000	3.3966424E+000	-6.7276520E+001	8.672451851918595E+000	-1.5690470E-001	-2.3152540E-002	4.1572418E+001	3.5369167E+001	1.000000000000000E+000	10	9.9308034E-003	2.9237117E-003	0	-3.204927236988248E-004	1.1372527E-001	2.7155638E-001	2.9440838E-001	6.7276520E+001	3.5369168E+004	1.4812277E+004	3.8345555E+004	-2.2723480E+001	0.0000000E+000	0.0000000E+000	0.0000000E+000	2.2723480E+001	0.0000000E+000	0.0000000E+000	0.0000000E+000	-2.2723480E+001	0.0000000E+000	0.0000000E+000	0.0000000E+000	-6.7276520E+001	0.0000000E+000	0.0000000E+000	0.0000000E+000	6.7276520E+001	4.1879076E-001	6.7276520E+001	-1.482845401273028E-005
8.2526404E+002	1.3547804E+000	4.5816293E+000	4.7777357E+000	-7.3527138E+001	9.133685153850820E+000	-1.5679792E-001	-2.3348281E-002	4.2092747E+001	3.8708191E+001	1.000000000000000E+000	10	9.6015483E-003	2.0096442E-003	0	-3.245988847055058E-004	5.9350535E-002	2.0071310E-001	2.0930417E-001	7.3527138E+001	3.8708195E+004	1.1445950E+004	4.0365012E+004	-1.6472862E+001	0.0000000E+000	0.0000000E+000	0.0000000E+000	1.6472862E+001	0.0000000E+000	0.0000000E+000	0.0000000E+000	-1.6472862E+001	0.0000000E+000	0.0000000E+000	0.0000000E+000	-7.3527138E+001	0.0000000E+000	0.0000000E+000	0.0000000E+000	7.3527138E+001	2.9569840E-001	7.3527138E+001	-4.106161006681055E-006
5.5803571E+002	1.5707066E+000	6.7321334E+000	6.9129400E+000	-7.6866982E+001	9.597475522517925E+000	-1.5671051E-001	-2.5126643E-002	4.2364830E+001	4.0177719E+001	1.000000000000000E+000	10	9.5789889E-003	1.3856606E-003	0	-3.269877708618203E-004	3.2867718E-002	1.4087281E-001	1.4465626E-001	7.6866982E+001	4.0177719E+004	9.3740586E+003	4.1256781E+004	-1.3133018E+001	0.0000000E+000	0.0000000E+000	0.0000000E+000	1.3133018E+001	0.0000000E+000	0.0000000E+000	0.0000000E+000	-1.3133018E+001	0.0000000E+000	0.0000000E+000	0.0000000E+000	-7.6866982E+001	0.0000000E+000	0.0000000E+000	0.0000000E+000	7.6866982E+001	2.3331484E-001	7.6866982E+001	-2.388886156314484E-006
3.7705118E+002	1.7822114E+000	9.8488712E+000	1.0008823E+001	-7.9742981E+001	1.005667581102171E+001	-1.5676838E-001	-2.3122758E-002	4.2858143E+001	4.1499249E+001	1.000000000000000E+000	10	9.5573859E-003	9.5489610E-004	0	-3.303412265817881E-004	1.7790712E-002	9.8315142E-002	9.9911846E-002	7.9742981E+001	4.1499246E+004	7.5095366E+003	4.2173223E+004	-1.0257019E+001	0.0000000E+000	0.0000000E+000	0.0000000E+000	1.0257019E+001	0.0000000E+000	0.0000000E+000	0.0000000E+000	-1.0257019E+001	0.0000000E+000	0.0000000E+000	0.0000000E+000	-7.9742981E+001	0.0000000E+000	0.0000000E+000	0.0000000E+000	7.9742981E+001	1.8095590E-001	7.9742981E+001	-3.353455719967723E-006
2.5475545E+002	2.0096827E+000	1.3780527E+001	1.3926297E+001	-8.1702766E+001	1.051895881962264E+001	-1.5680990E-001	-2.4080910E-002	4.5334709E+001	4.4390617E+001	1.000000000000000E+000	10	9.1975639E-003	6.6044577E-004	0	-3.336698857482568E-004	1.0362296E-002	7.1054980E-002	7.1806595E-002	8.1702766E+001	4.4390617E+004	6.4737017E+003	4.4860180E+004	-8.2972336E+000	0.0000000E+000	0.0000000E+000	0.0000000E+000	8.2972336E+000	0.0000000E+000	0.0000000E+000	0.0000000E+000	-8.2972336E+000	0.0000000E+000	0.0000000E+000	0.0000000E+000	-8.1702766E+001	0.0000000E+000	0.0000000E+000	0.0000000E+000	8.1702766E+001	1.4583497E-001	8.1702766E+001	-3.328659166468729E-006
1.7203688E+002	3.0797975E+000	2.0169809E+001	2.0403587E+001	-8.1318367E+001	1.097537310796906E+001	-1.5682696E-001	-2.3329688E-002	4.5866627E+001	4.4821594E+001	1.000000000000000E+000	10	9.2994254E-003	4.5577405E-004	0	-3.361681787702643E-004	7.3979115E-003	4.8449438E-002	4.9010988E-002	8.1318367E+001	4.4821598E+004	6.8439644E+003	4.5341102E+004	-8.6816330E+000	0.0000000E+000	0.0000000E+000	0.0000000E+000	8.6816330E+000	0.0000000E+000	0.0000000E+000	0.0000000E+000	-8.6816330E+000	0.0000000E+000	0.0000000E+000	0.0000000E+000	-8.1318367E+001	0.0000000E+000	0.0000000E+000	0.0000000E+000	8.1318367E+001	1.5269344E-001	8.1318367E+001	-2.498293022007512E-006
1.1622738E+002	3.5240223E+000	2.9394245E+001	2.9604736E+001	-8.3163544E+001	1.190065120527652E+001	-1.5680493E-001	-2.8299426E-003	4.6585354E+001	4.5925259E+001	1.000000000000000E+000	11	1.0213479E-002	3.4499477E-004	0	-3.391823179103101E-004	4.0208348E-003	3.3538215E-002	3.3778381E-002	8.3163544E+001	4.5925262E+004	5.5058950E+003	4.6254129E+004	-6.8364563E+000	0.0000000E+000	0.0000000E+000	0.0000000E+000	6.8364563E+000	0.0000000E+000	0.0000000E+000	0.0000000E+000	-6.8364563E+000	0.0000000E+000	0.0000000E+000	0.0000000E+000	-8.3163544E+001	0.0000000E+000	0.0000000E+000	0.0000000E+000	8.3163544E+001	1.1988817E-001	8.3163544E+001	-3.014139140045807E-006
7.8517616E+001	4.3343215E+000	4.2320148E+001	4.2541523E+001	-8.4152306E+001	1.237055714751477E+001	-1.5722269E-001	-2.9015271E-003	4.7896725E+001	4.7399544E+001	1.000000000000000E+000	11	1.0085460E-002	2.3707331E-004	0	-3.396674310976127E-004	2.3949407E-003	2.3384124E-002	2.3506446E-002	8.4152306E+001	4.7399539E+004	4.8545366E+003	4.7647484E+004	-5.8476944E+000	0.0000000E+000	0.0000000E+000	0.0000000E+000	5.8476944E+000	0.0000000E+000	0.0000000E+000	0.0000000E+000	-5.8476944E+000	0.0000000E+000	0.0000000E+000	0.0000000E+000	-8.4152306E+001	0.0000000E+000	0.0000000E+000	0.0000000E+000	8.4152306E+001	1.0241745E-001	8.4152306E+001	-4.851131873025681E-007
5.3047844E+001	6.2662458E+000	6.2017811E+001	6.2333576E+001	-8.4230446E+001	1.284713069020654E+001	-1.5688676E-001	-2.7069170E-003	4.8376667E+001	4.7887783E+001	1.000000000000000E+000	11	1.0263579E-002	1.6465571E-004	0	-3.399088286098858E-004	1.6127364E-003	1.5961451E-002	1.6042719E-002	8.4230446E+001	4.7887785E+004	4.8385557E+003	4.8131605E+004	-5.7695541E+000	0.0000000E+000	0.0000000E+000	0.0000000E+000	5.7695541E+000	0.0000000E+000	0.0000000E+000	0.0000000E+000	-5.7695541E+000	0.0000000E+000	0.0000000E+000	0.0000000E+000	-8.4230446E+001	0.0000000E+000	0.0000000E+000	0.0000000E+000	8.4230446E+001	1.0103945E-001	8.4230446E+001	-2.413975122730980E-007
3.5837154E+001	8.5233049E+000	8.9497643E+001	8.9902588E+001	-8.4559845E+001	1.329905951165711E+001	-1.5684803E-001	-3.0968878E-003	4.9622086E+001	4.9176071E+001	1.000000000000000E+000	11	1.0163560E-002	1.1305080E-004	0	-3.401890442579849E-004	1.0545416E-003	1.1073049E-002	1.1123151E-002	8.4559845E+001	4.9176070E+004	4.6832822E+003	4.9398574E+004	-5.4401550E+000	0.0000000E+000	0.0000000E+000	0.0000000E+000	5.4401550E+000	0.0000000E+000	0.0000000E+000	0.0000000E+000	-5.4401550E+000	0.0000000E+000	0.0000000E+000	0.0000000E+000	-8.4559845E+001	0.0000000E+000	0.0000000E+000	0.0000000E+000	8.4559845E+001	9.5234968E-002	8.4559845E+001	-2.802156480991133E-007
2.4232319E+001	1.4395203E+001	1.3119202E+002	1.3197942E+002	-8.3738205E+001	1.377407729421975E+001	-1.5679584E-001	-2.9371355E-003	5.0063103E+001	4.9467522E+001	1.000000000000000E+000	11	1.0329019E-002	7.8262354E-005	0	-3.407216280734695E-004	8.2642824E-004	7.5317346E-003	7.5769392E-003	8.3738205E+001	4.9467523E+004	5.4278809E+003	4.9764422E+004	-6.2617950E+000	0.0000000E+000	0.0000000E+000	0.0000000E+000	6.2617950E+000	0.0000000E+000	0.0000000E+000	0.0000000E+000	-6.2617950E+000	0.0000000E+000	0.0000000E+000	0.0000000E+000	-8.3738205E+001	0.0000000E+000	0.0000000E+000	0.0000000E+000	8.3738205E+001	1.0972621E-001	8.3738205E+001	-5.325838154846452E-007
1.6366972E+001	1.7495298E+001	1.8520677E+002	1.8603127E+002	-8.4603645E+001	1.443604388568201E+001	-1.5666930E-001	-4.1634950E-004	5.2504307E+001	5.2039940E+001	1.000000000000000E+000	12	1.0036589E-002	5.3951084E-005	0	-3.410202013270189E-004	5.0553319E-004	5.3516165E-003	5.3754407E-003	8.4603645E+001	5.2039934E+004	4.9158818E+003	5.2271605E+004	-5.3963547E+000	0.0000000E+000	0.0000000E+000	0.0000000E+000	5.3963547E+000	0.0000000E+000	0.0000000E+000	0.0000000E+000	-5.3963547E+000	0.0000000E+000	0.0000000E+000	0.0000000E+000	-8.4603645E+001	0.0000000E+000	0.0000000E+000	0.0000000E+000	8.4603645E+001	9.4463602E-002	8.4603645E+001	-2.985732535493689E-007
1.1050212E+001	3.0194281E+001	2.6949109E+002	2.7117734E+002	-8.3607140E+001	1.485972507914994E+001	-1.5679665E-001	-4.7684924E-004	5.3444763E+001	5.2782162E+001	1.000000000000000E+000	12	1.0062346E-002	3.7106147E-005	0	-3.408458119320664E-004	4.1059885E-004	3.6646936E-003	3.6876239E-003	8.3607140E+001	5.2782164E+004	5.9138081E+003	5.3112426E+004	-6.3928604E+000	0.0000000E+000	0.0000000E+000	0.0000000E+000	6.3928604E+000	0.0000000E+000	0.0000000E+000	0.0000000E+000	-6.3928604E+000	0.0000000E+000	0.0000000E+000	0.0000000E+000	-8.3607140E+001	0.0000000E+000	0.0000000E+000	0.0000000E+000	8.3607140E+001	1.1204185E-001	8.3607140E+001	1.743893949525096E-007
