EC-Lab ASCII FILE
Nb header lines : 63                          

Potentio Electrochemical Impedance Spectroscopy

Run on channel : 5 (SN 30436)
User : 
CE vs. WE compliance from -10 V to 10 V
Electrode connection : standard
Potential control : Ewe
Ewe ctrl range : min = -10.00 V, max = 10.00 V
Safety Limits :
	Do not start on E overload
Acquisition started on : 01/31/2023 15:11:30.813
Loaded Setting File :  NONE
Saved on :
	File : 2023_01_31_Co25Ni25Fe50 elect1 ref307_C05.mpr
	Directory : C:\Users\grupogalan\Documents\EC-Lab\Data\Scott\
	Host : 169.254.104.159
Device : VSP (SN 1176)
Address : USB
EC-Lab for windows v11.46 (software)
Internet server v11.40 (firmware)
Command interpretor v11.40 (firmware)
Electrode material : 
Initial state : 
Electrolyte : 
Comments : 
Electrode surface area : 0.001 cm²
Characteristic mass : 0.001 g
Equivalent Weight : 0.000 g/eq.
Density : 0.000 g/cm3
Volume (V) : 0.001 cm³
Cycle Definition : Charge/Discharge alternance
Mode                Single sine         
E (V)               0.0000              
vs.                 Eoc                 
tE (h:m:s)          0:00:0.0000         
record              0                   
dI                  0.000               
unit dI             mA                  
dt (s)              0.000               
fi                  200.000             
unit fi             kHz                 
ff                  100.000             
unit ff             mHz                 
Nd                  6                   
Points              per decade          
spacing             Logarithmic         
Va (mV)             10.0                
pw                  0.10                
Na                  2                   
corr                0                   
E range min (V)     -10.000             
E range max (V)     10.000              
I Range             Auto                
Bandwidth           5                   
nc cycles           0                   
goto Ns'            0                   
nr cycles           0                   
inc. cycle          0                   

freq/Hz	Re(Z)/Ohm	-Im(Z)/Ohm	|Z|/Ohm	Phase(Z)/deg	time/s	<Ewe>/V	<I>/mA	Cs/µF	Cp/µF	cycle number	I Range	|Ewe|/V	|I|/A	Ns	(Q-Qo)/mA.h	Re(Y)/Ohm-1	Im(Y)/Ohm-1	|Y|/Ohm-1	Phase(Y)/deg	Re(C)/nF	Im(C)/nF	|C|/nF	Phase(C)/deg	Re(M)	Im(M)	|M|	Phase(M)/deg	Re(Permittivity)	Im(Permittivity)	|Permittivity|	Phase(Permittivity)/deg	Re(Resistivity)/Ohm.cm	Im(Resistivity)/Ohm.cm	|Resistivity|/Ohm.cm	Phase(Resistivity)/deg	Re(Conductivity)/mS/cm	Im(Conductivity)/mS/cm	|Conductivity|/mS/cm	Phase(Conductivity)/deg	Tan(Delta)	Loss Angle(Delta)/deg	dq/mA.h	
1.9999814E+005	1.5814284E+000	-1.5852889E+000	2.2392089E+000	4.5069847E+001	2.565478335163789E+000	-1.7772262E-001	-1.8003725E-001	-5.0197923E-001	-2.5160158E-001	1.000000000000000E+000	9	7.6786415E-003	3.4291761E-003	0	-3.474521781328238E-005	3.1539899E-001	-3.1616890E-001	4.4658628E-001	-4.5069847E+001	-2.5160159E+002	2.5098885E+002	3.5538538E+002	-1.3506985E+002	0.0000000E+000	0.0000000E+000	0.0000000E+000	1.3506985E+002	0.0000000E+000	0.0000000E+000	0.0000000E+000	-1.3506985E+002	0.0000000E+000	0.0000000E+000	0.0000000E+000	4.5069847E+001	0.0000000E+000	0.0000000E+000	0.0000000E+000	-4.5069847E+001	-9.9756479E-001	-4.5069847E+001	-3.474521781328238E-005
1.3512284E+005	1.1269336E+000	-6.8094951E-001	1.3166896E+000	3.1142466E+001	2.987494941888144E+000	-1.7781273E-001	-1.8156520E-001	-1.7297226E+000	-4.6263602E-001	1.000000000000000E+000	9	9.9984314E-003	7.5936131E-003	0	-5.715250831671680E-005	6.5002716E-001	-3.9277884E-001	7.5948042E-001	-3.1142466E+001	-4.6263602E+002	7.6563696E+002	8.9455688E+002	-1.2114246E+002	0.0000000E+000	0.0000000E+000	0.0000000E+000	1.2114246E+002	0.0000000E+000	0.0000000E+000	0.0000000E+000	-1.2114246E+002	0.0000000E+000	0.0000000E+000	0.0000000E+000	3.1142466E+001	0.0000000E+000	0.0000000E+000	0.0000000E+000	-3.1142466E+001	-1.6549444E+000	-3.1142466E+001	-2.240729050343442E-005
9.1291195E+004	1.0719850E+000	-3.1231233E-001	1.1165531E+000	1.6242966E+001	3.409479628578993E+000	-1.7784606E-001	-1.7571385E-001	-5.5821581E+000	-4.3673867E-001	1.000000000000000E+000	9	9.1119548E-003	8.1607895E-003	0	-4.617629487941869E-005	8.5986435E-001	-2.5051308E-001	8.9561349E-001	-1.6242966E+001	-4.3673868E+002	1.4990675E+003	1.5613917E+003	-1.0624297E+002	0.0000000E+000	0.0000000E+000	0.0000000E+000	1.0624297E+002	0.0000000E+000	0.0000000E+000	0.0000000E+000	-1.0624297E+002	0.0000000E+000	0.0000000E+000	0.0000000E+000	1.6242966E+001	0.0000000E+000	0.0000000E+000	0.0000000E+000	-1.6242966E+001	-3.4324133E+000	-1.6242966E+001	1.097621343729811E-005
6.1674211E+004	1.0644190E+000	-8.9027964E-002	1.0681357E+000	4.7810879E+000	3.831480821972946E+000	-1.7790130E-001	-1.7681324E-001	-2.8986122E+001	-2.0136783E-001	1.000000000000000E+000	9	9.9651860E-003	9.3295127E-003	0	-6.292166993259970E-005	9.3295294E-001	-7.8032136E-002	9.3621057E-001	-4.7810879E+000	-2.0136789E+002	2.4075554E+003	2.4159619E+003	-9.4781090E+001	0.0000000E+000	0.0000000E+000	0.0000000E+000	9.4781090E+001	0.0000000E+000	0.0000000E+000	0.0000000E+000	-9.4781090E+001	0.0000000E+000	0.0000000E+000	0.0000000E+000	4.7810879E+000	0.0000000E+000	0.0000000E+000	0.0000000E+000	-4.7810879E+000	-1.1956008E+001	-4.7810879E+000	-1.674537505318101E-005
4.1669758E+004	1.0428623E+000	2.0290768E-002	1.0430597E+000	-1.1146520E+000	4.253496788645862E+000	-1.7772472E-001	-1.7017926E-001	1.8823512E+002	7.1232684E-002	1.000000000000000E+000	9	1.0365343E-002	9.9374391E-003	0	-8.998249430690581E-005	9.5853645E-001	1.8650055E-002	9.5871788E-001	1.1146520E+000	7.1232841E+001	3.6610681E+003	3.6617610E+003	-8.8885345E+001	0.0000000E+000	0.0000000E+000	0.0000000E+000	8.8885345E+001	0.0000000E+000	0.0000000E+000	0.0000000E+000	-8.8885345E+001	0.0000000E+000	0.0000000E+000	0.0000000E+000	-1.1146520E+000	0.0000000E+000	0.0000000E+000	0.0000000E+000	1.1146520E+000	5.1395901E+001	1.1146520E+000	-2.706082437430611E-005
2.8150979E+004	1.0649738E+000	1.6218483E-001	1.0772526E+000	-8.6590405E+000	4.675479182071285E+000	-1.7776203E-001	-1.6544601E-001	3.4859119E+001	7.9013586E-001	1.000000000000000E+000	9	1.0884314E-002	1.0103771E-002	0	-1.072789809584825E-004	9.1770655E-001	1.3975750E-001	9.2828739E-001	8.6590405E+000	7.9013593E+002	5.1883643E+003	5.2481841E+003	-8.1340958E+001	0.0000000E+000	0.0000000E+000	0.0000000E+000	8.1340958E+001	0.0000000E+000	0.0000000E+000	0.0000000E+000	-8.1340958E+001	0.0000000E+000	0.0000000E+000	0.0000000E+000	-8.6590405E+000	0.0000000E+000	0.0000000E+000	0.0000000E+000	8.6590405E+000	6.5664206E+000	8.6590405E+000	-1.729648665157664E-005
1.9020934E+004	1.1159763E+000	2.8099597E-001	1.1508093E+000	-1.4132936E+001	5.097489255451364E+000	-1.7785034E-001	-1.6421613E-001	2.9777498E+001	1.7753406E+000	1.000000000000000E+000	9	1.1014302E-002	9.5709190E-003	0	-1.121171894021617E-004	8.4265208E-001	2.1217458E-001	8.6895370E-001	1.4132936E+001	1.7753403E+003	7.0507705E+003	7.2708457E+003	-7.5867065E+001	0.0000000E+000	0.0000000E+000	0.0000000E+000	7.5867065E+001	0.0000000E+000	0.0000000E+000	0.0000000E+000	-7.5867065E+001	0.0000000E+000	0.0000000E+000	0.0000000E+000	-1.4132936E+001	0.0000000E+000	0.0000000E+000	0.0000000E+000	1.4132936E+001	3.9715030E+000	1.4132936E+001	-4.838208443679238E-006
1.2850729E+004	1.1517539E+000	4.4724092E-001	1.2355410E+000	-2.1221834E+001	5.519473728811136E+000	-1.7773786E-001	-1.6512924E-001	2.7691778E+001	3.6284370E+000	1.000000000000000E+000	9	1.0705173E-002	8.6643612E-003	0	-1.199029231996942E-004	7.5447589E-001	2.9297274E-001	8.0936205E-001	2.1221834E+001	3.6284370E+003	9.3441074E+003	1.0023866E+004	-6.8778168E+001	0.0000000E+000	0.0000000E+000	0.0000000E+000	6.8778168E+001	0.0000000E+000	0.0000000E+000	0.0000000E+000	-6.8778168E+001	0.0000000E+000	0.0000000E+000	0.0000000E+000	-2.1221834E+001	0.0000000E+000	0.0000000E+000	0.0000000E+000	2.1221834E+001	2.5752428E+000	2.1221834E+001	-7.785733797532470E-006
8.6833721E+003	1.1699727E+000	6.5283483E-001	1.3397870E+000	-2.9161148E+001	5.968980416859267E+000	-1.7797771E-001	-1.7985082E-001	2.8075560E+001	6.6659727E+000	1.000000000000000E+000	9	1.0158134E-002	7.5819017E-003	0	-1.459399217275980E-004	6.5178472E-001	3.6369038E-001	7.4638730E-001	2.9161148E+001	6.6659722E+003	1.1946368E+004	1.3680311E+004	-6.0838852E+001	0.0000000E+000	0.0000000E+000	0.0000000E+000	6.0838852E+001	0.0000000E+000	0.0000000E+000	0.0000000E+000	-6.0838852E+001	0.0000000E+000	0.0000000E+000	0.0000000E+000	-2.9161148E+001	0.0000000E+000	0.0000000E+000	0.0000000E+000	2.9161148E+001	1.7921419E+000	2.9161148E+001	-2.603699852790385E-005
5.8650859E+003	1.2027004E+000	9.3682796E-001	1.5245113E+000	-3.7916348E+001	6.385860169975786E+000	-1.7784470E-001	-1.7880727E-001	2.8965826E+001	1.0938160E+001	1.000000000000000E+000	9	1.0188833E-002	6.6833436E-003	0	-1.709541167924310E-004	5.1748306E-001	4.0308672E-001	6.5594786E-001	3.7916348E+001	1.0938160E+004	1.4042418E+004	1.7799799E+004	-5.2083652E+001	0.0000000E+000	0.0000000E+000	0.0000000E+000	5.2083652E+001	0.0000000E+000	0.0000000E+000	0.0000000E+000	-5.2083652E+001	0.0000000E+000	0.0000000E+000	0.0000000E+000	-3.7916348E+001	0.0000000E+000	0.0000000E+000	0.0000000E+000	3.7916348E+001	1.2838007E+000	3.7916348E+001	-2.501419506483298E-005
3.9611973E+003	1.2521576E+000	1.3303999E+000	1.8269818E+000	-4.6735329E+001	6.848923738638405E+000	-1.7796972E-001	-1.7303051E-001	3.0200317E+001	1.6014280E+001	1.000000000000000E+000	9	9.6788062E-003	5.2977027E-003	0	-1.879939084002657E-004	3.7513754E-001	3.9857841E-001	5.4735082E-001	4.6735329E+001	1.6014280E+004	1.5072462E+004	2.1991732E+004	-4.3264671E+001	0.0000000E+000	0.0000000E+000	0.0000000E+000	4.3264671E+001	0.0000000E+000	0.0000000E+000	0.0000000E+000	-4.3264671E+001	0.0000000E+000	0.0000000E+000	0.0000000E+000	-4.6735329E+001	0.0000000E+000	0.0000000E+000	0.0000000E+000	4.6735329E+001	9.4118887E-001	4.6735329E+001	-1.703979160783475E-005
2.6774299E+003	1.3107554E+000	1.9523146E+000	2.3515127E+000	-5.6123169E+001	7.310928427265026E+000	-1.7781562E-001	-1.6507348E-001	3.0447538E+001	2.0987328E+001	1.000000000000000E+000	9	9.3811434E-003	3.9894078E-003	0	-2.070680910449393E-004	2.3704292E-001	3.5306540E-001	4.2525819E-001	5.6123169E+001	2.0987328E+004	1.4090584E+004	2.5278697E+004	-3.3876831E+001	0.0000000E+000	0.0000000E+000	0.0000000E+000	3.3876831E+001	0.0000000E+000	0.0000000E+000	0.0000000E+000	-3.3876831E+001	0.0000000E+000	0.0000000E+000	0.0000000E+000	-5.6123169E+001	0.0000000E+000	0.0000000E+000	0.0000000E+000	5.6123169E+001	6.7138535E-001	5.6123169E+001	-1.907418264467358E-005
1.8082643E+003	1.4567804E+000	2.7771158E+000	3.1360137E+000	-6.2320026E+001	7.993961259693606E+000	-1.7795303E-001	-1.7263925E-001	3.1693066E+001	2.4854002E+001	1.000000000000000E+000	9	1.0261827E-002	3.2722519E-003	0	-2.414319152300919E-004	1.4812835E-001	2.8238270E-001	3.1887615E-001	6.2320026E+001	2.4854002E+004	1.3037563E+004	2.8065984E+004	-2.7679974E+001	0.0000000E+000	0.0000000E+000	0.0000000E+000	2.7679974E+001	0.0000000E+000	0.0000000E+000	0.0000000E+000	-2.7679974E+001	0.0000000E+000	0.0000000E+000	0.0000000E+000	-6.2320026E+001	0.0000000E+000	0.0000000E+000	0.0000000E+000	6.2320026E+001	5.2456594E-001	6.2320026E+001	-3.436382418515254E-005
1.2219551E+003	1.4390737E+000	3.9639156E+000	4.2170558E+000	-7.0046906E+001	8.706452200160129E+000	-1.7770112E-001	-2.1877509E-002	3.2857952E+001	2.9031576E+001	1.000000000000000E+000	10	1.0274769E-002	2.4364793E-003	0	-2.555328296923674E-004	8.0921561E-002	2.2289777E-001	2.3713227E-001	7.0046906E+001	2.9031574E+004	1.0539721E+004	3.0885563E+004	-1.9953094E+001	0.0000000E+000	0.0000000E+000	0.0000000E+000	1.9953094E+001	0.0000000E+000	0.0000000E+000	0.0000000E+000	-1.9953094E+001	0.0000000E+000	0.0000000E+000	0.0000000E+000	-7.0046906E+001	0.0000000E+000	0.0000000E+000	0.0000000E+000	7.0046906E+001	3.6304349E-001	7.0046906E+001	-1.410091446227551E-005
8.2526404E+002	1.6679535E+000	5.8706417E+000	6.1029911E+000	-7.4139214E+001	9.167687342131103E+000	-1.7790294E-001	-2.2850581E-002	3.2850471E+001	3.0396759E+001	1.000000000000000E+000	10	1.0208304E-002	1.6726723E-003	0	-2.574555831323766E-004	4.4781473E-002	1.5761591E-001	1.6385408E-001	7.4139214E+001	3.0396762E+004	8.6362578E+003	3.1599811E+004	-1.5860786E+001	0.0000000E+000	0.0000000E+000	0.0000000E+000	1.5860786E+001	0.0000000E+000	0.0000000E+000	0.0000000E+000	-1.5860786E+001	0.0000000E+000	0.0000000E+000	0.0000000E+000	-7.4139214E+001	0.0000000E+000	0.0000000E+000	0.0000000E+000	7.4139214E+001	2.8411776E-001	7.4139214E+001	-1.922753440009234E-006
5.5803571E+002	1.8933030E+000	8.5446634E+000	8.7519064E+000	-7.7506409E+001	9.631461550801760E+000	-1.7770459E-001	-2.2332381E-002	3.3378223E+001	3.1816162E+001	1.000000000000000E+000	10	1.0071017E-002	1.1507226E-003	0	-2.609816138414608E-004	2.4718091E-002	1.1155515E-001	1.1426082E-001	7.7506409E+001	3.1816158E+004	7.0497393E+003	3.2587832E+004	-1.2493591E+001	0.0000000E+000	0.0000000E+000	0.0000000E+000	1.2493591E+001	0.0000000E+000	0.0000000E+000	0.0000000E+000	-1.2493591E+001	0.0000000E+000	0.0000000E+000	0.0000000E+000	-7.7506409E+001	0.0000000E+000	0.0000000E+000	0.0000000E+000	7.7506409E+001	2.2157726E-001	7.7506409E+001	-3.526030709084154E-006
3.7705118E+002	2.2233782E+000	1.2226119E+001	1.2426641E+001	-7.9693123E+001	1.009066565263493E+001	-1.7787848E-001	-2.3249524E-002	3.4524799E+001	3.3419579E+001	1.000000000000000E+000	10	9.8735485E-003	7.9454691E-004	0	-2.634495624157781E-004	1.4398124E-002	7.9173744E-002	8.0472276E-002	7.9693123E+001	3.3419578E+004	6.0775107E+003	3.3967695E+004	-1.0306877E+001	0.0000000E+000	0.0000000E+000	0.0000000E+000	1.0306877E+001	0.0000000E+000	0.0000000E+000	0.0000000E+000	-1.0306877E+001	0.0000000E+000	0.0000000E+000	0.0000000E+000	-7.9693123E+001	0.0000000E+000	0.0000000E+000	0.0000000E+000	7.9693123E+001	1.8185478E-001	7.9693123E+001	-2.467948574317376E-006
2.5475545E+002	2.6284375E+000	1.7368437E+001	1.7566196E+001	-8.1394493E+001	1.055295207456220E+001	-1.7790544E-001	-2.3079896E-002	3.5969627E+001	3.5164295E+001	1.000000000000000E+000	10	9.6424185E-003	5.4891896E-004	0	-2.656038006232055E-004	8.5180867E-003	5.6286629E-002	5.6927521E-002	8.1394493E+001	3.5164293E+004	5.3215562E+003	3.5564680E+004	-8.6055069E+000	0.0000000E+000	0.0000000E+000	0.0000000E+000	8.6055069E+000	0.0000000E+000	0.0000000E+000	0.0000000E+000	-8.6055069E+000	0.0000000E+000	0.0000000E+000	0.0000000E+000	-8.1394493E+001	0.0000000E+000	0.0000000E+000	0.0000000E+000	8.1394493E+001	1.5133414E-001	8.1394493E+001	-2.154238207427396E-006
1.7203688E+002	3.1721826E+000	2.5272532E+001	2.5470839E+001	-8.2845711E+001	1.125937021474238E+001	-1.7780454E-001	-3.0705961E-003	3.6605797E+001	3.6038013E+001	1.000000000000000E+000	11	9.7514614E-003	3.8284808E-004	0	-2.673897159686554E-004	4.8895790E-003	3.8954917E-002	3.9260585E-002	8.2845711E+001	3.6038012E+004	4.5234526E+003	3.6320793E+004	-7.1542892E+000	0.0000000E+000	0.0000000E+000	0.0000000E+000	7.1542892E+000	0.0000000E+000	0.0000000E+000	0.0000000E+000	-7.1542892E+000	0.0000000E+000	0.0000000E+000	0.0000000E+000	-8.2845711E+001	0.0000000E+000	0.0000000E+000	0.0000000E+000	8.2845711E+001	1.2551899E-001	8.2845711E+001	-1.785915345449906E-006
1.1622738E+002	4.7391887E+000	3.6635925E+001	3.6941181E+001	-8.2629204E+001	1.171662122320413E+001	-1.7782319E-001	-2.5031688E-003	3.7377010E+001	3.6761845E+001	1.000000000000000E+000	11	9.7093293E-003	2.6283212E-004	0	-2.676498438057218E-004	3.4728213E-003	2.6846372E-002	2.7070060E-002	8.2629204E+001	3.6761844E+004	4.7554775E+003	3.7068148E+004	-7.3707962E+000	0.0000000E+000	0.0000000E+000	0.0000000E+000	7.3707962E+000	0.0000000E+000	0.0000000E+000	0.0000000E+000	-7.3707962E+000	0.0000000E+000	0.0000000E+000	0.0000000E+000	-8.2629204E+001	0.0000000E+000	0.0000000E+000	0.0000000E+000	8.2629204E+001	1.2935905E-001	8.2629204E+001	-2.601278370663730E-007
7.8517616E+001	4.5539660E+000	5.3942970E+001	5.4134857E+001	-8.5174423E+001	1.218653503214591E+001	-1.7790580E-001	-2.8370304E-003	3.7576660E+001	3.7310741E+001	1.000000000000000E+000	11	9.7988062E-003	1.8100733E-004	0	-2.680794459959466E-004	1.5539464E-003	1.8406909E-002	1.8472387E-002	8.5174423E+001	3.7310742E+004	3.1498442E+003	3.7443465E+004	-4.8255768E+000	0.0000000E+000	0.0000000E+000	0.0000000E+000	4.8255768E+000	0.0000000E+000	0.0000000E+000	0.0000000E+000	-4.8255768E+000	0.0000000E+000	0.0000000E+000	0.0000000E+000	-8.5174423E+001	0.0000000E+000	0.0000000E+000	0.0000000E+000	8.5174423E+001	8.4421866E-002	8.5174423E+001	-4.296021902248015E-007
5.3047844E+001	9.0439606E+000	7.6717514E+001	7.7248756E+001	-8.3276634E+001	1.266309990812442E+001	-1.7779158E-001	-3.2465744E-003	3.9107304E+001	3.8571266E+001	1.000000000000000E+000	11	9.7179823E-003	1.2580115E-004	0	-2.682924596037434E-004	1.5155681E-003	1.2856168E-002	1.2945192E-002	8.3276634E+001	3.8571270E+004	4.5470308E+003	3.8838363E+004	-6.7233658E+000	0.0000000E+000	0.0000000E+000	0.0000000E+000	6.7233658E+000	0.0000000E+000	0.0000000E+000	0.0000000E+000	-6.7233658E+000	0.0000000E+000	0.0000000E+000	0.0000000E+000	-8.3276634E+001	0.0000000E+000	0.0000000E+000	0.0000000E+000	8.3276634E+001	1.1788652E-001	8.3276634E+001	-2.130136077967940E-007
3.5837154E+001	1.0728072E+001	1.1165062E+002	1.1216485E+002	-8.4511520E+001	1.311510195626761E+001	-1.7757551E-001	-3.0020059E-003	3.9776402E+001	3.9412521E+001	1.000000000000000E+000	11	9.6954526E-003	8.6439315E-005	0	-2.686055124669058E-004	8.5272361E-004	8.8745765E-003	8.9154495E-003	8.4511520E+001	3.9412523E+004	3.7869963E+003	3.9594043E+004	-5.4884796E+000	0.0000000E+000	0.0000000E+000	0.0000000E+000	5.4884796E+000	0.0000000E+000	0.0000000E+000	0.0000000E+000	-5.4884796E+000	0.0000000E+000	0.0000000E+000	0.0000000E+000	-8.4511520E+001	0.0000000E+000	0.0000000E+000	0.0000000E+000	8.4511520E+001	9.6086100E-002	8.4511520E+001	-3.130528631623561E-007