EC-Lab ASCII FILE
Nb header lines : 63                          

Potentio Electrochemical Impedance Spectroscopy

Run on channel : 5 (SN 30436)
User : 
CE vs. WE compliance from -10 V to 10 V
Electrode connection : standard
Potential control : Ewe
Ewe ctrl range : min = -10.00 V, max = 10.00 V
Safety Limits :
	Do not start on E overload
Acquisition started on : 01/31/2023 10:41:20.236
Loaded Setting File :  NONE
Saved on :
	File : 2023_01_31 NiNx 1 mg 307ref set1_C05.mpr
	Directory : C:\Users\grupogalan\Documents\EC-Lab\Data\Scott\
	Host : 169.254.104.159
Device : VSP (SN 1176)
Address : USB
EC-Lab for windows v11.46 (software)
Internet server v11.40 (firmware)
Command interpretor v11.40 (firmware)
Electrode material : 
Initial state : 
Electrolyte : 
Comments : 
Electrode surface area : 0.001 cm²
Characteristic mass : 0.001 g
Equivalent Weight : 0.000 g/eq.
Density : 0.000 g/cm3
Volume (V) : 0.001 cm³
Cycle Definition : Charge/Discharge alternance
Mode                Single sine         
E (V)               0.0000              
vs.                 Eoc                 
tE (h:m:s)          0:00:0.0000         
record              0                   
dI                  0.000               
unit dI             mA                  
dt (s)              0.000               
fi                  200.000             
unit fi             kHz                 
ff                  100.000             
unit ff             mHz                 
Nd                  6                   
Points              per decade          
spacing             Logarithmic         
Va (mV)             10.0                
pw                  0.10                
Na                  2                   
corr                0                   
E range min (V)     -10.000             
E range max (V)     10.000              
I Range             Auto                
Bandwidth           5                   
nc cycles           0                   
goto Ns'            0                   
nr cycles           0                   
inc. cycle          0                   

freq/Hz	Re(Z)/Ohm	-Im(Z)/Ohm	|Z|/Ohm	Phase(Z)/deg	time/s	<Ewe>/V	<I>/mA	Cs/µF	Cp/µF	cycle number	I Range	|Ewe|/V	|I|/A	Ns	(Q-Qo)/mA.h	Re(Y)/Ohm-1	Im(Y)/Ohm-1	|Y|/Ohm-1	Phase(Y)/deg	Re(C)/nF	Im(C)/nF	|C|/nF	Phase(C)/deg	Re(M)	Im(M)	|M|	Phase(M)/deg	Re(Permittivity)	Im(Permittivity)	|Permittivity|	Phase(Permittivity)/deg	Re(Resistivity)/Ohm.cm	Im(Resistivity)/Ohm.cm	|Resistivity|/Ohm.cm	Phase(Resistivity)/deg	Re(Conductivity)/mS/cm	Im(Conductivity)/mS/cm	|Conductivity|/mS/cm	Phase(Conductivity)/deg	Tan(Delta)	Loss Angle(Delta)/deg	dq/mA.h	
1.9999814E+005	1.5764469E+000	-1.4224796E+000	2.1233542E+000	4.2060970E+001	2.733496476459550E+000	-2.0407778E-001	-1.7036578E-001	-5.5943304E-001	-2.5107029E-001	1.000000000000000E+000	9	7.1342592E-003	3.3599006E-003	0	-2.600266212627240E-005	3.4965074E-001	-3.1550130E-001	4.7095299E-001	-4.2060970E+001	-2.5107033E+002	2.7824579E+002	3.7477597E+002	-1.3206097E+002	0.0000000E+000	0.0000000E+000	0.0000000E+000	1.3206097E+002	0.0000000E+000	0.0000000E+000	0.0000000E+000	-1.3206097E+002	0.0000000E+000	0.0000000E+000	0.0000000E+000	4.2060970E+001	0.0000000E+000	0.0000000E+000	0.0000000E+000	-4.2060970E+001	-1.1082387E+000	-4.2060970E+001	-2.600266212627240E-005
1.3512284E+005	1.1598696E+000	-5.9219664E-001	1.3023034E+000	2.7047573E+001	3.155480096495012E+000	-2.0401798E-001	-1.6732822E-001	-1.9889569E+000	-4.1127557E-001	1.000000000000000E+000	9	9.9613117E-003	7.6489947E-003	0	-3.426047109799563E-005	6.8388766E-001	-3.4917372E-001	7.6787019E-001	-2.7047573E+001	-4.1127567E+002	8.0551965E+002	9.0443884E+002	-1.1704758E+002	0.0000000E+000	0.0000000E+000	0.0000000E+000	1.1704758E+002	0.0000000E+000	0.0000000E+000	0.0000000E+000	-1.1704758E+002	0.0000000E+000	0.0000000E+000	0.0000000E+000	2.7047573E+001	0.0000000E+000	0.0000000E+000	0.0000000E+000	-2.7047573E+001	-1.9585885E+000	-2.7047573E+001	-8.257808971723230E-006
9.1291195E+004	1.1115210E+000	-2.4354300E-001	1.1378894E+000	1.2358654E+001	3.577474703226471E+000	-2.0411059E-001	-1.7228501E-001	-7.1583943E+000	-3.2791916E-001	1.000000000000000E+000	9	9.6893795E-003	8.5152211E-003	0	-7.072134901803091E-005	8.5845512E-001	-1.8809429E-001	8.7882006E-001	-1.2358654E+001	-3.2791928E+002	1.4966106E+003	1.5321144E+003	-1.0235866E+002	0.0000000E+000	0.0000000E+000	0.0000000E+000	1.0235866E+002	0.0000000E+000	0.0000000E+000	0.0000000E+000	-1.0235866E+002	0.0000000E+000	0.0000000E+000	0.0000000E+000	1.2358654E+001	0.0000000E+000	0.0000000E+000	0.0000000E+000	-1.2358654E+001	-4.5639620E+000	-1.2358654E+001	-3.646087792003528E-005
6.1674211E+004	1.1342789E+000	-8.8733040E-002	1.1377443E+000	4.4730582E+000	3.999494856601814E+000	-2.0389391E-001	-1.6537148E-001	-2.9082462E+001	-1.7689377E-001	1.000000000000000E+000	9	1.0551053E-002	9.2736594E-003	0	-1.037437107641664E-004	8.7625498E-001	-6.8548195E-002	8.7893212E-001	-4.4730582E+000	-1.7689386E+002	2.2612419E+003	2.2681504E+003	-9.4473061E+001	0.0000000E+000	0.0000000E+000	0.0000000E+000	9.4473061E+001	0.0000000E+000	0.0000000E+000	0.0000000E+000	-9.4473061E+001	0.0000000E+000	0.0000000E+000	0.0000000E+000	4.4730582E+000	0.0000000E+000	0.0000000E+000	0.0000000E+000	-4.4730582E+000	-1.2783051E+001	-4.4730582E+000	-3.302236174613547E-005
4.1669758E+004	1.1480830E+000	2.7171886E-002	1.1484045E+000	-1.3557763E+000	4.421477783325827E+000	-2.0390356E-001	-1.5994875E-001	1.4056570E+002	7.8691743E-002	1.000000000000000E+000	9	1.0754890E-002	9.3650715E-003	0	-1.057063127114024E-004	8.7052953E-001	2.0602977E-002	8.7077332E-001	1.3557763E+000	7.8691605E+001	3.3249312E+003	3.3258623E+003	-8.8644226E+001	0.0000000E+000	0.0000000E+000	0.0000000E+000	8.8644226E+001	0.0000000E+000	0.0000000E+000	0.0000000E+000	-8.8644226E+001	0.0000000E+000	0.0000000E+000	0.0000000E+000	-1.3557763E+000	0.0000000E+000	0.0000000E+000	0.0000000E+000	1.3557763E+000	4.2252605E+001	1.3557763E+000	-1.962601947235986E-006
2.8150979E+004	1.1783600E+000	1.5212360E-001	1.1881388E+000	-7.3560696E+000	4.843488123355201E+000	-2.0398553E-001	-1.7221045E-001	3.7164650E+001	6.0924059E-001	1.000000000000000E+000	9	1.0820721E-002	9.1072870E-003	0	-1.279251724610415E-004	8.3472532E-001	1.0776115E-001	8.4165245E-001	7.3560696E+000	6.0924078E+002	4.7192202E+003	4.7583833E+003	-8.2643929E+001	0.0000000E+000	0.0000000E+000	0.0000000E+000	8.2643929E+001	0.0000000E+000	0.0000000E+000	0.0000000E+000	-8.2643929E+001	0.0000000E+000	0.0000000E+000	0.0000000E+000	-7.3560696E+000	0.0000000E+000	0.0000000E+000	0.0000000E+000	7.3560696E+000	7.7460694E+000	7.3560696E+000	-2.221885974963918E-005
1.9020934E+004	1.1692383E+000	2.4788557E-001	1.1952262E+000	-1.1969816E+001	5.265479903406231E+000	-2.0393811E-001	-1.6483106E-001	3.3754921E+001	1.4519088E+000	1.000000000000000E+000	9	1.0727483E-002	8.9752739E-003	0	-1.361898444727477E-004	8.1847018E-001	1.7352059E-001	8.3666170E-001	1.1969816E+001	1.4519089E+003	6.8484316E+003	7.0006470E+003	-7.8030182E+001	0.0000000E+000	0.0000000E+000	0.0000000E+000	7.8030182E+001	0.0000000E+000	0.0000000E+000	0.0000000E+000	-7.8030182E+001	0.0000000E+000	0.0000000E+000	0.0000000E+000	-1.1969816E+001	0.0000000E+000	0.0000000E+000	0.0000000E+000	1.1969816E+001	4.7168469E+000	1.1969816E+001	-8.264672011706171E-006
1.2850729E+004	1.2100670E+000	3.8605517E-001	1.2701578E+000	-1.7694565E+001	5.687475256767357E+000	-2.0398958E-001	-1.5784304E-001	3.2080639E+001	2.9636464E+000	1.000000000000000E+000	9	1.0752803E-002	8.4657222E-003	0	-1.733570993396246E-004	7.5005668E-001	2.3929521E-001	7.8730375E-001	1.7694565E+001	2.9636467E+003	9.2893740E+003	9.7506758E+003	-7.2305435E+001	0.0000000E+000	0.0000000E+000	0.0000000E+000	7.2305435E+001	0.0000000E+000	0.0000000E+000	0.0000000E+000	-7.2305435E+001	0.0000000E+000	0.0000000E+000	0.0000000E+000	-1.7694565E+001	0.0000000E+000	0.0000000E+000	0.0000000E+000	1.7694565E+001	3.1344407E+000	1.7694565E+001	-3.716725486687693E-005
8.6833721E+003	1.2254980E+000	5.7442015E-001	1.3534415E+000	-2.5113609E+001	6.136981038172962E+000	-2.0398913E-001	-1.6432801E-001	3.1908182E+001	5.7475457E+000	1.000000000000000E+000	9	1.0482976E-002	7.7454224E-003	0	-1.977719152533035E-004	6.6901159E-001	3.1358171E-001	7.3885721E-001	2.5113609E+001	5.7475454E+003	1.2262113E+004	1.3542293E+004	-6.4886391E+001	0.0000000E+000	0.0000000E+000	0.0000000E+000	6.4886391E+001	0.0000000E+000	0.0000000E+000	0.0000000E+000	-6.4886391E+001	0.0000000E+000	0.0000000E+000	0.0000000E+000	-2.5113609E+001	0.0000000E+000	0.0000000E+000	0.0000000E+000	2.5113609E+001	2.1334522E+000	2.5113609E+001	-2.441481591367888E-005
5.8650859E+003	1.2508551E+000	8.1410617E-001	1.4924501E+000	-3.3057674E+001	6.750842213994474E+000	-2.0394394E-001	-1.6980667E-001	3.3332256E+001	9.9180698E+000	1.000000000000000E+000	9	9.9520022E-003	6.6682310E-003	0	-2.289956203082887E-004	5.6157446E-001	3.6549494E-001	6.7003912E-001	3.3057674E+001	9.9180684E+003	1.5238882E+004	1.8182178E+004	-5.6942326E+001	0.0000000E+000	0.0000000E+000	0.0000000E+000	5.6942326E+001	0.0000000E+000	0.0000000E+000	0.0000000E+000	-5.6942326E+001	0.0000000E+000	0.0000000E+000	0.0000000E+000	-3.3057674E+001	0.0000000E+000	0.0000000E+000	0.0000000E+000	3.3057674E+001	1.5364766E+000	3.3057674E+001	-3.122370505498516E-005
3.9611973E+003	1.3296927E+000	1.1775365E+000	1.7761405E+000	-4.1527149E+001	7.213961302652024E+000	-2.0397553E-001	-1.5597965E-001	3.4120808E+001	1.4997313E+001	1.000000000000000E+000	9	1.0259981E-002	5.7765595E-003	0	-2.503532532886084E-004	4.2149916E-001	3.7326714E-001	5.6301856E-001	4.1527149E+001	1.4997313E+004	1.6935201E+004	2.2621238E+004	-4.8472851E+001	0.0000000E+000	0.0000000E+000	0.0000000E+000	4.8472851E+001	0.0000000E+000	0.0000000E+000	0.0000000E+000	-4.8472851E+001	0.0000000E+000	0.0000000E+000	0.0000000E+000	-4.1527149E+001	0.0000000E+000	0.0000000E+000	0.0000000E+000	4.1527149E+001	1.1292157E+000	4.1527149E+001	-2.135763298031975E-005
2.6774299E+003	1.3839785E+000	1.7155066E+000	2.2041686E+000	-5.1105274E+001	7.675941457913723E+000	-2.0400612E-001	-1.6281866E-001	3.4650509E+001	2.0989630E+001	1.000000000000000E+000	9	9.8281465E-003	4.4588908E-003	0	-2.689968156932801E-004	2.8486544E-001	3.5310411E-001	4.5368582E-001	5.1105274E+001	2.0989629E+004	1.6933305E+004	2.6968525E+004	-3.8894726E+001	0.0000000E+000	0.0000000E+000	0.0000000E+000	3.8894726E+001	0.0000000E+000	0.0000000E+000	0.0000000E+000	-3.8894726E+001	0.0000000E+000	0.0000000E+000	0.0000000E+000	-5.1105274E+001	0.0000000E+000	0.0000000E+000	0.0000000E+000	5.1105274E+001	8.0674624E-001	5.1105274E+001	-1.864356240467171E-005
1.8082643E+003	1.4556218E+000	2.4323282E+000	2.8346174E+000	-5.9101673E+001	8.137931826524436E+000	-2.0402549E-001	-1.6725378E-001	3.6185623E+001	2.6643517E+001	1.000000000000000E+000	9	9.2334626E-003	3.2573929E-003	0	-2.928141837540340E-004	1.8115892E-001	3.0271453E-001	3.5278130E-001	5.9101673E+001	2.6643516E+004	1.5944758E+004	3.1050156E+004	-3.0898327E+001	0.0000000E+000	0.0000000E+000	0.0000000E+000	3.0898327E+001	0.0000000E+000	0.0000000E+000	0.0000000E+000	-3.0898327E+001	0.0000000E+000	0.0000000E+000	0.0000000E+000	-5.9101673E+001	0.0000000E+000	0.0000000E+000	0.0000000E+000	5.9101673E+001	5.9844798E-001	5.9101673E+001	-2.381736806075384E-005
1.2219551E+003	1.4924200E+000	3.5620990E+000	3.8621066E+000	-6.7267677E+001	8.850427113677142E+000	-2.0376861E-001	-1.8415900E-002	3.6564438E+001	3.1104439E+001	1.000000000000000E+000	10	9.4211278E-003	2.4393755E-003	0	-3.095202317025457E-004	1.0005587E-001	2.3881274E-001	2.5892606E-001	6.7267677E+001	3.1104439E+004	1.3031892E+004	3.3724121E+004	-2.2732323E+001	0.0000000E+000	0.0000000E+000	0.0000000E+000	2.2732323E+001	0.0000000E+000	0.0000000E+000	0.0000000E+000	-2.2732323E+001	0.0000000E+000	0.0000000E+000	0.0000000E+000	-6.7267677E+001	0.0000000E+000	0.0000000E+000	0.0000000E+000	6.7267677E+001	4.1897207E-001	6.7267677E+001	-1.670604794851171E-005
8.2526404E+002	1.6285897E+000	5.1635137E+000	5.4142570E+000	-7.2494545E+001	9.532706826132198E+000	-2.0400119E-001	-1.9413196E-002	3.7349247E+001	3.3969940E+001	1.000000000000000E+000	10	9.9257929E-003	1.8332696E-003	0	-3.107631863967201E-004	5.5556398E-002	1.7614390E-001	1.8469755E-001	7.2494545E+001	3.3969941E+004	1.0714237E+004	3.5619543E+004	-1.7505455E+001	0.0000000E+000	0.0000000E+000	0.0000000E+000	1.7505455E+001	0.0000000E+000	0.0000000E+000	0.0000000E+000	-1.7505455E+001	0.0000000E+000	0.0000000E+000	0.0000000E+000	-7.2494545E+001	0.0000000E+000	0.0000000E+000	0.0000000E+000	7.2494545E+001	3.1540340E-001	7.2494545E+001	-1.242954694174396E-006
5.5803571E+002	1.8555740E+000	7.4616499E+000	7.6889124E+000	-7.6034882E+001	9.996441514784237E+000	-2.0410961E-001	-2.0211045E-002	3.8222870E+001	3.5996742E+001	1.000000000000000E+000	10	9.6890153E-003	1.2601282E-003	0	-3.123217773382458E-004	3.1386901E-002	1.2621328E-001	1.3005741E-001	7.6034882E+001	3.5996742E+004	8.9517227E+003	3.7093109E+004	-1.3965118E+001	0.0000000E+000	0.0000000E+000	0.0000000E+000	1.3965118E+001	0.0000000E+000	0.0000000E+000	0.0000000E+000	-1.3965118E+001	0.0000000E+000	0.0000000E+000	0.0000000E+000	-7.6034882E+001	0.0000000E+000	0.0000000E+000	0.0000000E+000	7.6034882E+001	2.4868146E-001	7.6034882E+001	-1.558590941525668E-006
3.7705118E+002	2.1656761E+000	1.0961708E+001	1.1173594E+001	-7.8824150E+001	1.045568516330968E+001	-2.0375249E-001	-1.8391706E-002	3.8507168E+001	3.7060589E+001	1.000000000000000E+000	10	9.6754031E-003	8.6591690E-004	0	-3.148423850980075E-004	1.7346332E-002	8.7799594E-002	8.9496724E-002	7.8824150E+001	3.7060590E+004	7.3219624E+003	3.7776957E+004	-1.1175850E+001	0.0000000E+000	0.0000000E+000	0.0000000E+000	1.1175850E+001	0.0000000E+000	0.0000000E+000	0.0000000E+000	-1.1175850E+001	0.0000000E+000	0.0000000E+000	0.0000000E+000	-7.8824150E+001	0.0000000E+000	0.0000000E+000	0.0000000E+000	7.8824150E+001	1.9756739E-001	7.8824150E+001	-2.520607759761730E-006
2.5475545E+002	2.3928246E+000	1.5895297E+001	1.6074392E+001	-8.1439163E+001	1.091795622525387E+001	-2.0392059E-001	-1.9450517E-002	3.9303207E+001	3.8432281E+001	1.000000000000000E+000	10	9.5986221E-003	5.9713749E-004	0	-3.178073865464135E-004	9.2606591E-003	6.1517619E-002	6.2210750E-002	8.1439163E+001	3.8432281E+004	5.7854688E+003	3.8865305E+004	-8.5608368E+000	0.0000000E+000	0.0000000E+000	0.0000000E+000	8.5608368E+000	0.0000000E+000	0.0000000E+000	0.0000000E+000	-8.5608368E+000	0.0000000E+000	0.0000000E+000	0.0000000E+000	-8.1439163E+001	0.0000000E+000	0.0000000E+000	0.0000000E+000	8.1439163E+001	1.5053664E-001	8.1439163E+001	-2.965001448406021E-006
1.7203688E+002	2.9153354E+000	2.3249083E+001	2.3431154E+001	-8.2852661E+001	1.137436923358473E+001	-2.0397164E-001	-1.9420696E-002	3.9791725E+001	3.9175724E+001	1.000000000000000E+000	10	9.6388878E-003	4.1137059E-004	0	-3.198177330458356E-004	5.3100805E-003	4.2346589E-002	4.2678222E-002	8.2852661E+001	3.9175723E+004	4.9124678E+003	3.9482523E+004	-7.1473389E+000	0.0000000E+000	0.0000000E+000	0.0000000E+000	7.1473389E+000	0.0000000E+000	0.0000000E+000	0.0000000E+000	-7.1473389E+000	0.0000000E+000	0.0000000E+000	0.0000000E+000	-8.2852661E+001	0.0000000E+000	0.0000000E+000	0.0000000E+000	8.2852661E+001	1.2539572E-001	8.2852661E+001	-2.010346499422080E-006
1.1622738E+002	3.6700819E+000	3.2744919E+001	3.2949951E+001	-8.3604927E+001	1.208066401382530E+001	-2.0387495E-001	-2.6873415E-003	4.1818436E+001	4.1299622E+001	1.000000000000000E+000	11	9.3913749E-003	2.8501940E-004	0	-3.215210213881146E-004	3.3803836E-003	3.0160213E-002	3.0349059E-002	8.3604927E+001	4.1299621E+004	4.6288989E+003	4.1558219E+004	-6.3950729E+000	0.0000000E+000	0.0000000E+000	0.0000000E+000	6.3950729E+000	0.0000000E+000	0.0000000E+000	0.0000000E+000	-6.3950729E+000	0.0000000E+000	0.0000000E+000	0.0000000E+000	-8.3604927E+001	0.0000000E+000	0.0000000E+000	0.0000000E+000	8.3604927E+001	1.1208095E-001	8.3604927E+001	-1.703288342279016E-006
7.8517616E+001	5.7745967E+000	4.8874924E+001	4.9214878E+001	-8.3261711E+001	1.255052427607006E+001	-2.0383528E-001	-2.3165734E-003	4.1473145E+001	4.0902164E+001	1.000000000000000E+000	11	9.6571548E-003	1.9622430E-004	0	-3.218077802032777E-004	2.3841250E-003	2.0178705E-002	2.0319059E-002	8.3261711E+001	4.0902164E+004	4.8326133E+003	4.1186664E+004	-6.7382889E+000	0.0000000E+000	0.0000000E+000	0.0000000E+000	6.7382889E+000	0.0000000E+000	0.0000000E+000	0.0000000E+000	-6.7382889E+000	0.0000000E+000	0.0000000E+000	0.0000000E+000	-8.3261711E+001	0.0000000E+000	0.0000000E+000	0.0000000E+000	8.3261711E+001	1.1815050E-001	8.3261711E+001	-2.867588151631061E-007
5.3047844E+001	6.1601381E+000	7.0277496E+001	7.0546959E+001	-8.4990570E+001	1.302712747207261E+001	-2.0408301E-001	-2.5430636E-003	4.2690975E+001	4.2365475E+001	1.000000000000000E+000	11	9.5216623E-003	1.3496914E-004	0	-3.221961255318763E-004	1.2377528E-003	1.4120813E-002	1.4174956E-002	8.4990570E+001	4.2365473E+004	3.7135247E+003	4.2527914E+004	-5.0094299E+000	0.0000000E+000	0.0000000E+000	0.0000000E+000	5.0094299E+000	0.0000000E+000	0.0000000E+000	0.0000000E+000	-5.0094299E+000	0.0000000E+000	0.0000000E+000	0.0000000E+000	-8.4990570E+001	0.0000000E+000	0.0000000E+000	0.0000000E+000	8.4990570E+001	8.7654494E-002	8.4990570E+001	-3.883453285985993E-007
3.5837154E+001	8.5959702E+000	1.0259501E+002	1.0295449E+002	-8.5210632E+001	1.347905904022628E+001	-2.0389207E-001	-2.4064260E-003	4.3287289E+001	4.2985527E+001	1.000000000000000E+000	11	9.5811319E-003	9.3061819E-005	0	-3.225289824490327E-004	8.1096921E-004	9.6791154E-003	9.7130295E-003	8.5210632E+001	4.2985527E+004	3.6015627E+003	4.3136145E+004	-4.7893677E+000	0.0000000E+000	0.0000000E+000	0.0000000E+000	4.7893677E+000	0.0000000E+000	0.0000000E+000	0.0000000E+000	-4.7893677E+000	0.0000000E+000	0.0000000E+000	0.0000000E+000	-8.5210632E+001	0.0000000E+000	0.0000000E+000	0.0000000E+000	8.5210632E+001	8.3785459E-002	8.5210632E+001	-3.328569171563971E-007
2.4232319E+001	1.3696234E+001	1.4702959E+002	1.4766614E+002	-8.4678093E+001	1.395408407610375E+001	-2.0400248E-001	-2.9589459E-003	4.4670460E+001	4.4286163E+001	1.000000000000000E+000	11	9.4232513E-003	6.3814572E-005	0	-3.227337386497481E-004	6.2811485E-004	6.7428411E-003	6.7720334E-003	8.4678093E+001	4.4286164E+004	4.1253823E+003	4.4477895E+004	-5.3219070E+000	0.0000000E+000	0.0000000E+000	0.0000000E+000	5.3219070E+000	0.0000000E+000	0.0000000E+000	0.0000000E+000	-5.3219070E+000	0.0000000E+000	0.0000000E+000	0.0000000E+000	-8.4678093E+001	0.0000000E+000	0.0000000E+000	0.0000000E+000	8.4678093E+001	9.3152910E-002	8.4678093E+001	-2.047562007153952E-007
1.6366972E+001	1.9869207E+001	2.1597386E+002	2.1688589E+002	-8.4743690E+001	1.461704480095068E+001	-2.0401371E-001	-5.4661150E-004	4.5024677E+001	4.4646805E+001	1.000000000000000E+000	12	9.5226811E-003	4.3906410E-005	0	-3.227254781523208E-004	4.2239387E-004	4.5913304E-003	4.6107192E-003	8.4743690E+001	4.4646805E+004	4.1074233E+003	4.4835344E+004	-5.2563095E+000	0.0000000E+000	0.0000000E+000	0.0000000E+000	5.2563095E+000	0.0000000E+000	0.0000000E+000	0.0000000E+000	-5.2563095E+000	0.0000000E+000	0.0000000E+000	0.0000000E+000	-8.4743690E+001	0.0000000E+000	0.0000000E+000	0.0000000E+000	8.4743690E+001	9.1998205E-002	8.4743690E+001	8.260497427249082E-009
1.1050212E+001	2.5573032E+001	3.0970752E+002	3.1076154E+002	-8.5279709E+001	1.504071527441556E+001	-2.0383251E-001	-6.7239089E-005	4.6504803E+001	4.6189873E+001	1.000000000000000E+000	12	9.6013881E-003	3.0896321E-005	0	-3.229494467329164E-004	2.6480583E-004	3.2069874E-003	3.2179016E-003	8.5279709E+001	4.6189871E+004	3.8139678E+003	4.6347066E+004	-4.7202911E+000	0.0000000E+000	0.0000000E+000	0.0000000E+000	4.7202911E+000	0.0000000E+000	0.0000000E+000	0.0000000E+000	-4.7202911E+000	0.0000000E+000	0.0000000E+000	0.0000000E+000	-8.5279709E+001	0.0000000E+000	0.0000000E+000	0.0000000E+000	8.5279709E+001	8.2571559E-002	8.5279709E+001	-2.239685805955987E-007
