EC-Lab ASCII FILE
Nb header lines : 64                          

Potentio Electrochemical Impedance Spectroscopy

Run on channel : 5 (SN 30436)
User : 
CE vs. WE compliance from -10 V to 10 V
Electrode connection : standard
Potential control : Ewe
Ewe ctrl range : min = -2.50 V, max = 2.50 V
Safety Limits :
	Do not start on E overload
Acquisition started on : 01/20/2023 12:55:05.618
Loaded Setting File :  NONE
Saved on :
	File : 2023_01_20_CoNiFeNx_400ºC_24h_electrode2_19012023_C05.mpr
	Directory : C:\Users\grupogalan\Documents\EC-Lab\Data\Lole Jurado\
	Host : 169.254.104.159
Device : VSP (SN 1176)
Address : USB
EC-Lab for windows v11.46 (software)
Internet server v11.40 (firmware)
Command interpretor v11.40 (firmware)
Electrode material : 
Initial state : 
Electrolyte : 
Comments : 
Electrode surface area : 0.001 cm²
Characteristic mass : 0.001 g
Equivalent Weight : 0.000 g/eq.
Density : 0.000 g/cm3
Volume (V) : 0.001 cm³
Record Ece
Cycle Definition : Charge/Discharge alternance
Mode                Single sine         
E (V)               0.0000              
vs.                 Eoc                 
tE (h:m:s)          0:00:0.0000         
record              0                   
dI                  0.000               
unit dI             mA                  
dt (s)              0.000               
fi                  200.000             
unit fi             kHz                 
ff                  100.000             
unit ff             mHz                 
Nd                  6                   
Points              per decade          
spacing             Logarithmic         
Va (mV)             10.0                
pw                  0.10                
Na                  2                   
corr                0                   
E range min (V)     -2.500              
E range max (V)     2.500               
I Range             Auto                
Bandwidth           5                   
nc cycles           0                   
goto Ns'            0                   
nr cycles           0                   
inc. cycle          0                   

freq/Hz	Re(Z)/Ohm	-Im(Z)/Ohm	|Z|/Ohm	Phase(Z)/deg	time/s	<Ewe>/V	<I>/mA	Cs/µF	Cp/µF	cycle number	I Range	|Ewe|/V	|I|/A	Ns	(Q-Qo)/mA.h	<Ece>/V	|Ece|/V	Phase(Zce)/deg	|Zce|/Ohm	Re(Zce)/Ohm	-Im(Zce)/Ohm	Phase(Zwe-ce)/deg	|Zwe-ce|/Ohm	Re(Zwe-ce)/Ohm	-Im(Zwe-ce)/Ohm	Re(Y)/Ohm-1	Im(Y)/Ohm-1	|Y|/Ohm-1	Phase(Y)/deg	dq/mA.h	
1.9999814E+005	1.5232922E+000	-1.4710225E+000	2.1176229E+000	4.3999928E+001	2.057553857710445E+000	-8.1475712E-002	-8.7888077E-002	-5.4097211E-001	-2.6104552E-001	1.000000000000000E+000	9	7.3178364E-003	3.4556843E-003	0	-2.714624541765079E-005	-8.8854015E-002	2.0677752E-003	-4.7710369E+001	5.9836924E-001	4.0262988E-001	4.4264537E-001	2.8100704E+001	2.1832855E+000	1.9259220E+000	-1.0283771E+000	3.3969253E-001	-3.2803646E-001	4.7222763E-001	-4.3999928E+001	-2.714624541765079E-005
1.3512284E+005	9.4765168E-001	-7.5644958E-001	1.2125427E+000	3.8598122E+001	2.434557795611909E+000	-8.0981903E-002	-4.8456702E-002	-1.5570816E+000	-6.0600650E-001	1.000000000000000E+000	9	9.5624533E-003	7.8862822E-003	0	-5.454246955245940E-005	-8.4728070E-002	7.0505724E-003	6.6856914E+000	8.9402997E-001	8.8795036E-001	-1.0408539E-001	2.5117304E+001	2.0273025E+000	1.8356020E+000	-8.6053497E-001	6.4454716E-001	-5.1450062E-001	8.2471323E-001	-3.8598122E+001	-2.739622413480861E-005
9.1291195E+004	8.0594814E-001	-3.9795104E-001	8.9884228E-001	2.6278664E+001	2.933523152634734E+000	-8.1441686E-002	-1.6995561E-001	-4.3808823E+000	-8.5872459E-001	1.000000000000000E+000	9	9.5982384E-003	1.0678446E-002	0	-8.384707602796455E-005	-9.9245280E-002	1.0843302E-002	6.8829608E+000	1.0154382E+000	1.0081199E+000	-1.2169174E-001	1.5984447E+001	1.8870271E+000	1.8140681E+000	-5.1964277E-001	9.9756253E-001	-4.9256399E-001	1.1125423E+000	-2.6278664E+001	-2.930460647550515E-005
6.1674211E+004	7.3414296E-001	-1.5039416E-001	7.4938929E-001	1.1577250E+001	3.676516547944630E+000	-8.1401691E-002	-1.2493385E-001	-1.7158747E+001	-6.9108671E-001	1.000000000000000E+000	9	8.9371242E-003	1.1925876E-002	0	-1.231480862752845E-004	-9.2540622E-002	1.3136497E-002	3.3379152E+000	1.1015121E+000	1.0996433E+000	-6.4135164E-002	6.6725368E+000	1.8462921E+000	1.8337862E+000	-2.1452932E-001	1.3072712E+000	-2.6780337E-001	1.3344200E+000	-1.1577250E+001	-3.930101024731993E-005
4.1669758E+004	7.1467835E-001	1.2749456E-002	7.1479207E-001	-1.0220157E+000	4.175536144961370E+000	-8.1623390E-002	-1.9701332E-001	2.9957635E+002	9.5308438E-002	1.000000000000000E+000	9	9.7876005E-003	1.3692934E-002	0	-1.336062760221669E-004	-7.8348137E-002	1.4314958E-002	5.6177025E+000	1.0454266E+000	1.0404056E+000	-1.0233722E-001	2.9221106E+000	1.7573690E+000	1.7550840E+000	-8.9587763E-002	1.3987857E+000	2.4953540E-002	1.3990083E+000	1.0220157E+000	-1.045818974688238E-005
2.8150979E+004	7.5452918E-001	5.9300039E-002	7.5685585E-001	-4.4937592E+000	4.552557309536496E+000	-8.0907650E-002	-7.7899568E-002	9.5339233E+001	5.8526868E-001	1.000000000000000E+000	9	1.0145373E-002	1.3404630E-002	0	-1.610415113600902E-004	-8.3467364E-002	1.4565432E-002	-2.1233027E+000	1.0865971E+000	1.0858511E+000	4.0258575E-002	-3.0964980E+000	1.8430711E+000	1.8403802E+000	9.9558614E-002	1.3171939E+000	1.0352104E-001	1.3212556E+000	4.4937592E+000	-2.743523533792338E-005
1.9020934E+004	7.7863908E-001	2.7375841E-001	8.2536203E-001	-1.9370947E+001	5.173529552383116E+000	-8.1408627E-002	-3.0013844E-001	3.0564749E+001	3.3625350E+000	1.000000000000000E+000	9	8.9357086E-003	1.0826411E-002	0	-3.692062181432007E-004	-8.5606746E-002	1.1497395E-002	1.3837366E+000	1.0619767E+000	1.0616670E+000	-2.5645049E-002	-7.6784201E+000	1.8569562E+000	1.8403060E+000	2.4811336E-001	1.1430026E+000	4.0186343E-001	1.2115896E+000	1.9370947E+001	-2.081647067831105E-004
1.2850729E+004	8.2857621E-001	2.9428923E-001	8.7928647E-001	-1.9553745E+001	5.672555949393427E+000	-8.0097482E-002	-8.3229184E-002	4.2084099E+001	4.7141781E+000	1.000000000000000E+000	9	9.7568762E-003	1.1096356E-002	0	-3.883848322476778E-004	-8.4021308E-002	1.2527032E-002	-1.9782704E-001	1.1289320E+000	1.1289253E+000	3.8978932E-003	-8.6613092E+000	1.9800828E+000	1.9575015E+000	2.9818714E-001	1.0716963E+000	3.8063926E-001	1.1372858E+000	1.9553745E+001	-1.917861410447703E-005
8.6846787E+003	8.7264752E-001	4.0148303E-001	9.6057397E-001	-2.4705961E+001	6.049524713977007E+000	-8.1297033E-002	-1.6376887E-001	4.5645626E+001	7.9739213E+000	1.000000000000000E+000	9	9.6180392E-003	1.0012805E-002	0	-3.872003365983772E-004	-8.6733736E-002	1.0948715E-002	-1.2001972E+000	1.0934713E+000	1.0932314E+000	2.2903698E-002	-1.2181863E+001	2.0111649E+000	1.9658790E+000	4.2438674E-001	9.4575191E-001	4.3511650E-001	1.0410442E+000	2.4705961E+001	1.184495649300514E-006
5.8640142E+003	8.5724384E-001	7.2841853E-001	1.1249269E+000	-4.0355270E+001	6.426543131907238E+000	-8.1051789E-002	-1.8926132E-001	3.7260109E+001	1.5622750E+001	1.000000000000000E+000	9	1.0540792E-002	9.3702013E-003	0	-3.968267233234106E-004	-9.4030544E-002	1.0308062E-002	-5.7546682E+000	1.1000897E+000	1.0945456E+000	1.1030503E-001	-2.3254179E+001	2.1243680E+000	1.9517894E+000	8.3872354E-001	6.7741650E-001	5.7561535E-001	8.8894665E-001	4.0355270E+001	-9.626386725033337E-006
3.9600762E+003	9.4469601E-001	9.1536641E-001	1.3154262E+000	-4.4096630E+001	6.727812399563845E+000	-8.2591057E-002	-1.9086398E-001	4.3905773E+001	2.1260750E+001	1.000000000000000E+000	9	9.5748994E-003	7.2789332E-003	0	-4.088611916274660E-004	-1.0337123E-001	8.0800513E-003	-8.6935711E+000	1.1100599E+000	1.0973063E+000	1.6778545E-001	-2.7943096E+001	2.3114910E+000	2.0420022E+000	1.0831518E+000	5.4595780E-001	5.2900767E-001	7.6020986E-001	4.4096630E+001	-1.203446830405543E-005
2.6787200E+003	8.9461112E-001	1.4043074E+000	1.6650550E+000	-5.7500912E+001	7.362142082973151E+000	-8.0549277E-002	-1.8456544E-001	4.2308792E+001	3.0095238E+001	1.000000000000000E+000	9	1.0497462E-002	6.3045737E-003	0	-4.494585320117573E-004	-8.4556155E-002	7.3073478E-003	-8.5425005E+000	1.1590550E+000	1.1461964E+000	1.7216951E-001	-3.7685261E+001	2.5787933E+000	2.0408075E+000	1.5764768E+000	3.2268375E-001	5.0652981E-001	6.0058075E-001	5.7500912E+001	-4.059734038429130E-005
1.8082643E+003	1.0773128E+000	2.0557711E+000	2.3209476E+000	-6.2343521E+001	7.808090157486731E+000	-8.1299193E-002	-1.6153286E-001	4.2813770E+001	3.3589405E+001	1.000000000000000E+000	9	1.0677538E-002	4.6005077E-003	0	-4.662568921843906E-004	-1.0447912E-001	5.1007299E-003	-1.1259681E+001	1.1087320E+000	1.0873915E+000	2.1648660E-001	-4.6388596E+001	3.1383276E+000	2.1647043E+000	2.2722578E+000	1.9999132E-001	3.8163137E-001	4.3085849E-001	6.2343521E+001	-1.679836017263325E-005
1.2219551E+003	1.1618752E+000	2.9397416E+000	3.1610179E+000	-6.8434563E+001	8.251600658625733E+000	-8.1520602E-002	-2.2075433E-001	4.4305305E+001	3.8319527E+001	1.000000000000000E+000	9	1.0248160E-002	3.2420442E-003	0	-4.921092564972609E-004	-8.2340367E-002	4.7067292E-003	-1.9088451E+001	1.4517782E+000	1.3719519E+000	4.7477126E-001	-5.3421783E+001	4.2519617E+000	2.5338273E+000	3.4145129E+000	1.1628015E-001	2.9420853E-001	3.1635380E-001	6.8434563E+001	-2.585236431287038E-005
8.2526404E+002	9.5267797E-001	4.2607803E+000	4.3659873E+000	-7.7396408E+001	1.021884571205010E+001	-8.1183530E-002	-3.8106252E-002	4.5262451E+001	4.3107357E+001	1.000000000000000E+000	10	1.1089536E-002	2.5399837E-003	0	-5.371059254939125E-004	-8.7650612E-002	3.0359949E-003	-1.4362287E+001	1.1952813E+000	1.1579248E+000	2.9649225E-001	-6.5149803E+001	5.0222878E+000	2.1106029E+000	4.5572724E+000	4.9978256E-002	2.2352403E-001	2.2904328E-001	7.7396408E+001	-4.499666899665153E-005
5.5803571E+002	1.3035208E+000	5.9127288E+000	6.0547113E+000	-7.7567436E+001	1.066561685328452E+001	-8.0232508E-002	-3.4732275E-002	4.8235878E+001	4.6000149E+001	1.000000000000000E+000	10	1.0755170E-002	1.7763308E-003	0	-5.425972665287005E-004	-9.0019211E-002	2.7322220E-003	2.5217724E+000	1.5381268E+000	1.5366373E+000	-6.7676075E-002	-6.4084511E+001	6.4985490E+000	2.8401580E+000	5.8450527E+000	3.5557497E-002	1.6128764E-001	1.6516064E-001	7.7567436E+001	-5.491341034788021E-006
3.7705118E+002	1.6975615E+000	8.5120735E+000	8.6796951E+000	-7.8721481E+001	1.110975610103924E+001	-8.1635781E-002	-3.3289485E-002	4.9588898E+001	4.7692078E+001	1.000000000000000E+000	10	1.0622590E-002	1.2238437E-003	0	-5.456136710854157E-004	-8.4651664E-002	1.8561177E-003	-3.7942017E+001	1.5166298E+000	1.1960649E+000	9.3252063E-001	-7.2966026E+001	9.8779268E+000	2.8936265E+000	9.4445944E+000	2.2532875E-002	1.1298646E-001	1.1521142E-001	7.8721481E+001	-3.016404556715167E-006
2.5475545E+002	1.6340759E+000	1.2772990E+001	1.2877091E+001	-8.2709633E+001	1.155605390889104E+001	-8.0256872E-002	-1.2773340E-002	4.8910725E+001	4.8123108E+001	1.000000000000000E+000	10	1.0856902E-002	8.4311760E-004	0	-5.465736778265677E-004	-8.9904606E-002	2.1573263E-003	-3.8613335E+001	2.5587490E+000	1.9993432E+000	1.5968165E+000	-7.5810120E+001	1.4822046E+001	3.6334190E+000	1.4369806E+001	9.8545430E-003	7.7029489E-002	7.7657290E-002	8.2709633E+001	-9.600067411520610E-007
1.7203688E+002	2.1436443E+000	1.7765711E+001	1.7894571E+001	-8.3119843E+001	1.199651499642641E+001	-8.1512950E-002	-2.2742487E-002	5.2073410E+001	5.1326138E+001	1.000000000000000E+000	10	1.0438064E-002	5.8330898E-004	0	-5.492931550500087E-004	-6.9867030E-002	1.4996810E-003	-7.6231438E+001	2.5709891E+000	6.1189675E-001	2.4971118E+000	-8.2255852E+001	2.0449327E+001	2.7555411E+000	2.0262823E+001	6.6943779E-003	5.5480454E-002	5.5882871E-002	8.3119843E+001	-2.719477223440980E-006
1.1622738E+002	3.7306952E+000	2.5814735E+001	2.6082918E+001	-8.1776657E+001	1.288872983887268E+001	-8.0710277E-002	-2.2265315E-003	5.3044945E+001	5.1959747E+001	1.000000000000000E+000	11	9.8617030E-003	3.7809048E-004	0	-5.508365147842463E-004	-1.1248269E-001	1.3979049E-003	-5.3050941E+001	3.6972761E+000	2.2224500E+000	2.9547532E+000	-7.8309036E+001	2.9378963E+001	5.9531450E+000	2.8769489E+001	5.4837489E-003	3.7945066E-002	3.8339268E-002	8.1776657E+001	-1.543359734237633E-006
7.8517616E+001	6.3428240E+000	3.5946877E+001	3.6502182E+001	-7.9993164E+001	1.334265876710197E+001	-8.0695242E-002	-9.9856583E-003	5.6388672E+001	5.4686047E+001	1.000000000000000E+000	11	9.5933229E-003	2.6281504E-004	0	-5.518331313915292E-004	-9.3935043E-002	1.6822055E-003	-3.8712410E+001	6.4007201E+000	4.9944496E+000	4.0030851E+000	-7.4156754E+001	4.1527500E+001	1.1337274E+001	3.9949963E+001	4.7604190E-003	2.6978854E-002	2.7395623E-002	7.9993164E+001	-9.966166072828807E-007
5.3047844E+001	9.6647902E+000	5.3855331E+001	5.4715672E+001	-7.9826088E+001	1.380322369557689E+001	-8.1824310E-002	-6.2656645E-003	5.5708786E+001	5.3970646E+001	1.000000000000000E+000	11	9.7399661E-003	1.7801054E-004	0	-5.524534265722128E-004	-8.7765224E-002	4.9042364E-004	-6.7496780E+001	2.7550259E+000	1.0544456E+000	2.5452528E+000	-7.9238968E+001	5.7410175E+001	1.0719235E+001	5.6400585E+001	3.2282635E-003	1.7988926E-002	1.8276300E-002	7.9826088E+001	-6.202951806836112E-007
3.5837154E+001	1.0833199E+001	7.3045883E+001	7.3844833E+001	-8.1564140E+001	1.423921019633417E+001	-8.0714643E-002	-3.2776565E-004	6.0798222E+001	5.9489750E+001	1.000000000000000E+000	11	9.5937578E-003	1.2991780E-004	0	-5.522924563242268E-004	-7.7660479E-002	9.5272961E-004	4.7539928E+001	7.3333263E+000	4.9505544E+000	-5.4101467E+000	-7.6864304E+001	6.9453003E+001	1.5783752E+001	6.7635735E+001	1.9866272E-003	1.3395395E-002	1.3541909E-002	8.1564140E+001	1.609702479860378E-007
2.4232319E+001	1.4665022E+001	9.8157768E+001	9.9247215E+001	-8.1502716E+001	1.469819851146895E+001	-8.0478162E-002	-1.2665259E-003	6.6911453E+001	6.5450531E+001	1.000000000000000E+000	11	9.0758633E-003	9.1447029E-005	0	-5.526867701618369E-004	-9.3801327E-002	4.4925691E-004	8.1617783E+001	4.9127555E+000	7.1616179E-001	-4.8602757E+000	-8.0638329E+001	9.4556877E+001	1.5381184E+001	9.3297493E+001	1.4888330E-003	9.9652456E-003	1.0075849E-002	8.1502716E+001	-3.943138376101118E-007
1.6366972E+001	1.6453749E+001	1.5287566E+002	1.5375854E+002	-8.3857002E+001	1.533513414170011E+001	-8.0991790E-002	-6.7901495E-004	6.3608253E+001	6.2879868E+001	1.000000000000000E+000	12	9.7585870E-003	6.3466956E-005	0	-5.525276192665915E-004	-1.0298920E-001	1.2806588E-003	-7.9163956E+001	2.0178354E+001	3.7935152E+000	1.9818558E+001	-8.3312973E+001	1.7387709E+002	2.0247265E+001	1.7269421E+002	6.9596292E-004	6.4663589E-003	6.5037035E-003	8.3857002E+001	1.591508952454189E-007
1.1050212E+001	2.6604221E+001	2.0802174E+002	2.0971606E+002	-8.2711914E+001	1.574082429433474E+001	-8.0025844E-002	-4.7854334E-004	6.9237411E+001	6.8123177E+001	1.000000000000000E+000	12	9.7036725E-003	4.6270525E-005	0	-5.525254363075299E-004	-7.9857163E-002	9.4651832E-004	-5.7745522E+001	2.0456182E+001	1.0917068E+001	1.7299509E+001	-8.0545654E+001	2.2842398E+002	3.7521290E+001	2.2532126E+002	6.0490530E-004	4.7298279E-003	4.7683520E-003	8.2711914E+001	2.182959061560949E-009
7.4689322E+000	8.0470650E+001	3.0094855E+002	3.1152136E+002	-7.5029892E+001	1.604866806895734E+001	-8.0033675E-002	-1.2353635E-003	7.0805885E+001	6.6081245E+001	1.000000000000000E+000	12	1.0223635E-002	3.2818407E-005	0	-5.527746315724265E-004	-8.4823579E-002	1.2399963E-003	-5.0446999E+001	3.7783562E+001	2.4060261E+001	2.9132481E+001	-7.2427910E+001	3.4623718E+002	1.0453091E+002	3.3008102E+002	8.2920503E-004	3.1011060E-003	3.2100528E-003	7.5029892E+001	-2.491952648966088E-007
5.0468345E+000	1.0979976E+002	4.5422131E+002	4.6730396E+002	-7.6410484E+001	1.649105827661697E+001	-8.0188483E-002	4.1944141E-004	6.9427826E+001	6.5594841E+001	1.000000000000000E+000	12	1.0358982E-002	2.2167545E-005	0	-5.527003862352171E-004	-1.0065880E-001	5.4978899E-004	-8.9683952E+001	2.4801527E+001	1.3680770E-001	2.4801149E+001	-7.7074341E+001	4.9147592E+002	1.0993657E+002	4.7902246E+002	5.0280819E-004	2.0800252E-003	2.1399348E-003	7.6410484E+001	7.424533720939638E-008
3.4085953E+000	1.1677200E+002	5.5219104E+002	5.6440289E+002	-7.8059563E+001	1.713243921371759E+001	-8.0855645E-002	-4.3675714E-004	8.4558128E+001	8.0938583E+001	1.000000000000000E+000	12	9.0033356E-003	1.5951966E-005	0	-5.526665572517652E-004	-8.6905651E-002	6.7016145E-004	1.1507964E+001	4.2011215E+001	4.1166664E+001	-8.3814116E+000	-7.3805115E+001	5.6628046E+002	1.5793866E+002	5.4380963E+002	3.6657276E-004	1.7334482E-003	1.7717839E-003	7.8059563E+001	3.382898345195666E-008
2.3032136E+000	1.8382985E+002	7.8693500E+002	8.0812134E+002	-7.6851364E+001	1.854640957419178E+001	-8.1358500E-002	-7.9714908E-004	8.7810623E+001	8.3266754E+001	1.000000000000000E+000	13	9.8372409E-003	1.2172975E-005	0	-5.528744884906482E-004	-9.5119342E-002	5.7750929E-004	-1.0207655E+002	4.7441917E+001	-9.9257193E+000	4.6391979E+001	-7.8212318E+001	8.5127930E+002	1.7390413E+002	8.3332697E+002	2.8148989E-004	1.2049963E-003	1.2374379E-003	7.6851364E+001	-2.079312388829965E-007
1.5562749E+000	3.3159573E+002	1.2425623E+003	1.2860469E+003	-7.5057999E+001	2.058409105768078E+001	-8.0364406E-002	-4.1273798E-004	8.2303001E+001	7.6831337E+001	1.000000000000000E+000	12	1.0537391E-002	8.1936287E-006	0	-5.531344432605482E-004	-7.0459180E-002	1.3221118E-003	-6.5117989E+001	1.6135852E+002	6.7891754E+001	1.4638060E+002	-7.3953712E+001	1.4452517E+003	3.9948749E+002	1.3889429E+003	2.0049125E-004	7.5128471E-004	7.7757664E-004	7.5057999E+001	-2.599547699000350E-007
1.0523305E+000	3.0867035E+002	1.5488422E+003	1.5793003E+003	-7.8729134E+001	2.359696848079329E+001	-8.0852762E-002	-2.7159977E-004	9.7647423E+001	9.3917320E+001	1.000000000000000E+000	13	1.0022548E-002	6.3461953E-006	0	-5.536183658920620E-004	-9.4584495E-002	8.1467006E-004	-6.2046963E+001	1.2837141E+002	6.0173805E+001	1.1339459E+002	-7.7488991E+001	1.7026677E+003	3.6884415E+002	1.6622368E+003	1.2375574E-004	6.2098016E-004	6.3319178E-004	7.8729134E+001	-4.839226315137392E-007
7.1035653E-001	6.5560461E+002	2.2643784E+003	2.3573772E+003	-7.3852707E+001	4.138382988564263E+001	-8.0982871E-002	-5.6223350E-004	9.8945206E+001	9.1292397E+001	1.000000000000000E+000	13	1.0091573E-002	4.2808479E-006	0	-5.554411322511352E-004	-7.1929999E-002	5.5939495E-004	-6.7118576E+001	1.3067387E+002	5.0809307E+001	1.2039134E+002	-7.3499718E+001	2.4871968E+003	7.0641394E+002	2.3847698E+003	1.1797332E-004	4.0746553E-004	4.2420026E-004	7.3852707E+001	-1.822766359073271E-006
4.8035541E-001	8.2405310E+002	3.3411694E+003	3.4412900E+003	-7.6145302E+001	6.967073250919930E+001	-8.0879517E-002	-5.7698606E-004	9.9165123E+001	9.3478859E+001	1.000000000000000E+000	13	1.0188020E-002	2.9605235E-006	0	-5.597643524411089E-004	-8.8930421E-002	8.8414730E-004	-6.7222336E+001	2.9864560E+002	1.1562247E+002	2.7535547E+002	-7.5434998E+001	3.7366084E+003	9.3967560E+002	3.6165249E+003	6.9584501E-005	2.8213437E-004	2.9058871E-004	7.6145302E+001	-4.323220189973655E-006
3.2443938E-001	1.1980475E+003	4.2272598E+003	4.3937505E+003	-7.4176743E+001	1.077616621850975E+002	-8.1098005E-002	-3.6550881E-004	1.1604532E+002	1.0741743E+002	1.000000000000000E+000	13	1.0113019E-002	2.3016826E-006	0	-5.632008252846555E-004	-1.2915839E-001	7.2454475E-004	-6.4589890E+001	3.1478918E+002	1.3507433E+002	2.8433633E+002	-7.3538231E+001	4.7044355E+003	1.3331218E+003	4.5115962E+003	6.2058782E-005	2.1897178E-004	2.2759599E-004	7.4176743E+001	-3.436472843546651E-006
2.1883753E-001	2.2263301E+003	6.0033472E+003	6.4028682E+003	-6.9652794E+001	1.677001071386330E+002	-8.1080221E-002	-2.9049400E-004	1.2114482E+002	1.0649830E+002	1.000000000000000E+000	13	1.0077287E-002	1.5738707E-006	0	-5.696418697954230E-004	-8.1347086E-002	6.2993035E-004	-5.9919125E+001	4.0024277E+002	2.0061044E+002	3.4633759E+002	-6.9082428E+001	6.7976860E+003	2.4269404E+003	6.3496846E+003	5.4305077E-005	1.4643480E-004	1.5618000E-004	6.9652794E+001	-6.441044510767510E-006
