EC-Lab ASCII FILE
Nb header lines : 64                          

Potentio Electrochemical Impedance Spectroscopy

Run on channel : 5 (SN 30436)
User : 
CE vs. WE compliance from -10 V to 10 V
Electrode connection : standard
Potential control : Ewe
Ewe ctrl range : min = -2.50 V, max = 2.50 V
Safety Limits :
	Do not start on E overload
Acquisition started on : 01/20/2023 10:11:15.490
Loaded Setting File :  C:\Users\grupogalan\Documents\EC-Lab\Data\ilario\20230118-ec\20230118_DJF1-IGB3-KOH_1M.mps
Saved on :
	File : 2023_01_20_CoNiFeNx_400ºC_24h_electrode3_19012023_01_PEIS_C05.mpr
	Directory : C:\Users\grupogalan\Documents\EC-Lab\Data\Lole Jurado\
	Host : 169.254.104.159
Device : VSP (SN 1176)
Address : USB
EC-Lab for windows v11.46 (software)
Internet server v11.40 (firmware)
Command interpretor v11.40 (firmware)
Electrode material : 
Initial state : 
Electrolyte : 
Comments : 
Electrode surface area : 0.001 cm²
Characteristic mass : 0.001 g
Equivalent Weight : 0.000 g/eq.
Density : 0.000 g/cm3
Volume (V) : 0.001 cm³
Record Ece
Cycle Definition : Charge/Discharge alternance
Mode                Single sine         
E (V)               0.0000              
vs.                 Eoc                 
tE (h:m:s)          0:00:0.0000         
record              0                   
dI                  0.000               
unit dI             mA                  
dt (s)              0.000               
fi                  200.000             
unit fi             kHz                 
ff                  100.000             
unit ff             mHz                 
Nd                  6                   
Points              per decade          
spacing             Logarithmic         
Va (mV)             10.0                
pw                  0.10                
Na                  2                   
corr                0                   
E range min (V)     -2.500              
E range max (V)     2.500               
I Range             Auto                
Bandwidth           5                   
nc cycles           0                   
goto Ns'            0                   
nr cycles           0                   
inc. cycle          0                   

freq/Hz	Re(Z)/Ohm	-Im(Z)/Ohm	|Z|/Ohm	Phase(Z)/deg	time/s	<Ewe>/V	<I>/mA	Cs/µF	Cp/µF	cycle number	I Range	|Ewe|/V	|I|/A	Ns	(Q-Qo)/mA.h	<Ece>/V	|Ece|/V	Phase(Zce)/deg	|Zce|/Ohm	Re(Zce)/Ohm	-Im(Zce)/Ohm	Phase(Zwe-ce)/deg	|Zwe-ce|/Ohm	Re(Zwe-ce)/Ohm	-Im(Zwe-ce)/Ohm	Re(Y)/Ohm-1	Im(Y)/Ohm-1	|Y|/Ohm-1	Phase(Y)/deg	dq/mA.h	
1.9999814E+005	1.1399720E+000	-1.2060928E+000	1.6595770E+000	4.6614380E+001	2.510516172536882E+000	-6.2174410E-001	-1.2813929E-001	-6.5980172E-001	-3.4848180E-001	1.000000000000000E+000	9	5.7129348E-003	3.4424041E-003	0	-2.365225429690650E-005	3.0654904E-001	2.3268228E-003	-1.4502348E+001	6.7592961E-001	6.5439272E-001	1.6926607E-001	3.0020348E+001	2.0723789E+000	1.7943647E+000	-1.0368267E+000	4.1390377E-001	-4.3791106E-001	6.0256320E-001	-4.6614380E+001	-2.365225429690650E-005
1.3512284E+005	8.6014801E-001	-5.3693187E-001	1.0139775E+000	3.1973728E+001	2.765561544656521E+000	-6.2155217E-001	-1.2962990E-001	-2.1936743E+000	-6.1511153E-001	1.000000000000000E+000	9	9.6835922E-003	9.5501048E-003	0	-2.675261358502838E-005	3.0288154E-001	9.3611842E-003	8.0231256E+000	9.8021793E-001	9.7062337E-001	-1.3681175E-001	2.0204159E+001	1.9508086E+000	1.8307714E+000	-6.7374361E-001	8.3659744E-001	-5.2223086E-001	9.8621517E-001	-3.1973728E+001	-3.100359288121885E-006
9.1291195E+004	8.0252630E-001	-2.3124990E-001	8.3517963E-001	1.6074465E+001	3.264546848338796E+000	-6.2167650E-001	-1.4409047E-001	-7.5389290E+000	-5.7798028E-001	1.000000000000000E+000	9	1.0061694E-002	1.2047342E-002	0	-1.146623816298217E-004	3.0597597E-001	1.2323840E-002	1.1616255E+001	1.0229509E+000	1.0019990E+000	-2.0597711E-001	1.3619987E+001	1.8567389E+000	1.8045254E+000	-4.3722701E-001	1.1505340E+000	-3.3152917E-001	1.1973472E+000	-1.6074465E+001	-8.790976804479336E-005
6.1674211E+004	8.1604826E-001	-1.1116429E-001	8.2358503E-001	7.7572370E+000	3.763516498700483E+000	-6.2180787E-001	-1.4606576E-001	-2.3214067E+001	-4.2292652E-001	1.000000000000000E+000	9	1.0447791E-002	1.2685746E-002	0	-9.040887738862592E-005	2.9951966E-001	1.3367944E-002	7.3055787E+000	1.0537767E+000	1.0452223E+000	-1.3399950E-001	7.5037179E+000	1.8773475E+000	1.8612705E+000	-2.4516378E-001	1.2030923E+000	-1.6388847E-001	1.2142037E+000	-7.7572370E+000	2.425350424119582E-005
4.1669758E+004	8.0179566E-001	-2.0519732E-002	8.0205822E-001	1.4660062E+000	4.140522489993600E+000	-6.2176156E-001	-1.4953186E-001	-1.8613477E+002	-1.2183134E-001	1.000000000000000E+000	9	9.4516547E-003	1.1784250E-002	0	-1.017802938737958E-004	3.2035950E-001	1.2396697E-002	5.5392637E+000	1.0519717E+000	1.0470593E+000	-1.0154457E-001	3.7772753E+000	1.8528801E+000	1.8488550E+000	-1.2206431E-001	1.2463843E+000	-3.1897739E-002	1.2467923E+000	-1.4660062E+000	-1.137141648516990E-005
2.8150979E+004	8.1026500E-001	5.4480448E-002	8.1209451E-001	-3.8466532E+000	4.517547281197039E+000	-6.2173581E-001	-1.5214068E-001	1.0377338E+002	4.6704009E-001	1.000000000000000E+000	9	1.0687419E-002	1.3160314E-002	0	-1.172288546872636E-004	3.0490631E-001	1.3528363E-002	3.2756367E+000	1.0279665E+000	1.0262870E+000	-5.8737498E-002	1.3280895E-001	1.8365568E+000	1.8365519E+000	-4.2570494E-003	1.2286097E+000	8.2609035E-002	1.2313838E+000	3.8466532E+000	-1.544856081346775E-005
1.9020934E+004	8.3612520E-001	1.0643462E-001	8.4287226E-001	-7.2544551E+000	4.894558019092074E+000	-6.2169176E-001	-8.5780695E-003	7.8614990E+001	1.2535675E+000	1.000000000000000E+000	9	1.1183264E-002	1.3268041E-002	0	-2.370109710026526E-004	2.9919490E-001	1.3702796E-002	2.0837865E+000	1.0327671E+000	1.0320841E+000	-3.7552360E-002	-2.1115811E+000	1.8694788E+000	1.8682094E+000	6.8882257E-002	1.1769222E+000	1.4981641E-001	1.1864194E+000	7.2544551E+000	-1.197821163153890E-004
1.2850729E+004	8.0677420E-001	2.1759315E-001	8.3560240E-001	-1.5093960E+001	5.393536842806498E+000	-6.2197566E-001	-1.3939454E-001	5.6917675E+001	3.8595641E+000	1.000000000000000E+000	9	9.3837203E-003	1.1229887E-002	0	-2.680042577114784E-004	3.1936622E-001	1.1700110E-002	9.3547463E-001	1.0418725E+000	1.0417336E+000	-1.7010015E-002	-6.1929822E+000	1.8593588E+000	1.8485079E+000	2.0058313E-001	1.1554540E+000	3.1163475E-001	1.1967415E+000	1.5093960E+001	-3.099328670882584E-005
8.6846787E+003	8.5923976E-001	3.0736375E-001	9.1255981E-001	-1.9682940E+001	5.648541761591332E+000	-6.2171316E-001	-1.4520857E-001	5.9622990E+001	6.7638869E+000	1.000000000000000E+000	9	1.0702133E-002	1.1727597E-002	0	-2.699614038262516E-004	3.1237501E-001	1.2085034E-002	-2.2582457E+000	1.0304782E+000	1.0296780E+000	4.0604573E-002	-1.0437762E+001	1.9207009E+000	1.8889177E+000	3.4796831E-001	1.0317910E+000	3.6908805E-001	1.0958186E+000	1.9682940E+001	-1.957146114773189E-006
5.8640142E+003	9.3043607E-001	4.4472551E-001	1.0312575E+000	-2.5546652E+001	5.903548520378536E+000	-6.2168574E-001	-1.5657581E-001	6.1028553E+001	1.1349662E+001	1.000000000000000E+000	9	1.1157261E-002	1.0819083E-002	0	-2.724135955616625E-004	3.1487733E-001	1.1418459E-002	-2.8148654E+000	1.0553999E+000	1.0541265E+000	5.1829536E-002	-1.4047503E+001	2.0457408E+000	1.9845626E+000	4.9655506E-001	8.7488765E-001	4.1817477E-001	9.6968991E-001	2.5546652E+001	-2.452191735410870E-006
3.9600762E+003	9.3664700E-001	6.1904007E-001	1.1227280E+000	-3.3461143E+001	6.203838321351213E+000	-6.2163228E-001	-2.1505187E-001	6.4922890E+001	1.9737232E+001	1.000000000000000E+000	9	1.0502539E-002	9.3544815E-003	0	-2.824432063482495E-004	3.1122893E-001	1.0163782E-002	-4.4026136E+000	1.0865147E+000	1.0833087E+000	8.3405770E-002	-1.9175278E+001	2.1386096E+000	2.0199556E+000	7.0244586E-001	7.4306506E-001	4.9109969E-001	8.9068770E-001	3.3461143E+001	-1.002961078658699E-005
2.6787200E+003	9.8826450E-001	8.6067408E-001	1.3105062E+000	-4.1052425E+001	6.633090235030977E+000	-6.2198377E-001	-1.9921239E-001	6.9032578E+001	2.9775108E+001	1.000000000000000E+000	9	1.0127056E-002	7.7275913E-003	0	-3.002259161380740E-004	3.2085612E-001	8.5020950E-003	-6.8560963E+000	1.1002258E+000	1.0923582E+000	1.3134065E-001	-2.5491220E+001	2.3050127E+000	2.0806227E+000	9.9201477E-001	5.7543331E-001	5.0114167E-001	7.6306391E-001	4.1052425E+001	-1.778270978982456E-005
1.8082643E+003	1.0459417E+000	1.2777383E+000	1.6512448E+000	-5.0696644E+001	7.079033216228709E+000	-6.2180686E-001	-1.9261567E-001	6.8883675E+001	4.1245567E+001	1.000000000000000E+000	9	1.0095562E-002	6.1139101E-003	0	-3.176496669851347E-004	3.1476271E-001	7.2535891E-003	-9.7594986E+000	1.1864076E+000	1.1692379E+000	2.0111138E-001	-3.3726997E+001	2.6634595E+000	2.2151794E+000	1.4788496E+000	3.8360527E-001	4.6861807E-001	6.0560375E-001	5.0696644E+001	-1.742375084706066E-005
1.2219551E+003	1.1840519E+000	1.7307907E+000	2.0970492E+000	-5.5623566E+001	7.523538623965578E+000	-6.2180215E-001	-2.0629366E-001	7.5252396E+001	5.1261604E+001	1.000000000000000E+000	9	9.8274928E-003	4.6863435E-003	0	-3.452003812567693E-004	3.1778076E-001	5.7094754E-003	-1.2128509E+001	1.2183220E+000	1.1911277E+000	2.5597560E-001	-3.9911469E+001	3.0965655E+000	2.3751795E+000	1.9867663E+000	2.6924860E-001	3.9357483E-001	4.7686052E-001	5.5623566E+001	-2.755071427163462E-005
8.2526404E+002	1.3151509E+000	2.4581912E+000	2.7878890E+000	-6.1852882E+001	7.968764271849068E+000	-6.2194681E-001	-2.0551105E-001	7.8453354E+001	6.0994671E+001	1.000000000000000E+000	9	9.6216304E-003	3.4512244E-003	0	-3.694196707199832E-004	3.0960530E-001	4.2112106E-003	-1.5772474E+001	1.2202077E+000	1.1742653E+000	3.3167437E-001	-4.8257248E+001	3.7390563E+000	2.4894161E+000	2.7898655E+000	1.6920945E-001	3.1627488E-001	3.5869434E-001	6.1852882E+001	-2.421928946321389E-005
5.5803571E+002	1.4443877E+000	3.3876805E+000	3.6827483E+000	-6.6908310E+001	8.659604384671184E+000	-6.2168628E-001	-4.9805269E-002	8.4189072E+001	7.1238785E+001	1.000000000000000E+000	10	9.5539372E-003	2.5942412E-003	0	-3.905749284742633E-004	3.1965274E-001	3.2964651E-003	-1.9240536E+001	1.2706857E+000	1.1997095E+000	4.1873500E-001	-5.5214520E+001	4.6346574E+000	2.6440973E+000	3.8064156E+000	1.0649756E-001	2.4978042E-001	2.7153635E-001	6.6908310E+001	-2.115525775428007E-005
3.7705118E+002	1.6967014E+000	4.8594522E+000	5.1471419E+000	-7.0753105E+001	9.103776112417108E+000	-6.2165314E-001	-4.8526518E-002	8.6862534E+001	7.7423866E+001	1.000000000000000E+000	10	9.5033646E-003	1.8463382E-003	0	-3.955656903030532E-004	3.2876420E-001	2.2267478E-003	-2.8075344E+001	1.2060347E+000	1.0641199E+000	5.6759876E-001	-6.3036884E+001	6.0889258E+000	2.7608213E+000	5.4270511E+000	6.4043209E-002	1.8342352E-001	1.9428258E-001	7.0753105E+001	-4.990761828789904E-006
2.5475545E+002	2.1350946E+000	6.9499822E+000	7.2705488E+000	-7.2922592E+001	9.550112800236093E+000	-6.2181145E-001	-5.1002048E-002	8.9890327E+001	8.2138344E+001	1.000000000000000E+000	10	9.5242867E-003	1.3099818E-003	0	-4.000999062723325E-004	3.2736978E-001	1.9012867E-003	-2.9635180E+001	1.4513841E+000	1.2615306E+000	7.1767408E-001	-6.6107574E+001	8.3862991E+000	3.3966253E+000	7.6676564E+000	4.0390823E-002	1.3147686E-001	1.3754120E-001	7.2922592E+001	-4.534215969279347E-006
1.7203688E+002	2.6670082E+000	1.0068290E+001	1.0415536E+001	-7.5163559E+001	9.990546607848955E+000	-6.2173253E-001	-4.9335565E-002	9.1884628E+001	8.5860031E+001	1.000000000000000E+000	10	9.6663386E-003	9.2806923E-004	0	-4.075718328174035E-004	3.2906982E-001	1.8304009E-003	-4.1020672E+001	1.9722676E+000	1.4880223E+000	1.2944609E+000	-6.9913994E+001	1.2098611E+001	4.1550303E+000	1.1362751E+001	2.4584489E-002	9.2809506E-002	9.6010424E-002	7.5163559E+001	-7.471926545071024E-006
1.1622738E+002	4.0067759E+000	1.3827758E+001	1.4396567E+001	-7.3840355E+001	1.043079649544961E+001	-6.2202972E-001	-5.0834298E-002	9.9028442E+001	9.1357788E+001	1.000000000000000E+000	10	9.4648972E-003	6.5744127E-004	0	-4.133646143567748E-004	3.2769451E-001	1.6242486E-003	-4.0936279E+001	2.4705608E+000	1.8663573E+000	1.6187590E+000	-6.9182007E+001	1.6525393E+001	5.8731332E+000	1.5446517E+001	1.9332016E-002	6.6716596E-002	6.9461003E-002	7.3840355E+001	-5.792781539371266E-006
7.8517616E+001	5.2928581E+000	1.9860939E+001	2.0554106E+001	-7.5077721E+001	1.088463814368515E+001	-6.2210095E-001	-5.7463001E-002	1.0205946E+002	9.5291824E+001	1.000000000000000E+000	10	9.5943920E-003	4.6678714E-004	0	-4.206019817425145E-004	3.3208787E-001	1.1657890E-003	-4.6595974E+001	2.4974744E+000	1.7161109E+000	1.8144811E+000	-7.2080856E+001	2.2780464E+001	7.0089693E+000	2.1675421E+001	1.2528326E-002	4.7011338E-002	4.8652079E-002	7.5077721E+001	-7.237367385739667E-006
5.3047844E+001	7.6816101E+000	2.7328398E+001	2.8387470E+001	-7.4300110E+001	1.159520015071030E+001	-6.2173885E-001	-3.0741649E-002	1.0978378E+002	1.0174502E+002	1.000000000000000E+000	11	9.5056854E-003	3.3485497E-004	0	-4.279454444676877E-004	3.3386430E-001	9.8411366E-004	-5.0800282E+001	2.9389250E+000	1.8574756E+000	2.2775128E+000	-7.2140953E+001	3.1104729E+001	9.5390854E+000	2.9605911E+001	9.5323259E-003	3.3912577E-002	3.5226811E-002	7.4300110E+001	-7.343462725173215E-006
3.5837154E+001	1.1467998E+001	3.8937702E+001	4.0591373E+001	-7.3589157E+001	1.203119763810537E+001	-6.2192482E-001	-3.1231165E-002	1.1405552E+002	1.0495169E+002	1.000000000000000E+000	11	9.6034817E-003	2.3658923E-004	0	-4.314486589515582E-004	3.3495310E-001	1.3450151E-003	-6.7983818E+001	5.6850228E+000	2.1311357E+000	5.2704597E+000	-7.2901268E+001	4.6252544E+001	1.3599133E+001	4.4208160E+001	6.9601736E-003	2.3632128E-002	2.4635777E-002	7.3589157E+001	-3.503214483870467E-006
2.4232319E+001	1.4987776E+001	5.2698933E+001	5.4788784E+001	-7.4124046E+001	1.249024419320631E+001	-6.2184554E-001	-3.2489058E-002	1.2463020E+002	1.1530381E+002	1.000000000000000E+000	11	9.2844870E-003	1.6945963E-004	0	-4.353491796908990E-004	3.3543065E-001	1.1125504E-003	-7.0689407E+001	6.5652828E+000	2.1710663E+000	6.1959190E+000	-7.3756676E+001	6.1343536E+001	1.7158842E+001	5.8894852E+001	4.9929116E-003	1.7555714E-002	1.8251911E-002	7.4124046E+001	-3.900520739340849E-006
1.6366972E+001	2.4060022E+001	7.3386314E+001	7.7229759E+001	-7.1848045E+001	1.290018962605973E+001	-6.2175596E-001	-3.2514412E-002	1.3250636E+002	1.1964581E+002	1.000000000000000E+000	11	9.3744034E-003	1.2138331E-004	0	-4.392842255807385E-004	3.3766553E-001	1.2465862E-003	-6.0727962E+001	1.0269832E+001	5.0215039E+000	8.9584560E+000	-7.0548416E+001	8.7329247E+001	2.9081526E+001	8.2344772E+001	4.0339138E-003	1.2303982E-002	1.2948376E-002	7.1848045E+001	-3.935045889839450E-006
1.1050212E+001	3.3609360E+001	1.0141585E+002	1.0683990E+002	-7.1664726E+001	1.330586436533486E+001	-6.2185234E-001	-3.2080080E-002	1.4201811E+002	1.2796419E+002	1.000000000000000E+000	11	9.2150914E-003	8.6251406E-005	0	-4.429251126177696E-004	3.3860150E-001	9.4822329E-004	-7.1996208E+001	1.0993714E+001	3.3979359E+000	1.0455419E+001	-7.1695656E+001	1.1783344E+002	3.7007294E+001	1.1187127E+002	2.9443768E-003	8.8846209E-003	9.3597993E-003	7.1664726E+001	-3.640887037031188E-006
7.4689322E+000	5.3422764E+001	1.4044943E+002	1.5026654E+002	-6.9174683E+001	1.379169276176253E+001	-6.2182134E-001	-3.1104684E-002	1.5171957E+002	1.3254308E+002	1.000000000000000E+000	12	9.4525423E-003	6.2905172E-005	0	-4.468858321743157E-004	3.3988133E-001	9.7833236E-004	-7.6160721E+001	1.5552495E+001	3.7201438E+000	1.5101014E+001	-6.9828720E+001	1.6571437E+002	5.7142906E+001	1.5555045E+002	2.3659293E-003	6.2200716E-003	6.6548414E-003	6.9174683E+001	-3.960719556546084E-006
5.0468345E+000	8.4474014E+001	1.8343823E+002	2.0195407E+002	-6.5273750E+001	1.423398432941758E+001	-6.2160015E-001	-2.9486297E-002	1.7191400E+002	1.4183575E+002	1.000000000000000E+000	12	9.3935626E-003	4.6513360E-005	0	-4.504509024430465E-004	3.4238362E-001	1.0739623E-003	-9.1485626E+001	2.3089331E+001	-5.9861660E-001	2.3081570E+001	-6.7896095E+001	2.2290247E+002	8.3875397E+001	2.0651981E+002	2.0711801E-003	4.4976398E-003	4.9516209E-003	6.5273750E+001	-3.565070268730746E-006
3.4085953E+000	1.2789196E+002	2.5117371E+002	2.8185916E+002	-6.3015839E+001	1.487536081319558E+001	-6.2179035E-001	-3.1171503E-002	1.8589619E+002	1.4762318E+002	1.000000000000000E+000	12	9.3349610E-003	3.3119239E-005	0	-4.563896178839463E-004	3.5728288E-001	7.9903798E-004	-5.4353317E+001	2.4126097E+001	1.4060334E+001	1.9605497E+001	-6.2334839E+001	3.0573163E+002	1.4195230E+002	2.7077921E+002	1.6098259E-003	3.1616215E-003	3.5478713E-003	6.3015839E+001	-5.938715440899811E-006
2.3032136E+000	1.9544719E+002	3.1436905E+002	3.7017227E+002	-5.8130264E+001	1.581238632436725E+001	-6.2182200E-001	-3.2139905E-002	2.1980934E+002	1.5853236E+002	1.000000000000000E+000	12	9.4517441E-003	2.5533365E-005	0	-4.650459601901578E-004	3.4692982E-001	1.0112852E-003	-4.4182274E+001	3.9606422E+001	2.8402805E+001	2.7603430E+001	-5.6791851E+001	4.0872238E+002	2.2384999E+002	3.4197247E+002	1.4263354E-003	2.2942040E-003	2.7014450E-003	5.8130264E+001	-8.656342306211540E-006
1.5562749E+000	2.9406161E+002	3.8340167E+002	4.8318637E+002	-5.2512497E+001	1.718495942957816E+001	-6.2173390E-001	-3.3788104E-002	2.6673489E+002	1.6794168E+002	1.000000000000000E+000	12	9.5846113E-003	1.9836261E-005	0	-4.777706149566463E-004	3.5405469E-001	1.7074770E-003	-4.5611633E+001	8.6078568E+001	6.0213528E+001	6.1513012E+001	-5.1470509E+001	5.6873541E+002	3.5427515E+002	4.4491467E+002	1.2595314E-003	1.6421947E-003	2.0695948E-003	5.2512497E+001	-1.272465476648846E-005
1.0523305E+000	4.1693130E+002	4.4319568E+002	6.0848511E+002	-4.6749012E+001	1.920486768553383E+001	-6.2180054E-001	-3.5079516E-002	3.4124982E+002	1.8103543E+002	1.000000000000000E+000	12	9.4723580E-003	1.5567115E-005	0	-4.970156685748411E-004	3.6087397E-001	2.2573862E-003	-5.5673870E+001	1.4500993E+002	8.1771500E+001	1.1975518E+002	-4.8463142E+001	7.5207593E+002	4.9870282E+002	5.6295087E+002	1.1260678E-003	1.1970040E-003	1.6434256E-003	4.6749012E+001	-1.924505361819477E-005
7.1035653E-001	5.8762836E+002	5.1474292E+002	7.8119611E+002	-4.1217285E+001	2.363868192279915E+001	-6.2194425E-001	-3.7248403E-002	4.3526465E+002	1.8897920E+002	1.000000000000000E+000	13	9.5163137E-003	1.2181722E-005	0	-5.410822941531466E-004	3.7502825E-001	2.7002452E-003	-8.7179787E+001	2.2166367E+002	1.0906339E+001	2.2139520E+002	-5.0886341E+001	9.4875873E+002	5.9853467E+002	7.3613812E+002	9.6290314E-004	8.4347121E-004	1.2800883E-003	4.1217285E+001	-4.406662557830557E-005
4.8035541E-001	7.5752557E+002	5.7721857E+002	9.5237927E+002	-3.7306641E+001	2.803676178502792E+001	-6.2181854E-001	-3.9061114E-002	5.7400696E+002	2.1085207E+002	1.000000000000000E+000	13	9.5186848E-003	9.9946365E-006	0	-5.875917202738718E-004	3.7913510E-001	3.0625011E-003	-1.0979114E+002	3.0641446E+002	-1.0374960E+002	2.8831552E+002	-5.2934643E+001	1.0846992E+003	6.5377600E+002	8.6553406E+002	8.3517487E-004	6.3638575E-004	1.0500018E-003	3.7306641E+001	-4.650942612072521E-005
3.2443938E-001	9.6923444E+002	6.2336212E+002	1.1523870E+003	-3.2747055E+001	3.453873089385161E+001	-6.2184036E-001	-4.0716000E-002	7.8694824E+002	2.3026627E+002	1.000000000000000E+000	13	9.4562508E-003	8.2057950E-006	0	-6.599323300526432E-004	4.0708074E-001	2.7120891E-003	-1.4167702E+002	3.3050900E+002	-2.5929346E+002	2.0494658E+002	-4.9400219E+001	1.0909224E+003	7.0994098E+002	8.2830872E+002	7.2984758E-004	4.6940069E-004	8.6776406E-004	3.2747055E+001	-7.234060977877137E-005
2.1883753E-001	1.1916930E+003	7.0371735E+002	1.3839618E+003	-3.0562658E+001	4.416778836454614E+001	-6.2178534E-001	-4.2369884E-002	1.0334752E+003	2.6720734E+002	1.000000000000000E+000	13	9.4902348E-003	6.8572954E-006	0	-7.722020414692961E-004	4.3015546E-001	2.2054370E-003	1.7500545E+002	3.2161908E+002	-3.2039789E+002	-2.8000513E+001	-3.7794708E+001	1.1026099E+003	8.7129510E+002	6.7571686E+002	6.2218017E-004	3.6740923E-004	7.2256330E-004	3.0562658E+001	-1.122697114166529E-004
