EC-Lab ASCII FILE
Nb header lines : 64                          

Potentio Electrochemical Impedance Spectroscopy

Run on channel : 5 (SN 39658)
User : 
CE vs. WE compliance from -10 V to 10 V
Electrode connection : standard
Potential control : Ewe
Ewe ctrl range : min = -10.00 V, max = 10.00 V
Safety Limits :
	Do not start on E overload
Acquisition started on : 02/10/2025 13:10:54.331
Loaded Setting File :  NONE
Saved on :
	File : 2025-02-10 exp 12 EIS_C05.mpr
	Directory : C:\Users\thefo\OneDrive\Documents\EC-Lab\Data\CHEM 451\
	Host : 172.24.113.132
Device : VSP (SN 1910)
Address : USB
EC-Lab for windows v11.46 (software)
Internet server v11.40 (firmware)
Command interpretor v11.40 (firmware)
Electrode material : 
Initial state : 
Electrolyte : 
Comments : 
Current amplifier : VSPB-4A
Electrode surface area : 0.001 cm²
Characteristic mass : 0.001 g
Equivalent Weight : 0.000 g/eq.
Density : 0.000 g/cm3
Volume (V) : 0.001 cm³
Cycle Definition : Charge/Discharge alternance
Mode                Single sine         
E (V)               0.0000              
vs.                 Eoc                 
tE (h:m:s)          0:00:0.0000         
record              0                   
dI                  0.000               
unit dI             mA                  
dt (s)              0.000               
fi                  200.000             
unit fi             kHz                 
ff                  100.000             
unit ff             mHz                 
Nd                  6                   
Points              per decade          
spacing             Logarithmic         
Va (mV)             10.0                
pw                  0.10                
Na                  2                   
corr                0                   
E range min (V)     -10.000             
E range max (V)     10.000              
I Range             Auto                
Bandwidth           4                   
nc cycles           0                   
goto Ns'            0                   
nr cycles           0                   
inc. cycle          0                   

freq/Hz	Re(Z)/Ohm	-Im(Z)/Ohm	|Z|/Ohm	Phase(Z)/deg	time/s	<Ewe>/V	<I>/mA	Cs/µF	Cp/µF	cycle number	I Range	|Ewe|/V	|I|/A	Ns	(Q-Qo)/mA.h	Re(Y)/Ohm-1	Im(Y)/Ohm-1	|Y|/Ohm-1	Phase(Y)/deg	Re(C)/nF	Im(C)/nF	|C|/nF	Phase(C)/deg	Re(M)	Im(M)	|M|	Phase(M)/deg	Re(Permittivity)	Im(Permittivity)	|Permittivity|	Phase(Permittivity)/deg	Re(Resistivity)/Ohm.cm	Im(Resistivity)/Ohm.cm	|Resistivity|/Ohm.cm	Phase(Resistivity)/deg	Re(Conductivity)/mS/cm	Im(Conductivity)/mS/cm	|Conductivity|/mS/cm	Phase(Conductivity)/deg	Tan(Delta)	Loss Angle(Delta)/deg	dq/mA.h	
1.9999814E+005	4.3290009E+001	8.6453228E+000	4.4144836E+001	-1.1293796E+001	1.548483113496332E+000	3.2810473E-001	-4.6076789E-004	9.2047706E-002	3.5303321E-003	1.000000000000000E+000	11	9.8090749E-003	2.2220210E-004	0	2.767694803428539E-006	2.2214057E-002	4.4363048E-003	2.2652706E-002	1.1293796E+001	3.5303314E+000	1.7677549E+001	1.8026619E+001	-7.8706207E+001	0.0000000E+000	0.0000000E+000	0.0000000E+000	7.8706207E+001	0.0000000E+000	0.0000000E+000	0.0000000E+000	-7.8706207E+001	0.0000000E+000	0.0000000E+000	0.0000000E+000	-1.1293796E+001	0.0000000E+000	0.0000000E+000	0.0000000E+000	1.1293796E+001	5.0073328E+000	1.1293796E+001	2.767694803428539E-006
1.3512284E+005	4.1786900E+001	5.2081995E+000	4.2110218E+001	-7.1045442E+000	1.994493934704224E+000	3.2814908E-001	-3.6563262E-004	2.2615373E-001	3.4594254E-003	1.000000000000000E+000	11	1.0710196E-002	2.5433721E-004	0	6.152173584236556E-007	2.3564877E-002	2.9370587E-003	2.3747206E-002	7.1045442E+000	3.4594262E+000	2.7755980E+001	2.7970736E+001	-8.2895454E+001	0.0000000E+000	0.0000000E+000	0.0000000E+000	8.2895454E+001	0.0000000E+000	0.0000000E+000	0.0000000E+000	-8.2895454E+001	0.0000000E+000	0.0000000E+000	0.0000000E+000	-7.1045442E+000	0.0000000E+000	0.0000000E+000	0.0000000E+000	7.1045442E+000	8.0232906E+000	7.1045442E+000	-2.152477445004883E-006
9.1291195E+004	4.0846485E+001	3.9740326E+000	4.1039349E+001	-5.5569267E+000	2.440487209212733E+000	3.2817051E-001	-2.9414109E-004	4.3869209E-001	4.1135969E-003	1.000000000000000E+000	11	1.0726517E-002	2.6137152E-004	0	-1.748538337770798E-007	2.4252348E-002	2.3595572E-003	2.4366859E-002	5.5569267E+000	4.1135998E+000	4.2280975E+001	4.2480614E+001	-8.4443069E+001	0.0000000E+000	0.0000000E+000	0.0000000E+000	8.4443069E+001	0.0000000E+000	0.0000000E+000	0.0000000E+000	-8.4443069E+001	0.0000000E+000	0.0000000E+000	0.0000000E+000	-5.5569267E+000	0.0000000E+000	0.0000000E+000	0.0000000E+000	5.5569267E+000	1.0278347E+001	5.5569267E+000	-7.900711922007353E-007
6.1674211E+004	4.0388504E+001	3.7300146E+000	4.0560379E+001	-5.2764912E+000	2.886479230393888E+000	3.2816297E-001	-4.8664620E-004	6.9184053E-001	5.8509051E-003	1.000000000000000E+000	11	1.0641690E-002	2.6236664E-004	0	2.698379944209591E-006	2.4550129E-002	2.2672873E-003	2.4654603E-002	5.2764912E+000	5.8509030E+000	6.3353455E+001	6.3623055E+001	-8.4723511E+001	0.0000000E+000	0.0000000E+000	0.0000000E+000	8.4723511E+001	0.0000000E+000	0.0000000E+000	0.0000000E+000	-8.4723511E+001	0.0000000E+000	0.0000000E+000	0.0000000E+000	-5.2764912E+000	0.0000000E+000	0.0000000E+000	0.0000000E+000	5.2764912E+000	1.0827975E+001	5.2764912E+000	2.873233777986671E-006
4.1669758E+004	4.0304432E+001	4.0984836E+000	4.0512280E+001	-5.8063440E+000	3.332489571563201E+000	3.2817233E-001	-5.5534509E-004	9.3191421E-001	9.5378170E-003	1.000000000000000E+000	11	1.0590806E-002	2.6142210E-004	0	3.069056112766298E-006	2.4557235E-002	2.4971799E-003	2.4683874E-002	5.8063440E+000	9.5378160E+000	9.3794762E+001	9.4278458E+001	-8.4193657E+001	0.0000000E+000	0.0000000E+000	0.0000000E+000	8.4193657E+001	0.0000000E+000	0.0000000E+000	0.0000000E+000	-8.4193657E+001	0.0000000E+000	0.0000000E+000	0.0000000E+000	-5.8063440E+000	0.0000000E+000	0.0000000E+000	0.0000000E+000	5.8063440E+000	9.8339863E+000	5.8063440E+000	3.706761685567065E-007
2.8150979E+004	4.0577404E+001	5.2066813E+000	4.0910088E+001	-7.3119411E+000	3.778474046121119E+000	3.2819450E-001	-5.5441383E-004	1.0858395E+000	1.7588420E-002	1.000000000000000E+000	11	1.0562873E-002	2.5819728E-004	0	4.371909532118783E-006	2.4245068E-002	3.1110011E-003	2.4443848E-002	7.3119411E+000	1.7588425E+001	1.3707242E+002	1.3819624E+002	-8.2688057E+001	0.0000000E+000	0.0000000E+000	0.0000000E+000	8.2688057E+001	0.0000000E+000	0.0000000E+000	0.0000000E+000	-8.2688057E+001	0.0000000E+000	0.0000000E+000	0.0000000E+000	-7.3119411E+000	0.0000000E+000	0.0000000E+000	0.0000000E+000	7.3119411E+000	7.7933335E+000	7.3119411E+000	1.302853419352485E-006
1.9020934E+004	4.1125164E+001	6.6320105E+000	4.1656483E+001	-9.1608801E+000	4.224496573937358E+000	3.2820347E-001	-1.9249035E-004	1.2616622E+000	3.1979255E-002	1.000000000000000E+000	11	1.0567939E-002	2.5369253E-004	0	5.213594114783013E-006	2.3699677E-002	3.8219059E-003	2.4005868E-002	9.1608801E+000	3.1979258E+001	1.9830368E+002	2.0086568E+002	-8.0839119E+001	0.0000000E+000	0.0000000E+000	0.0000000E+000	8.0839119E+001	0.0000000E+000	0.0000000E+000	0.0000000E+000	-8.0839119E+001	0.0000000E+000	0.0000000E+000	0.0000000E+000	-9.1608801E+000	0.0000000E+000	0.0000000E+000	0.0000000E+000	9.1608801E+000	6.2010102E+000	9.1608801E+000	8.416845826642306E-007
1.2850729E+004	4.1785622E+001	8.7600727E+000	4.2693993E+001	-1.1840200E+001	4.670496461825678E+000	3.2822090E-001	-4.4903959E-004	1.4137892E+000	5.9520498E-002	1.000000000000000E+000	11	1.0506398E-002	2.4608610E-004	0	5.753904719659153E-006	2.2924153E-002	4.8058936E-003	2.3422498E-002	1.1840200E+001	5.9520512E+001	2.8391327E+002	2.9008524E+002	-7.8159798E+001	0.0000000E+000	0.0000000E+000	0.0000000E+000	7.8159798E+001	0.0000000E+000	0.0000000E+000	0.0000000E+000	-7.8159798E+001	0.0000000E+000	0.0000000E+000	0.0000000E+000	-1.1840200E+001	0.0000000E+000	0.0000000E+000	0.0000000E+000	1.1840200E+001	4.7700086E+000	1.1840200E+001	5.403106048761400E-007
8.6833721E+003	4.2705685E+001	1.1921999E+001	4.4338577E+001	-1.5597956E+001	5.143997470993781E+000	3.2823262E-001	-1.2900461E-004	1.5373851E+000	1.1115201E-001	1.000000000000000E+000	11	1.0444297E-002	2.3555779E-004	0	5.696716261241009E-006	2.1723118E-002	6.0643679E-003	2.2553723E-002	1.5597956E+001	1.1115198E+002	3.9815656E+002	4.1338046E+002	-7.4402046E+001	0.0000000E+000	0.0000000E+000	0.0000000E+000	7.4402046E+001	0.0000000E+000	0.0000000E+000	0.0000000E+000	-7.4402046E+001	0.0000000E+000	0.0000000E+000	0.0000000E+000	-1.5597956E+001	0.0000000E+000	0.0000000E+000	0.0000000E+000	1.5597956E+001	3.5820909E+000	1.5597956E+001	-5.718845841814408E-008
5.8650859E+003	4.3897583E+001	1.6299664E+001	4.6826027E+001	-2.0370523E+001	5.781860594637692E+000	3.2821098E-001	-3.6544685E-004	1.6648194E+000	2.0172037E-001	1.000000000000000E+000	11	1.0372058E-002	2.2150199E-004	0	4.090701284459404E-006	2.0020090E-002	7.4336827E-003	2.1355646E-002	2.0370523E+001	2.0172034E+002	5.4326501E+002	5.7950665E+002	-6.9629478E+001	0.0000000E+000	0.0000000E+000	0.0000000E+000	6.9629478E+001	0.0000000E+000	0.0000000E+000	0.0000000E+000	-6.9629478E+001	0.0000000E+000	0.0000000E+000	0.0000000E+000	-2.0370523E+001	0.0000000E+000	0.0000000E+000	0.0000000E+000	2.0370523E+001	2.6931589E+000	2.0370523E+001	-1.606014976781605E-006
3.9611973E+003	4.5750996E+001	2.2540491E+001	5.1002228E+001	-2.6228437E+001	6.489958574937191E+000	3.2822588E-001	-3.4627132E-004	1.7825032E+000	3.4815991E-001	1.000000000000000E+000	11	1.0182993E-002	1.9965779E-004	0	4.064147612883567E-006	1.7588235E-002	8.6653298E-003	1.9606987E-002	2.6228437E+001	3.4815991E+002	7.0666876E+002	7.8777917E+002	-6.3771561E+001	0.0000000E+000	0.0000000E+000	0.0000000E+000	6.3771561E+001	0.0000000E+000	0.0000000E+000	0.0000000E+000	-6.3771561E+001	0.0000000E+000	0.0000000E+000	0.0000000E+000	-2.6228437E+001	0.0000000E+000	0.0000000E+000	0.0000000E+000	2.6228437E+001	2.0297248E+000	2.6228437E+001	-2.655367157583678E-008
2.6774299E+003	4.8273464E+001	3.1227558E+001	5.7493370E+001	-3.2898373E+001	6.963945104100276E+000	3.2820609E-001	-6.9330179E-004	1.9035487E+000	5.6157076E-001	1.000000000000000E+000	11	1.0723690E-002	1.8652045E-004	0	4.399875219503075E-006	1.4604037E-002	9.4471863E-003	1.7393310E-002	3.2898373E+001	5.6157080E+002	8.6811035E+002	1.0339136E+003	-5.7101627E+001	0.0000000E+000	0.0000000E+000	0.0000000E+000	5.7101627E+001	0.0000000E+000	0.0000000E+000	0.0000000E+000	-5.7101627E+001	0.0000000E+000	0.0000000E+000	0.0000000E+000	-3.2898373E+001	0.0000000E+000	0.0000000E+000	0.0000000E+000	3.2898373E+001	1.5458610E+000	3.2898373E+001	3.357276066195076E-007
1.8082643E+003	5.2156441E+001	4.3201118E+001	6.7724670E+001	-3.9634911E+001	7.437963766627945E+000	3.2822722E-001	-5.4752803E-004	2.0373387E+000	8.2900935E-001	1.000000000000000E+000	11	1.0692696E-002	1.5788480E-004	0	4.022936597524070E-006	1.1371406E-002	9.4189215E-003	1.4765668E-002	3.9634911E+001	8.2900940E+002	1.0008579E+003	1.2996050E+003	-5.0365089E+001	0.0000000E+000	0.0000000E+000	0.0000000E+000	5.0365089E+001	0.0000000E+000	0.0000000E+000	0.0000000E+000	-5.0365089E+001	0.0000000E+000	0.0000000E+000	0.0000000E+000	-3.9634911E+001	0.0000000E+000	0.0000000E+000	0.0000000E+000	3.9634911E+001	1.2072937E+000	3.9634911E+001	-3.769386219790049E-007
1.2219551E+003	5.8217739E+001	5.9568958E+001	8.3293251E+001	-4.5657253E+001	7.911424829071620E+000	3.2822537E-001	-4.9111788E-004	2.1864769E+000	1.1183180E+000	1.000000000000000E+000	11	1.0516850E-002	1.2626294E-004	0	3.853851972574780E-006	8.3914241E-003	8.5861869E-003	1.2005774E-002	4.5657253E+001	1.1183179E+003	1.0929508E+003	1.5637059E+003	-4.4342747E+001	0.0000000E+000	0.0000000E+000	0.0000000E+000	4.4342747E+001	0.0000000E+000	0.0000000E+000	0.0000000E+000	-4.4342747E+001	0.0000000E+000	0.0000000E+000	0.0000000E+000	-4.5657253E+001	0.0000000E+000	0.0000000E+000	0.0000000E+000	4.5657253E+001	9.7731674E-001	4.5657253E+001	-1.690846249492901E-007
8.2526404E+002	6.6653679E+001	8.1873566E+001	1.0557458E+002	-5.0850792E+001	8.384683278272860E+000	3.2820356E-001	-6.7989971E-004	2.3555019E+000	1.4166160E+000	1.000000000000000E+000	11	1.0294624E-002	9.7510434E-005	0	3.688493432147273E-006	5.9800572E-003	7.3455600E-003	9.4719762E-003	5.0850792E+001	1.4166161E+003	1.1532743E+003	1.8267026E+003	-3.9149208E+001	0.0000000E+000	0.0000000E+000	0.0000000E+000	3.9149208E+001	0.0000000E+000	0.0000000E+000	0.0000000E+000	-3.9149208E+001	0.0000000E+000	0.0000000E+000	0.0000000E+000	-5.0850792E+001	0.0000000E+000	0.0000000E+000	0.0000000E+000	5.0850792E+001	8.1410497E-001	5.0850792E+001	-1.653585404275069E-007
5.5803571E+002	7.9612404E+001	1.1093604E+002	1.3654648E+002	-5.4335175E+001	8.860437274182914E+000	3.2821721E-001	-4.7920414E-004	2.5709016E+000	1.6969529E+000	1.000000000000000E+000	11	1.0161326E-002	7.4416610E-005	0	3.073644471463518E-006	4.2699203E-003	5.9499275E-003	7.3235137E-003	5.4335175E+001	1.6969529E+003	1.2178054E+003	2.0887075E+003	-3.5664825E+001	0.0000000E+000	0.0000000E+000	0.0000000E+000	3.5664825E+001	0.0000000E+000	0.0000000E+000	0.0000000E+000	-3.5664825E+001	0.0000000E+000	0.0000000E+000	0.0000000E+000	-5.4335175E+001	0.0000000E+000	0.0000000E+000	0.0000000E+000	5.4335175E+001	7.1764237E-001	5.4335175E+001	-6.148489606837552E-007
3.7705118E+002	9.9473663E+001	1.4847676E+002	1.7871866E+002	-5.6179451E+001	9.331673483255145E+000	3.2820544E-001	-8.1785652E-004	2.8428981E+000	1.9621785E+000	1.000000000000000E+000	11	1.0107501E-002	5.6555378E-005	0	3.208820453058757E-006	3.1143564E-003	4.6485625E-003	5.5953865E-003	5.6179451E+001	1.9621787E+003	1.3145835E+003	2.3618372E+003	-3.3820549E+001	0.0000000E+000	0.0000000E+000	0.0000000E+000	3.3820549E+001	0.0000000E+000	0.0000000E+000	0.0000000E+000	-3.3820549E+001	0.0000000E+000	0.0000000E+000	0.0000000E+000	-5.6179451E+001	0.0000000E+000	0.0000000E+000	0.0000000E+000	5.6179451E+001	6.6996115E-001	5.6179451E+001	1.351759815952393E-007
2.5475545E+002	1.2783003E+002	1.9675165E+002	2.3463104E+002	-5.6988117E+001	9.805957985750865E+000	3.2819188E-001	-6.4117677E-004	3.1752527E+000	2.2327704E+000	1.000000000000000E+000	11	1.0054461E-002	4.2852218E-005	0	3.325089181331148E-006	2.3219986E-003	3.5739413E-003	4.2620106E-003	5.6988117E+001	2.2327703E+003	1.4506365E+003	2.6626321E+003	-3.3011883E+001	0.0000000E+000	0.0000000E+000	0.0000000E+000	3.3011883E+001	0.0000000E+000	0.0000000E+000	0.0000000E+000	-3.3011883E+001	0.0000000E+000	0.0000000E+000	0.0000000E+000	-5.6988117E+001	0.0000000E+000	0.0000000E+000	0.0000000E+000	5.6988117E+001	6.4970249E-001	5.6988117E+001	1.162687282723911E-007
1.7203688E+002	1.6713876E+002	2.5608392E+002	3.0580115E+002	-5.6868649E+001	1.053640508707031E+001	3.2823575E-001	8.6963904E-005	3.6125700E+000	2.5333936E+000	1.000000000000000E+000	12	1.0242577E-002	3.3494238E-005	0	3.167764667678916E-006	1.7873062E-003	2.7384455E-003	3.2700989E-003	5.6868649E+001	2.5333938E+003	1.6534746E+003	3.0252375E+003	-3.3131351E+001	0.0000000E+000	0.0000000E+000	0.0000000E+000	3.3131351E+001	0.0000000E+000	0.0000000E+000	0.0000000E+000	-3.3131351E+001	0.0000000E+000	0.0000000E+000	0.0000000E+000	-5.6868649E+001	0.0000000E+000	0.0000000E+000	0.0000000E+000	5.6868649E+001	6.5267181E-001	5.6868649E+001	-1.573245136522324E-007
1.1622738E+002	2.2214397E+002	3.2905099E+002	3.9701700E+002	-5.5976517E+001	1.100662654948064E+001	3.2820857E-001	-4.7682552E-006	4.1614866E+000	2.8586218E+000	1.000000000000000E+000	12	1.0163759E-002	2.5600311E-005	0	3.169760411003153E-006	1.4093418E-003	2.0875889E-003	2.5187838E-003	5.5976517E+001	2.8586216E+003	1.9298698E+003	3.4490745E+003	-3.4023483E+001	0.0000000E+000	0.0000000E+000	0.0000000E+000	3.4023483E+001	0.0000000E+000	0.0000000E+000	0.0000000E+000	-3.4023483E+001	0.0000000E+000	0.0000000E+000	0.0000000E+000	-5.5976517E+001	0.0000000E+000	0.0000000E+000	0.0000000E+000	5.5976517E+001	6.7510498E-001	5.5976517E+001	1.995743324237496E-009
7.8517616E+001	2.8885074E+002	4.1312228E+002	5.0408804E+002	-5.5039162E+001	1.148853905234137E+001	3.2821757E-001	-2.3716960E-004	4.9065294E+000	3.2954814E+000	1.000000000000000E+000	12	1.0085843E-002	2.0008098E-005	0	3.255908479830800E-006	1.1367387E-003	1.6257952E-003	1.9837804E-003	5.5039162E+001	3.2954812E+003	2.3041655E+003	4.0211162E+003	-3.4960838E+001	0.0000000E+000	0.0000000E+000	0.0000000E+000	3.4960838E+001	0.0000000E+000	0.0000000E+000	0.0000000E+000	-3.4960838E+001	0.0000000E+000	0.0000000E+000	0.0000000E+000	-5.5039162E+001	0.0000000E+000	0.0000000E+000	0.0000000E+000	5.5039162E+001	6.9918942E-001	5.5039162E+001	8.614806882764669E-008
5.3047844E+001	3.8112918E+002	5.3652264E+002	6.5811548E+002	-5.4611183E+001	1.197712467555539E+001	3.2821593E-001	-1.0256872E-004	5.5919638E+000	3.7165179E+000	1.000000000000000E+000	12	1.0046128E-002	1.5264994E-005	0	3.401202869702956E-006	8.7997026E-004	1.2387504E-003	1.5194901E-003	5.4611183E+001	3.7165183E+003	2.6401003E+003	4.5587979E+003	-3.5388817E+001	0.0000000E+000	0.0000000E+000	0.0000000E+000	3.5388817E+001	0.0000000E+000	0.0000000E+000	0.0000000E+000	-3.5388817E+001	0.0000000E+000	0.0000000E+000	0.0000000E+000	-5.4611183E+001	0.0000000E+000	0.0000000E+000	0.0000000E+000	5.4611183E+001	7.1036923E-001	5.4611183E+001	1.452943898721564E-007
3.5837154E+001	5.0163586E+002	6.5102570E+002	8.2187164E+002	-5.2384613E+001	1.244109637758811E+001	3.2821023E-001	-1.4981221E-004	6.8216348E+000	4.2803249E+000	1.000000000000000E+000	12	1.0027822E-002	1.2201202E-005	0	3.400390370094404E-006	7.4264384E-004	9.6380711E-004	1.2167350E-003	5.2384613E+001	4.2803252E+003	3.2981257E+003	5.4035928E+003	-3.7615387E+001	0.0000000E+000	0.0000000E+000	0.0000000E+000	3.7615387E+001	0.0000000E+000	0.0000000E+000	0.0000000E+000	-3.7615387E+001	0.0000000E+000	0.0000000E+000	0.0000000E+000	-5.2384613E+001	0.0000000E+000	0.0000000E+000	0.0000000E+000	5.2384613E+001	7.7053159E-001	5.2384613E+001	-8.124996085522813E-010
2.4232319E+001	6.3571991E+002	8.0831110E+002	1.0283514E+003	-5.1815681E+001	1.292807346739573E+001	3.2820147E-001	-5.0780515E-004	8.1254349E+000	5.0201950E+000	1.000000000000000E+000	12	1.0051318E-002	9.7742059E-006	0	3.220918732953174E-006	6.0114986E-004	7.6435553E-004	9.7243022E-004	5.1815681E+001	5.0201948E+003	3.9482795E+003	6.3868042E+003	-3.8184319E+001	0.0000000E+000	0.0000000E+000	0.0000000E+000	3.8184319E+001	0.0000000E+000	0.0000000E+000	0.0000000E+000	-3.8184319E+001	0.0000000E+000	0.0000000E+000	0.0000000E+000	-5.1815681E+001	0.0000000E+000	0.0000000E+000	0.0000000E+000	5.1815681E+001	7.8647923E-001	5.1815681E+001	-1.794716371412301E-007
1.6366972E+001	7.5826398E+002	9.5689130E+002	1.2209034E+003	-5.1605839E+001	1.336702631489607E+001	3.2821375E-001	-2.2611290E-004	1.0162234E+001	6.2424026E+000	1.000000000000000E+000	12	1.0019347E-002	8.2065026E-006	0	3.149770538275991E-006	5.0869538E-004	6.4194819E-004	8.1906561E-004	5.1605839E+001	6.2424019E+003	4.9466313E+003	7.9647188E+003	-3.8394161E+001	0.0000000E+000	0.0000000E+000	0.0000000E+000	3.8394161E+001	0.0000000E+000	0.0000000E+000	0.0000000E+000	-3.8394161E+001	0.0000000E+000	0.0000000E+000	0.0000000E+000	-5.1605839E+001	0.0000000E+000	0.0000000E+000	0.0000000E+000	5.1605839E+001	7.9242438E-001	5.1605839E+001	-7.114819467718311E-008
1.1050212E+001	9.9653137E+002	1.1722604E+003	1.5385933E+003	-4.9632343E+001	1.404772424057592E+001	3.2822204E-001	-6.4806831E-005	1.2286423E+001	7.1322403E+000	1.000000000000000E+000	13	1.0011160E-002	6.5066970E-006	0	3.244793395295428E-006	4.2096240E-004	4.9519521E-004	6.4994436E-004	4.9632343E+001	7.1322402E+003	6.0630732E+003	9.3610742E+003	-4.0367657E+001	0.0000000E+000	0.0000000E+000	0.0000000E+000	4.0367657E+001	0.0000000E+000	0.0000000E+000	0.0000000E+000	-4.0367657E+001	0.0000000E+000	0.0000000E+000	0.0000000E+000	-4.9632343E+001	0.0000000E+000	0.0000000E+000	0.0000000E+000	4.9632343E+001	8.5009390E-001	4.9632343E+001	9.502285701943745E-008
