EC-Lab ASCII FILE
Nb header lines : 66                          

Potentio Electrochemical Impedance Spectroscopy

Run on channel : 5 (SN 39658)
User : 
CE vs. WE compliance from -10 V to 10 V
Electrode connection : standard
Potential control : Ewe
Ewe ctrl range : min = -2.50 V, max = 2.50 V
Safety Limits :
	Do not start on E overload
Acquisition started on : 06/26/2024 14:29:21.159
Technique started on : 06/26/2024 14:29:22.953
Loaded Setting File :  C:\Users\sfolkman\OneDrive - New Mexico State University\Folkman Group Folder\Scott\2024-6-19 FeOx on FTO_1_03mg.mps
Saved on :
	File : 2024-6-26 CoOx on FTO_1_03mg_01_PEIS_C05.mpr
	Directory : C:\Users\sfolkman\OneDrive - New Mexico State University\Folkman Group Folder\Scott\
	Host : 172.24.124.15
Device : VSP (SN 1910)
Address : USB
EC-Lab for windows v11.46 (software)
Internet server v11.40 (firmware)
Command interpretor v11.40 (firmware)
Electrode material : 
Initial state : 
Electrolyte : 
Comments : 
Current amplifier : VSPB-4A
Electrode surface area : 0.001 cm²
Characteristic mass : 0.001 g
Equivalent Weight : 0.000 g/eq.
Density : 0.000 g/cm3
Volume (V) : 0.001 cm³
Record Ece
Cycle Definition : Charge/Discharge alternance
Mode                Single sine         
E (V)               0.0000              
vs.                 Eoc                 
tE (h:m:s)          0:00:0.0000         
record              0                   
dI                  0.000               
unit dI             mA                  
dt (s)              0.000               
fi                  200.000             
unit fi             kHz                 
ff                  100.000             
unit ff             mHz                 
Nd                  6                   
Points              per decade          
spacing             Logarithmic         
Va (mV)             10.0                
pw                  0.10                
Na                  2                   
corr                0                   
E range min (V)     -2.500              
E range max (V)     2.500               
I Range             Auto                
Bandwidth           4                   
nc cycles           0                   
goto Ns'            0                   
nr cycles           0                   
inc. cycle          0                   

freq/Hz	Re(Z)/Ohm	-Im(Z)/Ohm	|Z|/Ohm	Phase(Z)/deg	time/s	<Ewe>/V	<I>/mA	Cs/µF	Cp/µF	cycle number	I Range	|Ewe|/V	|I|/A	Ns	(Q-Qo)/mA.h	<Ece>/V	|Ece|/V	Phase(Zce)/deg	|Zce|/Ohm	Re(Zce)/Ohm	-Im(Zce)/Ohm	Phase(Zwe-ce)/deg	|Zwe-ce|/Ohm	Re(Zwe-ce)/Ohm	-Im(Zwe-ce)/Ohm	Re(Y)/Ohm-1	Im(Y)/Ohm-1	|Y|/Ohm-1	Phase(Y)/deg	dq/mA.h	
1.9999814E+005	7.5177045E+000	1.4135789E+001	1.6010509E+001	-6.1995033E+001	1.793526671797736E+000	1.8391559E-001	-1.4576859E-002	5.6295555E-002	4.3883771E-002	1.000000000000000E+000	10	1.0024736E-002	6.2613469E-004	0	-8.330910329273643E-007	9.1479167E-002	9.1970284E-003	6.8352776E+001	1.4688579E+001	5.4184809E+000	-1.3652634E+001	-2.1389532E+000	1.2945206E+001	1.2936186E+001	4.8315525E-001	2.9327493E-002	5.5145457E-002	6.2458973E-002	6.1995033E+001	-8.330910329273643E-007
1.3512284E+005	1.0642559E+001	1.1520657E+001	1.5684055E+001	-4.7268848E+001	2.328549470548751E+000	1.8394397E-001	-1.4305126E-002	1.0223842E-001	5.5163506E-002	1.000000000000000E+000	10	1.0134078E-002	6.4613885E-004	0	4.495527596752962E-006	8.2428306E-002	6.9668898E-003	7.5567947E+001	1.0782342E+001	2.6873009E+000	-1.0442093E+001	-4.6259160E+000	1.3373424E+001	1.3329860E+001	1.0785637E+000	4.3264266E-002	4.6833921E-002	6.3759021E-002	4.7268848E+001	5.328618629680326E-006
9.1291195E+004	1.2816085E+001	9.0991411E+000	1.5717710E+001	-3.5373920E+001	2.863530775968684E+000	1.8392555E-001	-1.3631371E-002	1.9159795E-001	6.4211547E-002	1.000000000000000E+000	10	1.0052116E-002	6.3954073E-004	0	7.905446701760715E-006	8.2237363E-002	4.5954944E-003	8.2784950E+001	7.1856165E+000	9.0246874E-001	-7.1287189E+000	-8.1736012E+000	1.3859339E+001	1.3718554E+001	1.9704223E+000	5.1877242E-002	3.6831710E-002	6.3622504E-002	3.5373920E+001	3.409919105007753E-006
6.1674211E+004	1.4042696E+001	7.0179591E+000	1.5698696E+001	-2.6553989E+001	3.264548661682056E+000	1.8394606E-001	-1.3568089E-002	3.6771023E-001	7.3485255E-002	1.000000000000000E+000	10	1.0772328E-002	6.8619254E-004	0	8.641875144752299E-006	8.6419091E-002	2.9274588E-003	8.6612511E+001	4.2662354E+000	2.5208518E-001	-4.2587810E+000	-1.0924877E+001	1.4558634E+001	1.4294781E+001	2.7591782E+000	5.6980114E-002	2.8476309E-002	6.3699558E-002	2.6553989E+001	7.364284429915841E-007
4.1669758E+004	1.4595140E+001	6.0344558E+000	1.5793441E+001	-2.2462967E+001	3.665552387392381E+000	1.8401238E-001	-1.3207015E-002	6.3293785E-001	9.2402503E-002	1.000000000000000E+000	10	1.0554158E-002	6.6826213E-004	0	1.214843031301199E-005	8.3478510E-002	1.7337943E-003	7.9155014E+001	2.5944824E+000	4.8815835E-001	-2.5481446E+000	-1.3014631E+001	1.5480965E+001	1.5083299E+001	3.4863112E+000	5.8513321E-002	2.4192715E-002	6.3317426E-002	2.2462967E+001	3.506555168259688E-006
2.8150979E+004	1.5442324E+001	5.7483525E+000	1.6477528E+001	-2.0417612E+001	4.066560086474055E+000	1.8396345E-001	-1.3489920E-002	9.8352009E-001	1.1969773E-001	1.000000000000000E+000	10	1.0493618E-002	6.3684426E-004	0	7.880217614551334E-006	8.3535798E-002	1.0017471E-003	6.3887295E+001	1.5729860E+000	6.9233137E-001	-1.4124314E+000	-1.5041916E+001	1.6707104E+001	1.6134655E+001	4.3359213E+000	5.6875933E-002	2.1171873E-002	6.0688715E-002	2.0417612E+001	-4.268212698460653E-006
1.9020934E+004	1.6409002E+001	5.9241142E+000	1.7445644E+001	-1.9851015E+001	4.467534985480597E+000	1.8385173E-001	-2.3905227E-002	1.4124233E+000	1.6286872E-001	1.000000000000000E+000	10	1.0483562E-002	6.0092716E-004	0	1.203560084528160E-006	8.4796041E-002	8.2131423E-004	4.1800297E+001	1.3667451E+000	1.0188709E+000	-9.1098529E-001	-1.6047884E+001	1.8134560E+001	1.7427874E+001	5.0131288E+000	5.3914819E-002	1.9464774E-002	5.7320897E-002	1.9851015E+001	-6.676657530023173E-006
1.2850729E+004	1.7522608E+001	6.0225410E+000	1.8528702E+001	-1.8967907E+001	4.868563511205139E+000	1.8397908E-001	-1.4651312E-002	2.0564237E+000	2.1726120E-001	1.000000000000000E+000	10	1.0257122E-002	5.5358018E-004	0	8.417186319840968E-007	8.4490530E-002	6.0691580E-004	2.7173038E+001	1.0963467E+000	9.7534442E-001	-5.0067890E-001	-1.6621000E+001	1.9304537E+001	1.8497952E+001	5.5218620E+000	5.1039778E-002	1.7542431E-002	5.3970322E-002	1.8967907E+001	-3.618414525440637E-007
8.6846787E+003	1.8802130E+001	6.5653520E+000	1.9915419E+001	-1.9248247E+001	5.269528863573214E+000	1.8403293E-001	-1.4264182E-002	2.7913117E+000	3.0335104E-001	1.000000000000000E+000	10	1.0242657E-002	5.1430787E-004	0	-3.586571608679757E-006	8.5254312E-002	5.0554198E-004	1.2372109E+001	9.8295593E-001	9.6012843E-001	-2.1060801E-001	-1.7825693E+001	2.0758844E+001	1.9762259E+001	6.3547440E+000	4.7405433E-002	1.6553091E-002	5.0212350E-002	1.9248247E+001	-4.428290240663854E-006
5.8640142E+003	1.9860598E+001	7.0544753E+000	2.1076265E+001	-1.9555016E+001	5.536534982937155E+000	1.8392302E-001	-1.7889813E-002	3.8473384E+000	4.3102506E-001	1.000000000000000E+000	10	1.0848633E-002	5.1473221E-004	0	-2.576138733086635E-006	8.3631270E-002	6.1787933E-004	2.5078218E+000	1.2003899E+000	1.1992402E+000	-5.2523986E-002	-1.8390877E+001	2.2193335E+001	2.1059837E+001	7.0019512E+000	4.4710033E-002	1.5880983E-002	4.7446735E-002	1.9555016E+001	1.010432875593122E-006
3.9600762E+003	2.0860397E+001	8.3285198E+000	2.2461533E+001	-2.1764368E+001	6.004819085224881E+000	1.8397154E-001	-1.5559585E-002	4.8255715E+000	6.6344607E-001	1.000000000000000E+000	10	1.0143212E-002	4.5158147E-004	0	-2.443841520347633E-006	8.5693493E-002	5.0806015E-004	-5.1627336E+000	1.1250687E+000	1.1205044E+000	1.0123909E-001	-2.0982008E+001	2.3541897E+001	2.1980902E+001	8.4297590E+000	4.1346982E-002	1.6507793E-002	4.4520561E-002	2.1764368E+001	1.322972127390028E-007
2.6787200E+003	2.2012747E+001	1.0177459E+001	2.4251633E+001	-2.4813171E+001	6.446092226164183E+000	1.8395987E-001	-1.5235737E-002	5.8378572E+000	1.0281351E+000	1.000000000000000E+000	10	1.0254785E-002	4.2284929E-004	0	-2.811210020687819E-006	8.6132668E-002	4.8555023E-004	-1.5146807E+001	1.1482821E+000	1.1083901E+000	3.0003822E-001	-2.4377974E+001	2.5384344E+001	2.3121138E+001	1.0477497E+001	3.7427627E-002	1.7304434E-002	4.1234337E-002	2.4813171E+001	-3.673685003401868E-007
1.8082643E+003	2.3143597E+001	1.3002293E+001	2.6545916E+001	-2.9327692E+001	6.904051741264993E+000	1.8402725E-001	-1.4740657E-002	6.7692146E+000	1.6239878E+000	1.000000000000000E+000	10	1.0226513E-002	3.8523867E-004	0	-6.605542363560138E-006	8.5655302E-002	5.1878550E-004	-2.7938974E+001	1.3466600E+000	1.1897029E+000	6.3095176E-001	-2.9260649E+001	2.7892200E+001	2.4333300E+001	1.3633245E+001	3.2842439E-002	1.8451195E-002	3.7670579E-002	2.9327692E+001	-3.794332342872319E-006
1.2219551E+003	2.4942663E+001	1.7203463E+001	3.0300093E+001	-3.4594818E+001	7.360580136213684E+000	1.8400578E-001	-1.4666209E-002	7.5709262E+000	2.4405789E+000	1.000000000000000E+000	10	1.0246150E-002	3.3815575E-004	0	-7.105535529904753E-006	8.7832093E-002	5.6641013E-004	-3.7364445E+001	1.6749978E+000	1.3312738E+000	1.0165273E+000	-3.4739857E+001	3.1973236E+001	2.6273937E+001	1.8219990E+001	2.7167829E-002	1.8738203E-002	3.3003200E-002	3.4594818E+001	-4.999931663446148E-007
8.2526404E+002	2.7505121E+001	2.3056372E+001	3.5890499E+001	-3.9971672E+001	8.072803930117516E+000	1.8399566E-001	-2.1830711E-003	8.3644276E+000	3.4519076E+000	1.000000000000000E+000	11	1.0812774E-002	3.0127121E-004	0	-8.699698677758634E-006	8.6800985E-002	5.5493769E-004	-5.1777935E+001	1.8419871E+000	1.1396576E+000	1.4470996E+000	-4.0544521E+001	3.7695404E+001	2.8644779E+001	2.4503471E+001	2.1352787E-002	1.7899131E-002	2.7862526E-002	3.9971672E+001	-1.594163147853881E-006
5.5803571E+002	3.1095901E+001	3.0814068E+001	4.3777412E+001	-4.4739174E+001	8.531559018505504E+000	1.8397948E-001	-2.2858407E-003	9.2556963E+000	4.5857143E+000	1.000000000000000E+000	11	1.0530179E-002	2.4053910E-004	0	-7.961178168037602E-006	8.7526575E-002	5.7928608E-004	-5.4407337E+001	2.4082823E+000	1.4016657E+000	1.9583557E+000	-4.5241276E+001	4.6153259E+001	3.2497566E+001	3.2772423E+001	1.6225683E-002	1.6078623E-002	2.2842830E-002	4.4739174E+001	7.385205097210321E-007
3.7705118E+002	3.6864536E+001	4.0865345E+001	5.5036083E+001	-4.7946449E+001	8.986832826863974E+000	1.8403606E-001	-2.3048313E-003	1.0329151E+001	5.6948195E+000	1.000000000000000E+000	11	1.0375987E-002	1.8853061E-004	0	-8.063004540885838E-006	8.6457275E-002	6.1637460E-004	-6.2391075E+001	3.2693608E+000	1.5151333E+000	2.8970833E+000	-4.8749222E+001	5.8207809E+001	3.8379669E+001	4.3762428E+001	1.2170650E-002	1.3491496E-002	1.8169899E-002	4.7946449E+001	-1.018263728482357E-007
2.5475545E+002	4.4488789E+001	5.4007313E+001	6.9971725E+001	-5.0519844E+001	9.445061568607343E+000	1.8396814E-001	-2.2113735E-003	1.1567622E+001	6.8913460E+000	1.000000000000000E+000	11	1.0277998E-002	1.4688788E-004	0	-7.448742811766958E-006	8.7832093E-002	6.2732433E-004	-6.5619591E+001	4.2707701E+000	1.7629443E+000	3.8899233E+000	-5.1380074E+001	7.4103394E+001	4.6251732E+001	5.7897236E+001	9.0866834E-003	1.1030810E-002	1.4291487E-002	5.0519844E+001	6.142617291188800E-007
1.7203688E+002	5.5226665E+001	6.9693306E+001	8.8922112E+001	-5.1605843E+001	9.897497296769870E+000	1.8401861E-001	-2.1920118E-003	1.3274175E+001	8.1539888E+000	1.000000000000000E+000	11	1.0192853E-002	1.1462676E-004	0	-7.305498212604208E-006	8.8538595E-002	6.8669120E-004	-7.5173264E+001	5.9906712E+000	1.5329938E+000	5.7912064E+000	-5.3059109E+001	9.4443481E+001	5.6759659E+001	7.5484512E+001	6.9844029E-003	8.8139698E-003	1.1245796E-002	5.1605843E+001	1.432445991627500E-007
1.1622738E+002	6.9181656E+001	9.0099609E+001	1.1359595E+002	-5.2481674E+001	1.034980841159995E+001	1.8400402E-001	-2.2158427E-003	1.5198082E+001	9.5611219E+000	1.000000000000000E+000	11	1.0201482E-002	8.9804977E-005	0	-7.571336895201562E-006	8.9359663E-002	8.1854797E-004	-7.6518051E+001	9.1147280E+000	2.1249988E+000	8.8635569E+000	-5.4225842E+001	1.2197683E+002	7.1306656E+001	9.8963165E+001	5.3612394E-003	6.9822781E-003	8.8031301E-003	5.2481674E+001	-2.658386825973543E-007
7.8517616E+001	8.7787025E+001	1.1385899E+002	1.4377216E+002	-5.2367229E+001	1.081569416707498E+001	1.8401809E-001	-2.1015320E-003	1.7802692E+001	1.1165310E+001	1.000000000000000E+000	11	1.0174341E-002	7.0767121E-005	0	-7.532838894488021E-006	9.1631927E-002	8.9618738E-004	-7.9445557E+001	1.2663895E+001	2.3196423E+000	1.2449638E+001	-5.4496513E+001	1.5515503E+002	9.0106667E+001	1.2630863E+002	4.2469855E-003	5.5083027E-003	6.9554499E-003	5.2367229E+001	3.849800071354064E-008
5.3047844E+001	1.1060275E+002	1.4153198E+002	1.7962257E+002	-5.1993504E+001	1.128821978947963E+001	1.8401749E-001	-2.1923857E-003	2.1198141E+001	1.3160886E+001	1.000000000000000E+000	11	1.0150914E-002	5.6512461E-005	0	-8.009514827360262E-006	9.0238020E-002	1.0252357E-003	-8.1263626E+001	1.8141764E+001	2.7555230E+000	1.7931276E+001	-5.4591972E+001	1.9564925E+002	1.1335827E+002	1.5946326E+002	3.4280256E-003	4.3866476E-003	5.5672289E-003	5.1993504E+001	-4.766759328722402E-007
3.5837154E+001	1.3933495E+002	1.8060628E+002	2.2810712E+002	-5.2350372E+001	1.198615606260137E+001	1.8401596E-001	-5.5491744E-004	2.4589731E+001	1.5414938E+001	1.000000000000000E+000	12	1.0270122E-002	4.5023244E-005	0	-8.180859476581745E-006	9.0543531E-002	1.1682569E-003	-7.8832886E+001	2.5947861E+001	5.0253539E+000	2.5456577E+001	-5.4986282E+001	2.5159848E+002	1.4436031E+002	2.0606285E+002	2.6778262E-003	3.4710045E-003	4.3839053E-003	5.2350372E+001	-1.713446492214839E-007
2.4232319E+001	1.7144302E+002	2.2665590E+002	2.8419290E+002	-5.2896057E+001	1.245724771168898E+001	1.8398377E-001	-6.9936574E-004	2.8977314E+001	1.8431715E+001	1.000000000000000E+000	12	1.0180254E-002	3.5821631E-005	0	-8.053977892169415E-006	8.9512423E-002	1.3362385E-003	-8.1560463E+001	3.7302559E+001	5.4747334E+000	3.6898621E+001	-5.6127495E+001	3.1742853E+002	1.7691776E+002	2.6355450E+002	2.1227233E-003	2.8063417E-003	3.5187367E-003	5.2896057E+001	1.268815844123302E-007
1.6366972E+001	2.1419713E+002	2.8326239E+002	3.5513095E+002	-5.2904186E+001	1.287919581172173E+001	1.8400906E-001	-6.3052977E-004	3.4329136E+001	2.1840555E+001	1.000000000000000E+000	12	1.0133713E-002	2.8535147E-005	0	-8.098984704482973E-006	9.0276204E-002	1.6009236E-003	-8.3405121E+001	5.6103569E+001	6.4434037E+000	5.5732334E+001	-5.6941219E+001	4.0447455E+002	2.2064053E+002	3.3899472E+002	1.6983867E-003	2.2460108E-003	2.8158627E-003	5.2904186E+001	-4.500681231355818E-008
1.1050212E+001	2.6386838E+002	3.6535904E+002	4.5068143E+002	-5.4162556E+001	1.329681121824251E+001	1.8402854E-001	-6.7937421E-004	3.9421188E+001	2.5907772E+001	1.000000000000000E+000	12	1.0162097E-002	2.2548295E-005	0	-8.225904052949166E-006	9.2357524E-002	1.7426687E-003	-8.2379852E+001	7.7286057E+001	1.0248510E+001	7.6603539E+001	-5.8191715E+001	5.2006824E+002	2.7411688E+002	4.4196259E+002	1.2991164E-003	1.7987903E-003	2.2188623E-003	5.4162556E+001	-1.269193484661924E-007
7.4689322E+000	3.3622995E+002	4.6553442E+002	5.7425854E+002	-5.4161484E+001	1.361667790011415E+001	1.8398762E-001	-5.6184281E-004	4.5773045E+001	3.0081430E+001	1.000000000000000E+000	12	1.0186855E-002	1.7739143E-005	0	-8.195353602988892E-006	9.1364600E-002	1.9781154E-003	-8.4431374E+001	1.1151133E+002	1.0820823E+001	1.1098507E+002	-5.8953075E+001	6.7291821E+002	3.4705078E+002	5.7651947E+002	1.0195804E-003	1.4116819E-003	1.7413759E-003	5.4161484E+001	3.055044996027395E-008
5.0468345E+000	4.2450479E+002	6.0098633E+002	7.3579132E+002	-5.4764648E+001	1.407098130835220E+001	1.8402164E-001	-5.3503813E-004	5.2473076E+001	3.5007118E+001	1.000000000000000E+000	12	1.0270662E-002	1.3958661E-005	0	-8.435104911177606E-006	9.4782546E-002	2.2995945E-003	-7.9515656E+001	1.6474319E+002	2.9977802E+001	1.6199275E+002	-5.9219074E+001	8.8808307E+002	4.5448260E+002	7.6297906E+002	7.8410329E-004	1.1100825E-003	1.3590810E-003	5.4764648E+001	-2.397513081887145E-007
3.4085953E+000	5.2363342E+002	7.5111536E+002	9.1562341E+002	-5.5118061E+001	1.507240276920493E+001	1.8398614E-001	-4.1372352E-004	6.2163868E+001	4.1832859E+001	1.000000000000000E+000	13	1.0093126E-002	1.1023229E-005	0	-8.466370077611500E-006	9.1345504E-002	2.5362272E-003	-8.2462318E+001	2.3008026E+002	3.0181501E+001	2.2809210E+002	-6.0508598E+001	1.1249703E+003	5.5381494E+002	9.7920746E+002	6.2458793E-004	8.9592749E-004	1.0921521E-003	5.5118061E+001	-3.126516643389356E-008
2.3032136E+000	6.8763251E+002	9.7733179E+002	1.1949962E+003	-5.4870491E+001	1.602130604095873E+001	1.8400112E-001	-4.2421720E-004	7.0703987E+001	4.7292786E+001	1.000000000000000E+000	13	1.0162998E-002	8.5046277E-006	0	-8.465455065598589E-006	9.0390772E-002	2.7750146E-003	-8.3498192E+001	3.2629465E+002	3.6947853E+001	3.2419601E+002	-6.0894646E+001	1.4896279E+003	7.2458038E+002	1.3015278E+003	4.8153001E-004	6.8439834E-004	8.3682273E-004	5.4870491E+001	9.150120129105779E-010
1.5562749E+000	8.9268274E+002	1.2552948E+003	1.5403401E+003	-5.4582077E+001	1.740713632010738E+001	1.8399620E-001	-4.7763510E-004	8.1468201E+001	5.4106113E+001	1.000000000000000E+000	13	1.0167756E-002	6.6009811E-006	0	-8.727277584302960E-006	9.2758514E-002	3.0327928E-003	-8.2531845E+001	4.5944577E+002	5.9716511E+001	4.5554840E+002	-6.0896008E+001	1.9580728E+003	9.5239923E+002	1.7108433E+003	3.7623907E-004	5.2906922E-004	6.4920727E-004	5.4582077E+001	-2.618225187043709E-007
1.0523305E+000	1.1456743E+003	1.5670898E+003	1.9412213E+003	-5.3830059E+001	1.943910889662220E+001	1.8400474E-001	-5.2172033E-004	9.6510391E+001	6.2894367E+001	1.000000000000000E+000	13	1.0153061E-002	5.2302439E-006	0	-9.179991820690122E-006	9.7589456E-002	3.3257257E-003	-7.9848534E+001	6.3586438E+002	1.1207175E+002	6.2591010E+002	-6.0164539E+001	2.5280771E+003	1.2577461E+003	2.1930000E+003	3.0402624E-004	4.1585678E-004	5.1513960E-004	5.3830059E+001	-4.527142363871613E-007
7.1035653E-001	1.4904202E+003	1.9670237E+003	2.4679009E+003	-5.2848675E+001	2.389647550831432E+001	1.8401127E-001	-5.4896955E-004	1.1390273E+002	7.2359894E+001	1.000000000000000E+000	14	1.0164254E-002	4.1185831E-006	0	-9.998954053984437E-006	1.0177118E-001	3.9213416E-003	-7.7227516E+001	9.5210938E+002	2.1049252E+002	9.2855005E+002	-5.9569248E+001	3.3581917E+003	1.7009127E+003	2.8955737E+003	2.4471089E-004	3.2296404E-004	4.0520265E-004	5.2848675E+001	-8.189622332943150E-007
4.8035541E-001	1.9603993E+003	2.4322893E+003	3.1239712E+003	-5.1131554E+001	2.830573502446350E+001	1.8400334E-001	-5.8030483E-004	1.3622043E+002	8.2576912E+001	1.000000000000000E+000	14	1.0154040E-002	3.2503629E-006	0	-1.067951657099957E-005	1.0394797E-001	4.6518920E-003	-7.6359207E+001	1.4311917E+003	3.3752374E+002	1.3908225E+003	-5.8991570E+001	4.4605645E+003	2.2979231E+003	3.8231118E+003	2.0087713E-004	2.4923048E-004	3.2010538E-004	5.1131554E+001	-6.805625170151307E-007
3.2443938E-001	2.5256453E+003	2.9756799E+003	3.9030188E+003	-4.9676655E+001	3.481824498708011E+001	1.8401006E-001	-5.9524353E-004	1.6485432E+002	9.5823387E+001	1.000000000000000E+000	14	1.0156373E-002	2.6021839E-006	0	-1.157370426837287E-005	1.0327967E-001	5.4499255E-003	-7.8417389E+001	2.0943660E+003	4.2050812E+002	2.0517168E+003	-5.9628857E+001	5.8270518E+003	2.9461533E+003	5.0273965E+003	1.6579486E-004	1.9533720E-004	2.5621193E-004	4.9676655E+001	-8.941876973733031E-007
2.1883753E-001	3.2451580E+003	3.5920513E+003	4.8408555E+003	-4.7904476E+001	4.445761715165190E+001	1.8400873E-001	-6.2341738E-004	2.0246773E+002	1.1147991E+002	1.000000000000000E+000	14	1.0144301E-002	2.0955595E-006	0	-1.293520032549748E-005	1.0352789E-001	6.0986257E-003	-8.0875999E+001	2.9102612E+003	4.6148511E+002	2.8734390E+003	-6.0174503E+001	7.4526348E+003	3.7066431E+003	6.4654902E+003	1.3848144E-004	1.5328452E-004	2.0657506E-004	4.7904476E+001	-1.361496057124606E-006
