EC-Lab ASCII FILE
Nb header lines : 65                          

Potentio Electrochemical Impedance Spectroscopy

Run on channel : 5 (SN 39658)
User : 
CE vs. WE compliance from -10 V to 10 V
Electrode connection : standard
Potential control : Ewe
Ewe ctrl range : min = -2.50 V, max = 2.50 V
Safety Limits :
	Do not start on E overload
Acquisition started on : 06/19/2024 15:35:49.269
Technique started on : 06/19/2024 15:35:50.807
Loaded Setting File :  NONE
Saved on :
	File : 2024-6-19 FeOx on FTO_1_03mg_01_PEIS_C05.mpr
	Directory : C:\Users\sfolkman\OneDrive - New Mexico State University\Folkman Group Folder\Scott\
	Host : 172.24.124.15
Device : VSP (SN 1910)
Address : USB
EC-Lab for windows v11.46 (software)
Internet server v11.40 (firmware)
Command interpretor v11.40 (firmware)
Electrode material : 
Initial state : 
Electrolyte : 
Comments : 
Current amplifier : VSPB-4A
Electrode surface area : 0.001 cm²
Characteristic mass : 0.001 g
Equivalent Weight : 0.000 g/eq.
Density : 0.000 g/cm3
Volume (V) : 0.001 cm³
Cycle Definition : Charge/Discharge alternance
Mode                Single sine         
E (V)               0.0000              
vs.                 Eoc                 
tE (h:m:s)          0:00:0.0000         
record              0                   
dI                  0.000               
unit dI             mA                  
dt (s)              0.000               
fi                  200.000             
unit fi             kHz                 
ff                  100.000             
unit ff             mHz                 
Nd                  6                   
Points              per decade          
spacing             Logarithmic         
Va (mV)             10.0                
pw                  0.10                
Na                  2                   
corr                0                   
E range min (V)     -2.500              
E range max (V)     2.500               
I Range             Auto                
Bandwidth           4                   
nc cycles           0                   
goto Ns'            0                   
nr cycles           0                   
inc. cycle          0                   

freq/Hz	Re(Z)/Ohm	-Im(Z)/Ohm	|Z|/Ohm	Phase(Z)/deg	time/s	<Ewe>/V	<I>/mA	Cs/µF	Cp/µF	cycle number	I Range	|Ewe|/V	|I|/A	Ns	(Q-Qo)/mA.h	Re(Y)/Ohm-1	Im(Y)/Ohm-1	|Y|/Ohm-1	Phase(Y)/deg	Re(C)/nF	Im(C)/nF	|C|/nF	Phase(C)/deg	Re(M)	Im(M)	|M|	Phase(M)/deg	Re(Permittivity)	Im(Permittivity)	|Permittivity|	Phase(Permittivity)/deg	Re(Resistivity)/Ohm.cm	Im(Resistivity)/Ohm.cm	|Resistivity|/Ohm.cm	Phase(Resistivity)/deg	Re(Conductivity)/mS/cm	Im(Conductivity)/mS/cm	|Conductivity|/mS/cm	Phase(Conductivity)/deg	Tan(Delta)	Loss Angle(Delta)/deg	dq/mA.h	
1.9999814E+005	9.2865191E+000	1.5815984E+001	1.8340796E+001	-5.9580231E+001	1.538483193056891E+000	4.2779211E-002	-1.3212599E-002	5.0315056E-002	3.7415713E-002	1.000000000000000E+000	10	9.3660997E-003	5.1067030E-004	0	-6.123402554231385E-006	2.7606837E-002	4.7017537E-002	5.4523263E-002	5.9580231E+001	3.7415710E+001	2.1969025E+001	4.3388634E+001	-3.0419769E+001	0.0000000E+000	0.0000000E+000	0.0000000E+000	3.0419769E+001	0.0000000E+000	0.0000000E+000	0.0000000E+000	-3.0419769E+001	0.0000000E+000	0.0000000E+000	0.0000000E+000	-5.9580231E+001	0.0000000E+000	0.0000000E+000	0.0000000E+000	5.9580231E+001	5.8716041E-001	5.9580231E+001	-6.123402554231385E-006
1.3512284E+005	1.3468680E+001	1.3813058E+001	1.9292639E+001	-4.5723206E+001	2.133476901304675E+000	4.2841796E-002	-1.3078593E-002	8.5271031E-002	4.3711722E-002	1.000000000000000E+000	10	1.0130637E-002	5.2510377E-004	0	-1.150641962700926E-005	3.6186103E-002	3.7111335E-002	5.1833242E-002	4.5723206E+001	4.3711723E+001	4.2621937E+001	6.1051979E+001	-4.4276794E+001	0.0000000E+000	0.0000000E+000	0.0000000E+000	4.4276794E+001	0.0000000E+000	0.0000000E+000	0.0000000E+000	-4.4276794E+001	0.0000000E+000	0.0000000E+000	0.0000000E+000	-4.5723206E+001	0.0000000E+000	0.0000000E+000	0.0000000E+000	4.5723206E+001	9.7506869E-001	4.5723206E+001	-5.383017072777875E-006
9.1291195E+004	1.7653887E+001	1.0333162E+001	2.0455658E+001	-3.0341269E+001	2.728476876247441E+000	4.2875644E-002	-1.2477426E-002	1.6871667E-001	4.3052420E-002	1.000000000000000E+000	10	1.0143413E-002	4.9587322E-004	0	-1.573607580329068E-005	4.2190377E-002	2.4694847E-002	4.8886228E-002	3.0341269E+001	4.3052425E+001	7.3553719E+001	8.5227112E+001	-5.9658730E+001	0.0000000E+000	0.0000000E+000	0.0000000E+000	5.9658730E+001	0.0000000E+000	0.0000000E+000	0.0000000E+000	-5.9658730E+001	0.0000000E+000	0.0000000E+000	0.0000000E+000	-3.0341269E+001	0.0000000E+000	0.0000000E+000	0.0000000E+000	3.0341269E+001	1.7084689E+000	3.0341269E+001	-4.229656176281423E-006
6.1674211E+004	1.8887020E+001	6.0068340E+000	1.9819223E+001	-1.7642761E+001	3.174499510758324E+000	4.2867161E-002	-1.2596540E-002	4.2960653E-001	3.9462890E-002	1.000000000000000E+000	10	1.0640760E-002	5.3689088E-004	0	-1.311898143501538E-005	4.8082847E-002	1.5292283E-002	5.0456062E-002	1.7642761E+001	3.9462891E+001	1.2408141E+002	1.3020567E+002	-7.2357239E+001	0.0000000E+000	0.0000000E+000	0.0000000E+000	7.2357239E+001	0.0000000E+000	0.0000000E+000	0.0000000E+000	-7.2357239E+001	0.0000000E+000	0.0000000E+000	0.0000000E+000	-1.7642761E+001	0.0000000E+000	0.0000000E+000	0.0000000E+000	1.7642761E+001	3.1442554E+000	1.7642761E+001	2.617094368275300E-006
4.1669758E+004	1.8359850E+001	3.6075227E+000	1.8710915E+001	-1.1116416E+001	3.620475051953690E+000	4.2871729E-002	-1.2864553E-002	1.0587418E+000	3.9356656E-002	1.000000000000000E+000	10	1.0498612E-002	5.6109560E-004	0	-9.860232261394332E-006	5.2441984E-002	1.0304313E-002	5.3444743E-002	1.1116416E+001	3.9356655E+001	2.0029875E+002	2.0412872E+002	-7.8883583E+001	0.0000000E+000	0.0000000E+000	0.0000000E+000	7.8883583E+001	0.0000000E+000	0.0000000E+000	0.0000000E+000	-7.8883583E+001	0.0000000E+000	0.0000000E+000	0.0000000E+000	-1.1116416E+001	0.0000000E+000	0.0000000E+000	0.0000000E+000	1.1116416E+001	5.0893235E+000	1.1116416E+001	3.258749173621052E-006
2.8150979E+004	1.7908432E+001	2.7476618E+000	1.8117990E+001	-8.7227783E+000	4.066484913142631E+000	4.2864792E-002	-1.2970644E-002	2.0576115E+000	4.7322739E-002	1.000000000000000E+000	10	1.0377238E-002	5.7275873E-004	0	-1.390292505130896E-005	5.4555371E-002	8.3703427E-003	5.5193760E-002	8.7227783E+000	4.7322739E+001	3.0843533E+002	3.1204456E+002	-8.1277222E+001	0.0000000E+000	0.0000000E+000	0.0000000E+000	8.1277222E+001	0.0000000E+000	0.0000000E+000	0.0000000E+000	-8.1277222E+001	0.0000000E+000	0.0000000E+000	0.0000000E+000	-8.7227783E+000	0.0000000E+000	0.0000000E+000	0.0000000E+000	8.7227783E+000	6.5176988E+000	8.7227783E+000	-4.042692789914630E-006
1.9020934E+004	1.7701139E+001	2.5931852E+000	1.7890079E+001	-8.3344431E+000	4.512498987634899E+000	4.2875513E-002	-1.3419194E-002	3.2266717E+000	6.7794941E-002	1.000000000000000E+000	10	1.0337215E-002	5.7781825E-004	0	-1.430427174264292E-005	5.5306565E-002	8.1023127E-003	5.5896901E-002	8.3344431E+000	6.7794945E+001	4.6276981E+002	4.6770935E+002	-8.1665558E+001	0.0000000E+000	0.0000000E+000	0.0000000E+000	8.1665558E+001	0.0000000E+000	0.0000000E+000	0.0000000E+000	-8.1665558E+001	0.0000000E+000	0.0000000E+000	0.0000000E+000	-8.3344431E+000	0.0000000E+000	0.0000000E+000	0.0000000E+000	8.3344431E+000	6.8260221E+000	8.3344431E+000	-4.013466913339562E-007
1.2850729E+004	1.7677759E+001	2.7719264E+000	1.7893763E+001	-8.9115887E+000	4.958491248806240E+000	4.2863764E-002	-1.3078593E-002	4.4679742E+000	1.0721875E-001	1.000000000000000E+000	10	1.0352158E-002	5.7853444E-004	0	-1.879526040700471E-005	5.5210780E-002	8.6572189E-003	5.5885397E-002	8.9115887E+000	1.0721877E+002	6.8377979E+002	6.9213483E+002	-8.1088409E+001	0.0000000E+000	0.0000000E+000	0.0000000E+000	8.1088409E+001	0.0000000E+000	0.0000000E+000	0.0000000E+000	-8.1088409E+001	0.0000000E+000	0.0000000E+000	0.0000000E+000	-8.9115887E+000	0.0000000E+000	0.0000000E+000	0.0000000E+000	8.9115887E+000	6.3774271E+000	8.9115887E+000	-4.490988664361793E-006
8.6833721E+003	1.7690266E+001	3.3354442E+000	1.8001963E+001	-1.0677588E+001	5.432003644673387E+000	4.2905670E-002	-1.2069819E-002	5.4951310E+000	1.8864517E-001	1.000000000000000E+000	10	1.0158402E-002	5.6429411E-004	0	-2.029216086456533E-005	5.4587677E-002	1.0292336E-002	5.5549499E-002	1.0677588E+001	1.8864517E+002	1.0005213E+003	1.0181502E+003	-7.9322411E+001	0.0000000E+000	0.0000000E+000	0.0000000E+000	7.9322411E+001	0.0000000E+000	0.0000000E+000	0.0000000E+000	-7.9322411E+001	0.0000000E+000	0.0000000E+000	0.0000000E+000	-1.0677588E+001	0.0000000E+000	0.0000000E+000	0.0000000E+000	1.0677588E+001	5.3037210E+000	1.0677588E+001	-1.496900457560618E-006
5.8650859E+003	1.7772020E+001	4.3162460E+000	1.8288649E+001	-1.3650980E+001	6.069863488315605E+000	4.2823501E-002	-1.6650248E-002	6.2869434E+000	3.5017788E-001	1.000000000000000E+000	10	1.0111907E-002	5.5290619E-004	0	-2.107854879606101E-005	5.3134128E-002	1.2904554E-002	5.4678727E-002	1.3650980E+001	3.5017786E+002	1.4418475E+003	1.4837617E+003	-7.6349022E+001	0.0000000E+000	0.0000000E+000	0.0000000E+000	7.6349022E+001	0.0000000E+000	0.0000000E+000	0.0000000E+000	-7.6349022E+001	0.0000000E+000	0.0000000E+000	0.0000000E+000	-1.3650980E+001	0.0000000E+000	0.0000000E+000	0.0000000E+000	1.3650980E+001	4.1174717E+000	1.3650980E+001	-7.863879314956821E-007
3.9611973E+003	1.7846987E+001	6.0090117E+000	1.8831440E+001	-1.8608183E+001	6.544954897544812E+000	4.2898212E-002	-1.4954688E-002	6.6863737E+000	6.8081588E-001	1.000000000000000E+000	10	1.0578205E-002	5.6173105E-004	0	-2.562672181667747E-005	5.0326627E-002	1.6944783E-002	5.3102683E-002	1.8608183E+001	6.8081598E+002	2.0220481E+003	2.1335859E+003	-7.1391815E+001	0.0000000E+000	0.0000000E+000	0.0000000E+000	7.1391815E+001	0.0000000E+000	0.0000000E+000	0.0000000E+000	-7.1391815E+001	0.0000000E+000	0.0000000E+000	0.0000000E+000	-1.8608183E+001	0.0000000E+000	0.0000000E+000	0.0000000E+000	1.8608183E+001	2.9700370E+000	1.8608183E+001	-4.548173020616461E-006
2.6774299E+003	1.7942917E+001	8.5309649E+000	1.9867702E+001	-2.5428764E+001	7.018928040051833E+000	4.2901233E-002	-1.5014247E-002	6.9679313E+000	1.2847092E+000	1.000000000000000E+000	10	1.0804169E-002	5.4380565E-004	0	-3.031874002473261E-005	4.5456681E-002	2.1612393E-002	5.0332945E-002	2.5428764E+001	1.2847092E+003	2.7020896E+003	2.9919502E+003	-6.4571236E+001	0.0000000E+000	0.0000000E+000	0.0000000E+000	6.4571236E+001	0.0000000E+000	0.0000000E+000	0.0000000E+000	-6.4571236E+001	0.0000000E+000	0.0000000E+000	0.0000000E+000	-2.5428764E+001	0.0000000E+000	0.0000000E+000	0.0000000E+000	2.5428764E+001	2.1032693E+000	2.5428764E+001	-4.692018208055135E-006
1.8082643E+003	1.7963879E+001	1.2419812E+001	2.1839247E+001	-3.4659088E+001	7.492950542567996E+000	4.2903151E-002	-1.4615951E-002	7.0866861E+000	2.2919121E+000	1.000000000000000E+000	10	1.0854181E-002	4.9700344E-004	0	-3.426700293869686E-005	3.7663862E-002	2.6039924E-002	4.5789126E-002	3.4659088E+001	2.2919119E+003	3.3149961E+003	4.0301438E+003	-5.5340912E+001	0.0000000E+000	0.0000000E+000	0.0000000E+000	5.5340912E+001	0.0000000E+000	0.0000000E+000	0.0000000E+000	-5.5340912E+001	0.0000000E+000	0.0000000E+000	0.0000000E+000	-3.4659088E+001	0.0000000E+000	0.0000000E+000	0.0000000E+000	3.4659088E+001	1.4463890E+000	3.4659088E+001	-3.948262913964247E-006
1.2219551E+003	1.8089392E+001	1.8162346E+001	2.5633902E+001	-4.5115303E+001	7.966435151669430E+000	4.2903524E-002	-1.5554002E-002	7.1712184E+000	3.6000407E+000	1.000000000000000E+000	10	1.0816607E-002	4.2196488E-004	0	-3.857266711639952E-005	2.7529260E-002	2.7640285E-002	3.9010838E-002	4.5115303E+001	3.6000408E+003	3.5855803E+003	5.0810117E+003	-4.4884697E+001	0.0000000E+000	0.0000000E+000	0.0000000E+000	4.4884697E+001	0.0000000E+000	0.0000000E+000	0.0000000E+000	-4.4884697E+001	0.0000000E+000	0.0000000E+000	0.0000000E+000	-4.5115303E+001	0.0000000E+000	0.0000000E+000	0.0000000E+000	4.5115303E+001	9.9598324E-001	4.5115303E+001	-4.305664177702664E-006
8.2526404E+002	1.8266010E+001	2.6798891E+001	3.2431892E+001	-5.5721825E+001	8.935667704441585E+000	4.2892393E-002	-1.7550541E-003	7.1963181E+000	4.9135957E+000	1.000000000000000E+000	11	1.0217544E-002	3.1504617E-004	0	-3.650423021776300E-005	1.7365972E-002	2.5478404E-002	3.0833846E-002	5.5721825E+001	4.9135962E+003	3.3490862E+003	5.9464111E+003	-3.4278175E+001	0.0000000E+000	0.0000000E+000	0.0000000E+000	3.4278175E+001	0.0000000E+000	0.0000000E+000	0.0000000E+000	-3.4278175E+001	0.0000000E+000	0.0000000E+000	0.0000000E+000	-5.5721825E+001	0.0000000E+000	0.0000000E+000	0.0000000E+000	5.5721825E+001	6.8159574E-001	5.5721825E+001	2.068436898636519E-006
5.5803571E+002	1.8594059E+001	3.9425087E+001	4.3589867E+001	-6.4750023E+001	9.411467700352659E+000	4.2882882E-002	-1.8159350E-003	7.2341161E+000	5.9177923E+000	1.000000000000000E+000	11	9.7889649E-003	2.2456974E-004	0	-3.684260095930444E-005	9.7859530E-003	2.0749211E-002	2.2941113E-002	6.4750023E+001	5.9177925E+003	2.7910093E+003	6.5429351E+003	-2.5249977E+001	0.0000000E+000	0.0000000E+000	0.0000000E+000	2.5249977E+001	0.0000000E+000	0.0000000E+000	0.0000000E+000	-2.5249977E+001	0.0000000E+000	0.0000000E+000	0.0000000E+000	-6.4750023E+001	0.0000000E+000	0.0000000E+000	0.0000000E+000	6.4750023E+001	4.7163013E-001	6.4750023E+001	-3.383707415414392E-007
3.7705118E+002	1.9083849E+001	5.8163456E+001	6.1214222E+001	-7.1834961E+001	9.882653376094822E+000	4.2902220E-002	-1.8354860E-003	7.2572083E+000	6.5518713E+000	1.000000000000000E+000	11	9.5317569E-003	1.5571147E-004	0	-3.809493084376602E-005	5.0928555E-003	1.5521922E-002	1.6336072E-002	7.1834961E+001	6.5518716E+003	2.1497168E+003	6.8955278E+003	-1.8165039E+001	0.0000000E+000	0.0000000E+000	0.0000000E+000	1.8165039E+001	0.0000000E+000	0.0000000E+000	0.0000000E+000	-1.8165039E+001	0.0000000E+000	0.0000000E+000	0.0000000E+000	-7.1834961E+001	0.0000000E+000	0.0000000E+000	0.0000000E+000	7.1834961E+001	3.2810721E-001	7.1834961E+001	-1.252329884461586E-006
2.5475545E+002	2.0224489E+001	8.5464897E+001	8.7825272E+001	-7.6686386E+001	1.035696662525879E+001	4.2898118E-002	-1.7829856E-003	7.3098569E+000	6.9222207E+000	1.000000000000000E+000	11	9.3860086E-003	1.0687139E-004	0	-3.775889099708709E-005	2.6220353E-003	1.1080230E-002	1.1386245E-002	7.6686386E+001	6.9222202E+003	1.6380802E+003	7.1133984E+003	-1.3313614E+001	0.0000000E+000	0.0000000E+000	0.0000000E+000	1.3313614E+001	0.0000000E+000	0.0000000E+000	0.0000000E+000	-1.3313614E+001	0.0000000E+000	0.0000000E+000	0.0000000E+000	-7.6686386E+001	0.0000000E+000	0.0000000E+000	0.0000000E+000	7.6686386E+001	2.3664089E-001	7.6686386E+001	3.360398466789331E-007
1.7203688E+002	2.1929525E+001	1.2566155E+002	1.2756069E+002	-8.0100853E+001	1.082638558084727E+001	4.2884167E-002	-1.8637866E-003	7.3620057E+000	7.1444249E+000	1.000000000000000E+000	11	9.3185212E-003	7.3051669E-005	0	-3.750341568691652E-005	1.3477070E-003	7.7226921E-003	7.8394059E-003	8.0100853E+001	7.1444243E+003	1.2467921E+003	7.2523989E+003	-9.8991470E+000	0.0000000E+000	0.0000000E+000	0.0000000E+000	9.8991470E+000	0.0000000E+000	0.0000000E+000	0.0000000E+000	-9.8991470E+000	0.0000000E+000	0.0000000E+000	0.0000000E+000	-8.0100853E+001	0.0000000E+000	0.0000000E+000	0.0000000E+000	8.0100853E+001	1.7451261E-001	8.0100853E+001	2.554753101705729E-007
1.1622738E+002	2.5343870E+001	1.8378041E+002	1.8551968E+002	-8.2148262E+001	1.129563954987316E+001	4.2890284E-002	-1.8976709E-003	7.4509645E+000	7.3119116E+000	1.000000000000000E+000	11	9.2945658E-003	5.0100160E-005	0	-3.748080570070669E-005	7.3636480E-004	5.3397291E-003	5.3902636E-003	8.2148262E+001	7.3119121E+003	1.0083347E+003	7.3811108E+003	-7.8517380E+000	0.0000000E+000	0.0000000E+000	0.0000000E+000	7.8517380E+000	0.0000000E+000	0.0000000E+000	0.0000000E+000	-7.8517380E+000	0.0000000E+000	0.0000000E+000	0.0000000E+000	-8.2148262E+001	0.0000000E+000	0.0000000E+000	0.0000000E+000	8.2148262E+001	1.3790300E-001	8.2148262E+001	2.260998620982533E-008
7.8517616E+001	3.0141167E+001	2.6901791E+002	2.7070117E+002	-8.3607155E+001	1.204454054540838E+001	4.2894460E-002	-2.6335978E-004	7.5348020E+000	7.4413881E+000	1.000000000000000E+000	12	9.3781790E-003	3.4644028E-005	0	-3.751142758266577E-005	4.1132010E-004	3.6711397E-003	3.6941103E-003	8.3607155E+001	7.4413877E+003	8.3374445E+002	7.4879492E+003	-6.3928452E+000	0.0000000E+000	0.0000000E+000	0.0000000E+000	6.3928452E+000	0.0000000E+000	0.0000000E+000	0.0000000E+000	-6.3928452E+000	0.0000000E+000	0.0000000E+000	0.0000000E+000	-8.3607155E+001	0.0000000E+000	0.0000000E+000	0.0000000E+000	8.3607155E+001	1.1204149E-001	8.3607155E+001	-3.062188195908041E-008
5.3047844E+001	3.4709698E+001	3.9013858E+002	3.9167957E+002	-8.4915916E+001	1.253311883527203E+001	4.2899348E-002	-2.1334313E-004	7.6901264E+000	7.6297350E+000	1.000000000000000E+000	12	9.3320478E-003	2.3825720E-005	0	-3.758512017882544E-005	2.2625025E-004	2.5430629E-003	2.5531074E-003	8.4915916E+001	7.6297354E+003	6.7879944E+002	7.6598716E+003	-5.0840836E+000	0.0000000E+000	0.0000000E+000	0.0000000E+000	5.0840836E+000	0.0000000E+000	0.0000000E+000	0.0000000E+000	-5.0840836E+000	0.0000000E+000	0.0000000E+000	0.0000000E+000	-8.4915916E+001	0.0000000E+000	0.0000000E+000	0.0000000E+000	8.4915916E+001	8.8967614E-002	8.4915916E+001	-7.369259615966789E-008
3.5837154E+001	4.1487999E+001	5.7616919E+002	5.7766095E+002	-8.5881432E+001	1.299709704398992E+001	4.2873483E-002	-2.3445209E-004	7.7079091E+000	7.6681504E+000	1.000000000000000E+000	12	9.2851911E-003	1.6073773E-005	0	-3.760856795456447E-005	1.2433018E-004	1.7266488E-003	1.7311192E-003	8.5881432E+001	7.6681504E+003	5.5215778E+002	7.6880044E+003	-4.1185684E+000	0.0000000E+000	0.0000000E+000	0.0000000E+000	4.1185684E+000	0.0000000E+000	0.0000000E+000	0.0000000E+000	-4.1185684E+000	0.0000000E+000	0.0000000E+000	0.0000000E+000	-8.5881432E+001	0.0000000E+000	0.0000000E+000	0.0000000E+000	8.5881432E+001	7.2006628E-002	8.5881432E+001	-2.344777573902337E-008
2.4232319E+001	4.7228359E+001	8.3106854E+002	8.3240942E+002	-8.6747467E+001	1.348407360046986E+001	4.2906489E-002	-1.6265630E-004	7.9029331E+000	7.8774929E+000	1.000000000000000E+000	12	9.2897322E-003	1.1160052E-005	0	-3.769333985635538E-005	6.8159876E-005	1.1993967E-003	1.2013318E-003	8.6747467E+001	7.8774932E+003	4.4766586E+002	7.8902031E+003	-3.2525330E+000	0.0000000E+000	0.0000000E+000	0.0000000E+000	3.2525330E+000	0.0000000E+000	0.0000000E+000	0.0000000E+000	-3.2525330E+000	0.0000000E+000	0.0000000E+000	0.0000000E+000	-8.6747467E+001	0.0000000E+000	0.0000000E+000	0.0000000E+000	8.6747467E+001	5.6828476E-002	8.6747467E+001	-8.477190179091368E-008
1.6366972E+001	5.3036213E+001	1.2281588E+003	1.2293035E+003	-8.7527306E+001	1.392303380797966E+001	4.2872604E-002	-2.1133313E-004	7.9176679E+000	7.9029298E+000	1.000000000000000E+000	12	9.2800232E-003	7.5490088E-006	0	-3.768462481434047E-005	3.5095698E-005	8.1271137E-004	8.1346877E-004	8.7527306E+001	7.9029302E+003	3.4127597E+002	7.9102954E+003	-2.4726944E+000	0.0000000E+000	0.0000000E+000	0.0000000E+000	2.4726944E+000	0.0000000E+000	0.0000000E+000	0.0000000E+000	-2.4726944E+000	0.0000000E+000	0.0000000E+000	0.0000000E+000	-8.7527306E+001	0.0000000E+000	0.0000000E+000	0.0000000E+000	8.7527306E+001	4.3183513E-002	8.7527306E+001	8.715042014907518E-009
1.1050212E+001	5.9539783E+001	1.8130743E+003	1.8140516E+003	-8.8119133E+001	1.460371469365782E+001	4.2878609E-002	-8.9955902E-006	7.9439034E+000	7.9353461E+000	1.000000000000000E+000	13	9.3069691E-003	5.1304874E-006	0	-3.772870693438330E-005	1.8092884E-005	5.5095524E-004	5.5125222E-004	8.8119133E+001	7.9353452E+003	2.6058975E+002	7.9396230E+003	-1.8808670E+000	0.0000000E+000	0.0000000E+000	0.0000000E+000	1.8808670E+000	0.0000000E+000	0.0000000E+000	0.0000000E+000	-1.8808670E+000	0.0000000E+000	0.0000000E+000	0.0000000E+000	-8.8119133E+001	0.0000000E+000	0.0000000E+000	0.0000000E+000	8.8119133E+001	3.2839131E-002	8.8119133E+001	-4.408212004282987E-008
