EC-Lab ASCII FILE
Nb header lines : 66                          

Potentio Electrochemical Impedance Spectroscopy

Run on channel : 5 (SN 39658)
User : 
CE vs. WE compliance from -10 V to 10 V
Electrode connection : standard
Potential control : Ewe
Ewe ctrl range : min = -2.50 V, max = 2.50 V
Safety Limits :
	Do not start on E overload
Acquisition started on : 06/26/2024 16:18:27.404
Technique started on : 06/26/2024 16:18:29.198
Loaded Setting File :  NONE
Saved on :
	File : 2024-6-26 Ni45Co45Fe10Ox on FTO_1_07mg_01_PEIS_C05.mpr
	Directory : C:\Users\sfolkman\OneDrive - New Mexico State University\Folkman Group Folder\Scott\
	Host : 172.24.124.15
Device : VSP (SN 1910)
Address : USB
EC-Lab for windows v11.46 (software)
Internet server v11.40 (firmware)
Command interpretor v11.40 (firmware)
Electrode material : 
Initial state : 
Electrolyte : 
Comments : 
Current amplifier : VSPB-4A
Electrode surface area : 0.000 cm²
Characteristic mass : 0.001 g
Equivalent Weight : 0.000 g/eq.
Density : 0.000 g/cm3
Volume (V) : 0.001 cm³
Record Ece
Cycle Definition : Charge/Discharge alternance
Mode                Single sine         
E (V)               0.0000              
vs.                 Eoc                 
tE (h:m:s)          0:00:0.0000         
record              0                   
dI                  0.000               
unit dI             mA                  
dt (s)              0.000               
fi                  200.000             
unit fi             kHz                 
ff                  100.000             
unit ff             mHz                 
Nd                  6                   
Points              per decade          
spacing             Logarithmic         
Va (mV)             10.0                
pw                  0.10                
Na                  2                   
corr                0                   
E range min (V)     -2.500              
E range max (V)     2.500               
I Range             Auto                
Bandwidth           4                   
nc cycles           0                   
goto Ns'            0                   
nr cycles           0                   
inc. cycle          0                   

freq/Hz	Re(Z)/Ohm	-Im(Z)/Ohm	|Z|/Ohm	Phase(Z)/deg	time/s	<Ewe>/V	<I>/mA	Cs/µF	Cp/µF	cycle number	I Range	|Ewe|/V	|I|/A	Ns	(Q-Qo)/mA.h	<Ece>/V	|Ece|/V	Phase(Zce)/deg	|Zce|/Ohm	Re(Zce)/Ohm	-Im(Zce)/Ohm	Phase(Zwe-ce)/deg	|Zwe-ce|/Ohm	Re(Zwe-ce)/Ohm	-Im(Zwe-ce)/Ohm	Re(Y)/Ohm-1	Im(Y)/Ohm-1	|Y|/Ohm-1	Phase(Y)/deg	dq/mA.h	
1.9999814E+005	6.5949917E+000	1.3569057E+001	1.5086856E+001	-6.4078781E+001	1.793525338493055E+000	2.3764601E-001	-1.3564363E-002	5.8646832E-002	4.7440182E-002	1.000000000000000E+000	10	9.6800374E-003	6.4162060E-004	0	-1.094376087622044E-006	1.7773837E-002	1.1131749E-002	5.1714558E+001	1.7349424E+001	1.0749350E+001	-1.3618150E+001	1.6217557E-001	1.7344410E+001	1.7344341E+001	-4.9093246E-002	2.8974552E-002	5.9614535E-002	6.6282861E-002	6.4078781E+001	-1.094376087622044E-006
1.3512284E+005	8.7986307E+000	1.2267632E+001	1.5096711E+001	-5.4351028E+001	2.328541203896748E+000	2.3779204E-001	-1.3620202E-002	9.6013129E-002	6.3399725E-002	1.000000000000000E+000	10	1.0132323E-002	6.7116093E-004	0	-2.930631963549078E-006	5.9733456E-003	9.6018482E-003	5.2031651E+001	1.4306328E+001	8.8016262E+000	-1.1278404E+001	-3.2169404E+000	1.7628036E+001	1.7600258E+001	9.8922729E-001	3.8605612E-002	5.3826489E-002	6.6239595E-002	5.4351028E+001	-1.836255875927034E-006
9.1291195E+004	1.1299540E+001	1.2150583E+001	1.6592657E+001	-4.7078445E+001	2.863544989289949E+000	2.3774981E-001	-1.4364686E-002	1.4348091E-001	7.6940760E-002	1.000000000000000E+000	10	1.0194469E-002	6.1439641E-004	0	4.582515109931895E-006	7.2908765E-003	7.7887075E-003	5.8984016E+001	1.2677007E+001	6.5321717E+000	-1.0864494E+001	-4.1252403E+000	1.7878029E+001	1.7831711E+001	1.2860889E+000	4.1042034E-002	4.4133183E-002	6.0267624E-002	4.7078445E+001	7.513147073480973E-006
6.1674211E+004	1.6182865E+001	1.1031461E+001	1.9585154E+001	-3.4281292E+001	3.398533734696684E+000	2.3780297E-001	-1.4308850E-002	2.3392870E-001	7.4215665E-002	1.000000000000000E+000	10	1.0255387E-002	5.2363065E-004	0	-5.198491227292430E-006	1.2790134E-002	5.0356253E-003	7.6049072E+001	9.6167507E+000	2.3185096E+000	-9.3330812E+000	-5.2449083E+000	1.8579165E+001	1.8501375E+001	1.6983795E+000	4.2189214E-002	2.8759349E-002	5.1059082E-002	3.4281292E+001	-9.781006337224324E-006
4.1669758E+004	1.8481024E+001	7.5029364E+000	1.9945984E+001	-2.2096197E+001	3.799557487101993E+000	2.3770671E-001	-1.4323741E-002	5.0905871E-001	7.2031006E-002	1.000000000000000E+000	10	1.0481969E-002	5.2551780E-004	0	-1.162561113546447E-005	9.3721924E-003	2.8912530E-003	8.7611778E+001	5.5017223E+000	2.2925815E-001	-5.4969435E+000	-6.1194997E+000	1.8817509E+001	1.8710281E+001	2.0059929E+000	4.6453141E-002	1.8859074E-002	5.0135408E-002	2.2096197E+001	-6.427119908172043E-006
2.8150979E+004	1.8794966E+001	5.1697965E+000	1.9493011E+001	-1.5379599E+001	4.200517239485634E+000	2.3787738E-001	-1.3568090E-002	1.0935867E+000	7.6920517E-002	1.000000000000000E+000	10	1.0252686E-002	5.2596728E-004	0	-1.795932474173929E-005	8.9521101E-003	1.6476234E-003	8.0210022E+001	3.1325588E+000	5.3265148E-001	-3.0869415E+000	-6.1507845E+000	1.9439524E+001	1.9327618E+001	2.0828550E+000	4.9463362E-002	1.3605533E-002	5.1300436E-002	1.5379599E+001	-6.333713606274817E-006
1.9020934E+004	1.8984867E+001	4.1014128E+000	1.9422842E+001	-1.2190598E+001	4.601540351839503E+000	2.3784706E-001	-8.3827712E-003	2.0401158E+000	9.0969592E-002	1.000000000000000E+000	10	1.0362265E-002	5.3350918E-004	0	-1.500693819229168E-005	7.3099709E-003	1.1277930E-003	6.6730804E+001	2.1139150E+000	8.3510560E-001	-1.9419668E+000	-6.2180219E+000	1.9937265E+001	1.9819973E+001	2.1594460E+000	5.0324794E-002	1.0871963E-002	5.1485769E-002	1.2190598E+001	2.952386549447612E-006
1.2850729E+004	1.9441256E+001	3.5012698E+000	1.9754021E+001	-1.0209236E+001	5.002555970888352E+000	2.3778470E-001	-1.3393139E-002	3.5372586E+000	1.1112377E-001	1.000000000000000E+000	10	1.0192493E-002	5.1597058E-004	0	-1.709967562129572E-005	1.0116884E-002	7.3764334E-004	4.3029797E+001	1.4296229E+000	1.0450528E+000	-9.7554404E-001	-7.0284419E+000	2.0641418E+001	2.0486309E+001	2.5257258E+000	4.9821101E-002	8.9725219E-003	5.0622605E-002	1.0209236E+001	-2.092737429004045E-006
8.6846787E+003	1.9629942E+001	3.7378089E+000	1.9982639E+001	-1.0780840E+001	5.403524283290608E+000	2.3772405E-001	-1.2912948E-002	4.9028578E+000	1.7154488E-001	1.000000000000000E+000	10	1.0124225E-002	5.0665106E-004	0	-1.526081058844122E-005	9.5249498E-003	5.8051781E-004	2.7665453E+001	1.1457942E+000	1.0147998E+000	-5.3200150E-001	-8.8266478E+000	2.0892164E+001	2.0644741E+001	3.2058074E+000	4.9160164E-002	9.3607660E-003	5.0043438E-002	1.0780840E+001	1.838865032854502E-006
5.8640142E+003	1.9926647E+001	3.8957264E+000	2.0303890E+001	-1.1061990E+001	5.670544909284217E+000	2.3780227E-001	-1.6787976E-002	6.9668536E+000	2.5648093E-001	1.000000000000000E+000	10	1.0825914E-002	5.3319411E-004	0	-1.583866891635827E-005	9.2767198E-003	6.6905812E-004	8.3639383E+000	1.2548115E+000	1.2414654E+000	-1.8252532E-001	-9.9493065E+000	2.1491320E+001	2.1168112E+001	3.7132010E+000	4.8336558E-002	9.4499588E-003	4.9251646E-002	1.1061990E+001	-5.778583279170539E-007
3.9600762E+003	2.0332279E+001	4.3766251E+000	2.0797991E+001	-1.2147846E+001	6.139854718290735E+000	2.3769802E-001	-1.5656367E-002	9.1828451E+000	4.0664288E-001	1.000000000000000E+000	10	1.0076245E-002	4.8448169E-004	0	-1.605518266424284E-005	8.3219875E-003	6.5026345E-004	-5.5053167E+000	1.3421837E+000	1.3359926E+000	1.2876658E-001	-1.1745906E+001	2.2131710E+001	2.1668272E+001	4.5053916E+000	4.7004919E-002	1.0118046E-002	4.8081569E-002	1.2147846E+001	-2.165137478845687E-007
2.6787200E+003	2.0745054E+001	5.4041882E+000	2.1437410E+001	-1.4601309E+001	6.581125752563821E+000	2.3777097E-001	-1.4986333E-002	1.0994167E+001	6.9868052E-001	1.000000000000000E+000	10	1.0240643E-002	4.7769965E-004	0	-1.857834282576126E-005	9.6395174E-003	6.4875232E-004	-9.7441168E+000	1.3580757E+000	1.3384833E+000	2.2985202E-001	-1.4312222E+001	2.2790899E+001	2.2083538E+001	5.6340404E+000	4.5140874E-002	1.1759418E-002	4.6647426E-002	1.4601309E+001	-2.523160161518416E-006
1.8082643E+003	2.1512924E+001	7.3716040E+000	2.2740854E+001	-1.8914501E+001	7.039027934340993E+000	2.3784482E-001	-1.4792768E-002	1.1939777E+001	1.2546041E+000	1.000000000000000E+000	10	1.0415388E-002	4.5800337E-004	0	-2.166537630355904E-005	6.2215761E-003	6.1063783E-004	-2.7843182E+001	1.3332605E+000	1.1789080E+000	6.2270355E-001	-1.9407305E+001	2.4058847E+001	2.2691832E+001	7.9943075E+000	4.1599289E-002	1.4254384E-002	4.3973722E-002	1.8914501E+001	-3.087033477797780E-006
1.2219551E+003	2.2088097E+001	9.6694832E+000	2.4111883E+001	-2.3642313E+001	7.494606489336547E+000	2.3777828E-001	-1.4904441E-002	1.3469815E+001	2.1662366E+000	1.000000000000000E+000	10	1.0318602E-002	4.2794674E-004	0	-2.442739355044452E-005	8.1310403E-003	6.6015410E-004	-3.7675625E+001	1.5426080E+000	1.2209491E+000	9.4282717E-001	-2.4479168E+001	2.5611183E+001	2.3309046E+001	1.0612310E+001	3.7992336E-002	1.6631868E-002	4.1473325E-002	2.3642313E+001	-2.762017246885484E-006
8.2526404E+002	2.3202719E+001	1.3290751E+001	2.6739676E+001	-2.9804518E+001	7.952791444418835E+000	2.3781252E-001	-1.3341030E-002	1.4510342E+001	3.5847962E+000	1.000000000000000E+000	10	1.0332900E-002	3.8642579E-004	0	-2.454174721125552E-005	8.2456088E-003	7.3268503E-004	-4.6554241E+001	1.8960563E+000	1.3038564E+000	1.3765856E+000	-3.0900784E+001	2.8560514E+001	2.4506575E+001	1.4667337E+001	3.2450888E-002	1.8588198E-002	3.7397612E-002	2.9804518E+001	-1.143536608109969E-007
5.5803571E+002	2.4791594E+001	1.7948492E+001	3.0606722E+001	-3.5903595E+001	8.668540491693420E+000	2.3776008E-001	-1.5798621E-003	1.5890229E+001	5.4645257E+000	1.000000000000000E+000	11	1.0759128E-002	3.5152829E-004	0	-2.730835747491478E-005	7.7491477E-003	8.5462671E-004	-5.2545208E+001	2.4311748E+000	1.4784831E+000	1.9299479E+000	-3.7114616E+001	3.2943428E+001	2.6270077E+001	1.9878441E+001	2.6464934E-002	1.9159948E-002	3.2672562E-002	3.5903595E+001	-2.766610263659258E-006
3.7705118E+002	2.6759659E+001	2.4684153E+001	3.6405861E+001	-4.2689648E+001	9.123754193366040E+000	2.3777507E-001	-1.8326902E-003	1.7100216E+001	7.8613191E+000	1.000000000000000E+000	11	1.0609682E-002	2.9142786E-004	0	-2.608097754075586E-005	8.3410814E-003	9.2419848E-004	-6.3485767E+001	3.1712770E+000	1.4157218E+000	2.8377333E+000	-4.4327778E+001	3.9386623E+001	2.8175381E+001	2.7521885E+001	2.0190075E-002	1.8624112E-002	2.7468104E-002	4.2689648E+001	1.227379934158916E-006
2.5475545E+002	2.9518179E+001	3.4025295E+001	4.5044907E+001	-4.9057175E+001	9.582092561788158E+000	2.3782091E-001	-1.8680644E-003	1.8360933E+001	1.0476282E+001	1.000000000000000E+000	11	1.0498422E-002	2.3306569E-004	0	-2.530691702904409E-005	7.9209991E-003	1.0472237E-003	-6.7507683E+001	4.4932556E+000	1.7189378E+000	4.1514573E+000	-5.0709164E+001	4.9327698E+001	3.1237116E+001	3.8176754E+001	1.4547829E-002	1.6769130E-002	2.2200068E-002	4.9057175E+001	7.740605117117706E-007
1.7203688E+002	3.2995941E+001	4.6629688E+001	5.7123199E+001	-5.4716145E+001	1.003453140993952E+001	2.3779431E-001	-1.8870552E-003	1.9839745E+001	1.3220140E+001	1.000000000000000E+000	11	1.0380563E-002	1.8172237E-004	0	-2.593808122158387E-005	9.0093939E-003	1.1389755E-003	-7.1399590E+001	6.2676682E+000	1.9991739E+000	5.9402838E+000	-5.6348835E+001	6.3152672E+001	3.4995113E+001	5.2569973E+001	1.0111962E-002	1.4290173E-002	1.7506022E-002	5.4716145E+001	-6.311641925397774E-007
1.1622738E+002	3.8999268E+001	6.3828907E+001	7.4800217E+001	-5.8575195E+001	1.048678068477602E+001	2.3783830E-001	-1.7816820E-003	2.1453310E+001	1.5621524E+001	1.000000000000000E+000	11	1.0365737E-002	1.3857897E-004	0	-2.681730668378077E-005	8.0737565E-003	1.2022726E-003	-7.4444336E+001	8.6757221E+000	2.3266070E+000	8.3579340E+000	-6.0209518E+001	8.3179131E+001	4.1325874E+001	7.2186844E+001	6.9702887E-003	1.1408058E-002	1.3368946E-002	5.8575195E+001	-8.792254621969024E-007
7.8517616E+001	4.5291862E+001	8.8236824E+001	9.9182106E+001	-6.2828621E+001	1.095262150691633E+001	2.3782729E-001	-1.6144974E-003	2.2972231E+001	1.8181774E+001	1.000000000000000E+000	11	1.0327809E-002	1.0412976E-004	0	-2.680282039600247E-005	9.0093939E-003	1.3508910E-003	-7.5564713E+001	1.2973150E+001	3.2340298E+000	1.2563585E+001	-6.4293571E+001	1.1187263E+002	4.8525894E+001	1.0080041E+002	4.6041934E-003	8.9698089E-003	1.0082464E-002	6.2828621E+001	1.448628777830506E-008
5.3047844E+001	5.5360348E+001	1.2060236E+002	1.3270154E+002	-6.5343361E+001	1.142525960932835E+001	2.3772894E-001	-1.8986012E-003	2.4876917E+001	2.0547373E+001	1.000000000000000E+000	11	1.0299359E-002	7.7612953E-005	0	-2.662731897044675E-005	7.3672547E-003	1.4276135E-003	-8.1151466E+001	1.8394012E+001	2.8294203E+000	1.8175095E+001	-6.7251564E+001	1.5048334E+002	5.8189770E+001	1.3877747E+002	3.1437420E-003	6.8486333E-003	7.5357077E-003	6.5343361E+001	1.755014255557204E-007
3.5837154E+001	6.8011696E+001	1.6567365E+002	1.7909033E+002	-6.7681061E+001	1.212324673580588E+001	2.3781532E-001	-3.6690835E-006	2.6806074E+001	2.2940125E+001	1.000000000000000E+000	12	1.0397441E-002	5.8056965E-005	0	-2.619237909550672E-005	8.0355676E-003	1.4928718E-003	-7.8205864E+001	2.5713913E+001	5.2558174E+000	2.5171049E+001	-6.8997620E+001	2.0442560E+002	7.3267517E+001	1.9084470E+002	2.1205051E-003	5.1654615E-003	5.5837743E-003	6.7681061E+001	4.349398749400281E-007
2.4232319E+001	8.4720886E+001	2.2876732E+002	2.4395105E+002	-6.9678574E+001	1.259424734485219E+001	2.3775768E-001	-2.7112177E-004	2.8709867E+001	2.5247231E+001	1.000000000000000E+000	12	1.0341271E-002	4.2390762E-005	0	-2.597350489848314E-005	8.6656902E-003	1.5094092E-003	-8.2792633E+001	3.5607029E+001	4.4672880E+000	3.5325684E+001	-7.1339401E+001	2.7874658E+002	8.9188171E+001	2.6409302E+002	1.4235902E-003	3.8440460E-003	4.0991828E-003	6.9678574E+001	2.188741970235747E-007
1.6366972E+001	1.1377739E+002	3.1813452E+002	3.3786813E+002	-7.0320953E+001	1.301613240488223E+001	2.3790136E-001	-2.1125801E-004	3.0566168E+001	2.7099928E+001	1.000000000000000E+000	12	1.0429099E-002	3.0867366E-005	0	-2.613986669993351E-005	9.8877484E-003	1.5081851E-003	-8.5079979E+001	4.8860180E+001	4.1904974E+000	4.8680149E+001	-7.2172165E+001	3.8531729E+002	1.1796789E+002	3.6681467E+002	9.9669339E-004	2.7868676E-003	2.9597345E-003	7.0320953E+001	-1.663618014503696E-007
1.1050212E+001	1.3930086E+002	4.3789725E+002	4.5952011E+002	-7.2353447E+001	1.343382871808717E+001	2.3782583E-001	-2.2320874E-004	3.2891018E+001	2.9868452E+001	1.000000000000000E+000	12	1.0342955E-002	2.2508166E-005	0	-2.617113107534492E-005	7.0617404E-003	1.6464852E-003	-8.0926056E+001	7.3150574E+001	1.1536506E+001	7.2235138E+001	-7.3527962E+001	5.3196521E+002	1.5083736E+002	5.1013239E+002	6.5969746E-004	2.0737823E-003	2.1761833E-003	7.2353447E+001	-3.126437541141160E-008
7.4689322E+000	1.8401738E+002	6.0322174E+002	6.3066541E+002	-7.3035271E+001	1.375370539995492E+001	2.3781677E-001	-1.7622604E-004	3.5325199E+001	3.2317711E+001	1.000000000000000E+000	12	1.0332910E-002	1.6384140E-005	0	-2.627881607656061E-005	1.1415320E-002	1.6752862E-003	-8.0268738E+001	1.0225049E+002	1.7283112E+001	1.0077924E+002	-7.4042763E+001	7.3221533E+002	2.0130049E+002	7.0400098E+002	4.6265891E-004	1.5166276E-003	1.5856269E-003	7.3035271E+001	-1.076850012156901E-007
5.0468345E+000	2.3428410E+002	8.3441504E+002	8.6668188E+002	-7.4316505E+001	1.446101874019951E+001	2.3771837E-001	7.0028818E-006	3.7793659E+001	3.5031906E+001	1.000000000000000E+000	13	1.0331487E-002	1.1920738E-005	0	-2.617026490839766E-005	6.4698067E-003	1.9306524E-003	-8.6735031E+001	1.6195746E+002	9.2240705E+000	1.6169458E+002	-7.6262932E+001	1.0254417E+003	2.4350818E+002	9.9610962E+002	3.1190581E-004	1.1108685E-003	1.1538259E-003	7.4316505E+001	1.085511681629522E-007
3.4085953E+000	3.1240729E+002	1.1431826E+003	1.1851012E+003	-7.4715485E+001	1.511444138453226E+001	2.3777835E-001	-1.5485006E-004	4.0844074E+001	3.8005760E+001	1.000000000000000E+000	13	1.0284699E-002	8.6783302E-006	0	-2.611339885827586E-005	4.6749096E-003	1.8895145E-003	-8.2266464E+001	2.1772789E+002	2.9298807E+001	2.1574757E+002	-7.5885468E+001	1.4012332E+003	3.4170609E+002	1.3589302E+003	2.2243870E-004	8.1396312E-004	8.4380980E-004	7.4715485E+001	5.686605012179881E-008
2.3032136E+000	4.3721030E+002	1.6129773E+003	1.6711818E+003	-7.4833946E+001	1.606330985625391E+001	2.3782407E-001	-6.0048187E-006	4.2840809E+001	3.9908630E+001	1.000000000000000E+000	13	1.0294304E-002	6.1598948E-006	0	-2.622072798066529E-005	8.3410814E-003	1.9868906E-003	-8.1649368E+001	3.2255267E+002	4.6844528E+001	3.1913290E+002	-7.5935089E+001	1.9918230E+003	4.8405481E+002	1.9321102E+003	1.5654633E-004	5.7753839E-004	5.9837895E-004	7.4833946E+001	-1.073291223894244E-007
1.5562749E+000	6.6882764E+002	2.1983535E+003	2.2978442E+003	-7.3078125E+001	1.744884128212288E+001	2.3782440E-001	-1.0196259E-004	4.6519634E+001	4.2578484E+001	1.000000000000000E+000	13	1.0299811E-002	4.4823801E-006	0	-2.629489043228275E-005	9.5249498E-003	2.0475402E-003	-7.8795364E+001	4.5679755E+002	8.8762032E+001	4.4809073E+002	-7.4025330E+001	2.7527458E+003	7.5758966E+002	2.6464443E+003	1.2666981E-004	4.1634784E-004	4.3519051E-004	7.3078125E+001	-7.416245161746533E-008
1.0523305E+000	8.4115424E+002	3.1013027E+003	3.2133501E+003	-7.4824966E+001	2.048720470638364E+001	2.3782027E-001	-1.3765298E-005	4.8766750E+001	4.5425117E+001	1.000000000000000E+000	14	1.0314609E-002	3.2099238E-006	0	-2.621235455353407E-005	8.9330161E-003	2.1169134E-003	-8.0011284E+001	6.5949023E+002	1.1439140E+002	6.4949365E+002	-7.5707466E+001	3.8705996E+003	9.5554565E+002	3.7507964E+003	8.1462851E-005	3.0035031E-004	3.1120170E-004	7.4824966E+001	8.253587874868689E-008
7.1035653E-001	1.1969722E+003	4.2494038E+003	4.4147681E+003	-7.4268532E+001	2.347993740858510E+001	2.3780584E-001	2.8236386E-006	5.2724899E+001	4.8849033E+001	1.000000000000000E+000	14	1.0280344E-002	2.3286261E-006	0	-2.611107027760358E-005	6.8135103E-003	2.1835181E-003	-7.8181320E+001	9.3768518E+002	1.9205211E+002	9.1780688E+002	-7.4953720E+001	5.3506504E+003	1.3890243E+003	5.1672109E+003	6.1414132E-005	2.1802798E-004	2.2651246E-004	7.4268532E+001	1.012842759304877E-007
4.8035541E-001	1.7516848E+003	5.9658965E+003	6.2177422E+003	-7.3636894E+001	2.789030231136712E+001	2.3780811E-001	-1.7526532E-005	5.5536915E+001	5.1129051E+001	1.000000000000000E+000	14	1.0271687E-002	1.6519963E-006	0	-2.604749455282702E-005	7.8064320E-003	2.2442245E-003	-7.7022514E+001	1.3584924E+003	3.0507416E+002	1.3237943E+003	-7.4243782E+001	7.5742891E+003	2.0567590E+003	7.2896909E+003	4.5309640E-005	1.5431576E-004	1.6083008E-004	7.3636894E+001	6.357572477655741E-008
3.2443938E-001	2.6685508E+003	8.2135117E+003	8.6361416E+003	-7.2001144E+001	3.440282336738892E+001	2.3781154E-001	-1.5088608E-005	5.9725208E+001	5.4022659E+001	1.000000000000000E+000	14	1.0276806E-002	1.1899765E-006	0	-2.605356619139891E-005	6.4507117E-003	2.2727740E-003	-7.3985245E+001	1.9099319E+003	5.2692139E+002	1.8358087E+003	-7.2360435E+001	1.0545136E+004	3.1954722E+003	1.0049320E+004	3.5779634E-005	1.1012587E-004	1.1579245E-004	7.2001144E+001	-6.071638571888337E-009
2.1883753E-001	3.9805403E+003	1.1182129E+004	1.1869486E+004	-7.0405624E+001	4.404312937191571E+001	2.3780791E-001	-2.4114301E-005	6.5038994E+001	5.7724339E+001	1.000000000000000E+000	14	1.0274932E-002	8.6565933E-007	0	-2.615864866121165E-005	8.1310403E-003	2.3064555E-003	-7.1037804E+001	2.6643916E+003	8.6577856E+002	2.5198035E+003	-7.0521515E+001	1.4533746E+004	4.8463188E+003	1.3701933E+004	2.8253884E-005	7.9370780E-005	8.4249645E-005	7.0405624E+001	-1.050824698127407E-007
