EC-Lab ASCII FILE
Nb header lines : 65                          

Potentio Electrochemical Impedance Spectroscopy

Run on channel : 5 (SN 39658)
User : 
CE vs. WE compliance from -10 V to 10 V
Electrode connection : standard
Potential control : Ewe
Ewe ctrl range : min = -10.00 V, max = 10.00 V
Safety Limits :
	Do not start on E overload
Acquisition started on : 06/18/2024 16:23:40.482
Technique started on : 06/18/2024 16:23:42.019
Loaded Setting File :  NONE
Saved on :
	File : 2024-6-18 FTO blank_KOH9999_CV_C05.mpr
	Directory : C:\Users\sfolkman\OneDrive - New Mexico State University\Folkman Group Folder\Scott\
	Host : 172.24.124.15
Device : VSP (SN 1910)
Address : USB
EC-Lab for windows v11.46 (software)
Internet server v11.40 (firmware)
Command interpretor v11.40 (firmware)
Electrode material : 
Initial state : 
Electrolyte : 
Comments : 
Current amplifier : VSPB-4A
Electrode surface area : 0.001 cm²
Characteristic mass : 0.001 g
Equivalent Weight : 0.000 g/eq.
Density : 0.000 g/cm3
Volume (V) : 0.001 cm³
Cycle Definition : Charge/Discharge alternance
Mode                Single sine         
E (V)               0.0000              
vs.                 Eoc                 
tE (h:m:s)          0:00:0.0000         
record              0                   
dI                  0.000               
unit dI             mA                  
dt (s)              0.000               
fi                  200.000             
unit fi             kHz                 
ff                  100.000             
unit ff             mHz                 
Nd                  6                   
Points              per decade          
spacing             Logarithmic         
Va (mV)             10.0                
pw                  0.10                
Na                  2                   
corr                0                   
E range min (V)     -10.000             
E range max (V)     10.000              
I Range             Auto                
Bandwidth           4                   
nc cycles           0                   
goto Ns'            0                   
nr cycles           0                   
inc. cycle          0                   

freq/Hz	Re(Z)/Ohm	-Im(Z)/Ohm	|Z|/Ohm	Phase(Z)/deg	time/s	<Ewe>/V	<I>/mA	Cs/µF	Cp/µF	cycle number	I Range	|Ewe|/V	|I|/A	Ns	(Q-Qo)/mA.h	Re(Y)/Ohm-1	Im(Y)/Ohm-1	|Y|/Ohm-1	Phase(Y)/deg	Re(C)/nF	Im(C)/nF	|C|/nF	Phase(C)/deg	Re(M)	Im(M)	|M|	Phase(M)/deg	Re(Permittivity)	Im(Permittivity)	|Permittivity|	Phase(Permittivity)/deg	Re(Resistivity)/Ohm.cm	Im(Resistivity)/Ohm.cm	|Resistivity|/Ohm.cm	Phase(Resistivity)/deg	Re(Conductivity)/mS/cm	Im(Conductivity)/mS/cm	|Conductivity|/mS/cm	Phase(Conductivity)/deg	Tan(Delta)	Loss Angle(Delta)/deg	dq/mA.h	
1.9999814E+005	9.9427452E+000	1.5977527E+001	1.8818596E+001	-5.8106174E+001	1.537474019656656E+000	-1.1221428E-001	-1.3182818E-002	4.9806342E-002	3.5902880E-002	1.000000000000000E+000	10	1.0702522E-002	5.6872057E-004	0	-3.250115744821313E-006	2.8075784E-002	4.5116469E-002	5.3138927E-002	5.8106174E+001	3.5902878E+001	2.2342207E+001	4.2287006E+001	-3.1893826E+001	0.0000000E+000	0.0000000E+000	0.0000000E+000	3.1893826E+001	0.0000000E+000	0.0000000E+000	0.0000000E+000	-3.1893826E+001	0.0000000E+000	0.0000000E+000	0.0000000E+000	-5.8106174E+001	0.0000000E+000	0.0000000E+000	0.0000000E+000	5.8106174E+001	6.2229562E-001	5.8106174E+001	-3.250115744821313E-006
1.3512284E+005	1.4403191E+001	1.3611099E+001	1.9817011E+001	-4.3380421E+001	2.132480954605853E+000	-1.1212905E-001	-1.2929696E-002	8.6536266E-002	4.0823314E-002	1.000000000000000E+000	10	1.0180950E-002	5.1374803E-004	0	-7.857878003883849E-006	3.6676038E-002	3.4659073E-002	5.0461698E-002	4.3380421E+001	4.0823315E+001	4.3199005E+001	5.9436497E+001	-4.6619579E+001	0.0000000E+000	0.0000000E+000	0.0000000E+000	4.6619579E+001	0.0000000E+000	0.0000000E+000	0.0000000E+000	-4.6619579E+001	0.0000000E+000	0.0000000E+000	0.0000000E+000	-4.3380421E+001	0.0000000E+000	0.0000000E+000	0.0000000E+000	4.3380421E+001	1.0581945E+000	4.3380421E+001	-4.607762259062536E-006
9.1291195E+004	1.8293226E+001	9.4267397E+000	2.0579250E+001	-2.7262648E+001	2.727499622880714E+000	-1.1214028E-001	-1.3130709E-002	1.8493952E-001	3.8805533E-002	1.000000000000000E+000	10	1.0134147E-002	4.9244490E-004	0	-2.054396804014686E-006	4.3194771E-002	2.2258835E-002	4.8592634E-002	2.7262648E+001	3.8805538E+001	7.5304764E+001	8.4715271E+001	-6.2737350E+001	0.0000000E+000	0.0000000E+000	0.0000000E+000	6.2737350E+001	0.0000000E+000	0.0000000E+000	0.0000000E+000	-6.2737350E+001	0.0000000E+000	0.0000000E+000	0.0000000E+000	-2.7262648E+001	0.0000000E+000	0.0000000E+000	0.0000000E+000	2.7262648E+001	1.9405676E+000	2.7262648E+001	5.803481199869163E-006
6.1674211E+004	1.8741346E+001	5.1464930E+000	1.9435135E+001	-1.5355281E+001	3.173496310686460E+000	-1.1210560E-001	-1.3746765E-002	5.0142401E-001	3.5160318E-002	1.000000000000000E+000	10	1.0567241E-002	5.4371846E-004	0	-6.788033291562543E-006	4.9616449E-002	1.3624992E-002	5.1453207E-002	1.5355281E+001	3.5160313E+001	1.2803899E+002	1.3277887E+002	-7.4644722E+001	0.0000000E+000	0.0000000E+000	0.0000000E+000	7.4644722E+001	0.0000000E+000	0.0000000E+000	0.0000000E+000	-7.4644722E+001	0.0000000E+000	0.0000000E+000	0.0000000E+000	-1.5355281E+001	0.0000000E+000	0.0000000E+000	0.0000000E+000	1.5355281E+001	3.6415763E+000	1.5355281E+001	-4.733636487547856E-006
4.1669758E+004	1.8006989E+001	3.1130626E+000	1.8274101E+001	-9.8083906E+000	3.619478571898071E+000	-1.1209512E-001	-1.3348467E-002	1.2269061E+000	3.5605326E-002	1.000000000000000E+000	10	1.0464287E-002	5.7262939E-004	0	-1.200173309157577E-005	5.3922378E-002	9.3221441E-003	5.4722253E-002	9.8083906E+000	3.5605316E+001	2.0595302E+002	2.0900810E+002	-8.0191612E+001	0.0000000E+000	0.0000000E+000	0.0000000E+000	8.0191612E+001	0.0000000E+000	0.0000000E+000	0.0000000E+000	-8.0191612E+001	0.0000000E+000	0.0000000E+000	0.0000000E+000	-9.8083906E+000	0.0000000E+000	0.0000000E+000	0.0000000E+000	9.8083906E+000	5.7843323E+000	9.8083906E+000	-5.213699800013224E-006
2.8150979E+004	1.7571226E+001	2.3860719E+000	1.7732494E+001	-7.7331367E+000	4.065491846384248E+000	-1.1210250E-001	-1.2635626E-002	2.3694258E+000	4.2901307E-002	1.000000000000000E+000	10	1.0383652E-002	5.8557198E-004	0	-1.504159570729179E-005	5.5880778E-002	7.5882892E-003	5.6393646E-002	7.7331367E+000	4.2901318E+001	3.1592868E+002	3.1882825E+002	-8.2266861E+001	0.0000000E+000	0.0000000E+000	0.0000000E+000	8.2266861E+001	0.0000000E+000	0.0000000E+000	0.0000000E+000	-8.2266861E+001	0.0000000E+000	0.0000000E+000	0.0000000E+000	-7.7331367E+000	0.0000000E+000	0.0000000E+000	0.0000000E+000	7.7331367E+000	7.3640809E+000	7.7331367E+000	-3.039862615716022E-006
1.9020934E+004	1.7303019E+001	2.3355181E+000	1.7459929E+001	-7.6871815E+000	4.511496347578941E+000	-1.1210918E-001	-1.3173514E-002	3.5826557E+000	6.4104222E-002	1.000000000000000E+000	10	1.0297443E-002	5.8977579E-004	0	-1.384559972048737E-005	5.6759290E-002	7.6612267E-003	5.7274003E-002	7.6871815E+000	6.4104202E+001	4.7492523E+002	4.7923203E+002	-8.2312820E+001	0.0000000E+000	0.0000000E+000	0.0000000E+000	8.2312820E+001	0.0000000E+000	0.0000000E+000	0.0000000E+000	-8.2312820E+001	0.0000000E+000	0.0000000E+000	0.0000000E+000	-7.6871815E+000	0.0000000E+000	0.0000000E+000	0.0000000E+000	7.6871815E+000	7.4086423E+000	7.6871815E+000	1.195995986804418E-006
1.2850729E+004	1.7341608E+001	2.5889771E+000	1.7533800E+001	-8.4911337E+000	4.957475435425295E+000	-1.1210849E-001	-1.3724431E-002	4.7837029E+000	1.0429620E-001	1.000000000000000E+000	10	1.0300557E-002	5.8746862E-004	0	-2.019626777878794E-005	5.6407548E-002	8.4212413E-003	5.7032701E-002	8.4911337E+000	1.0429621E+002	6.9860168E+002	7.0634412E+002	-8.1508865E+001	0.0000000E+000	0.0000000E+000	0.0000000E+000	8.1508865E+001	0.0000000E+000	0.0000000E+000	0.0000000E+000	-8.1508865E+001	0.0000000E+000	0.0000000E+000	0.0000000E+000	-8.4911337E+000	0.0000000E+000	0.0000000E+000	0.0000000E+000	8.4911337E+000	6.6982470E+000	8.4911337E+000	-6.350668058300574E-006
8.6833721E+003	1.7350967E+001	3.1996028E+000	1.7643513E+001	-1.0448244E+001	5.430982257967116E+000	-1.1208594E-001	-1.2066098E-002	5.7284307E+000	1.8838994E-001	1.000000000000000E+000	10	1.0221887E-002	5.7935668E-004	0	-2.580750847238232E-005	5.5738285E-002	1.0278410E-002	5.6678057E-002	1.0448244E+001	1.8838989E+002	1.0216104E+003	1.0388352E+003	-7.9551758E+001	0.0000000E+000	0.0000000E+000	0.0000000E+000	7.9551758E+001	0.0000000E+000	0.0000000E+000	0.0000000E+000	-7.9551758E+001	0.0000000E+000	0.0000000E+000	0.0000000E+000	-1.0448244E+001	0.0000000E+000	0.0000000E+000	0.0000000E+000	1.0448244E+001	5.4228501E+000	1.0448244E+001	-5.611240693594380E-006
5.8650859E+003	1.7349634E+001	4.2778058E+000	1.7869232E+001	-1.3850838E+001	6.068850821582600E+000	-1.1212093E-001	-1.5689865E-002	6.3434377E+000	3.6354238E-001	1.000000000000000E+000	10	1.0088373E-002	5.6456670E-004	0	-2.367743745147648E-005	5.4334860E-002	1.3397052E-002	5.5962112E-002	1.3850838E+001	3.6354236E+002	1.4744305E+003	1.5185876E+003	-7.6149162E+001	0.0000000E+000	0.0000000E+000	0.0000000E+000	7.6149162E+001	0.0000000E+000	0.0000000E+000	0.0000000E+000	-7.6149162E+001	0.0000000E+000	0.0000000E+000	0.0000000E+000	-1.3850838E+001	0.0000000E+000	0.0000000E+000	0.0000000E+000	1.3850838E+001	4.0557323E+000	1.3850838E+001	2.130071020905840E-006
3.9611973E+003	1.7496748E+001	5.9607978E+000	1.8484245E+001	-1.8812965E+001	6.543958364170976E+000	-1.1208212E-001	-1.4569418E-002	6.7404561E+000	7.0096225E-001	1.000000000000000E+000	10	1.0641063E-002	5.7568285E-004	0	-2.545740363484624E-005	5.1209897E-002	1.7446203E-002	5.4100126E-002	1.8812965E+001	7.0096222E+002	2.0575366E+003	2.1736616E+003	-7.1187035E+001	0.0000000E+000	0.0000000E+000	0.0000000E+000	7.1187035E+001	0.0000000E+000	0.0000000E+000	0.0000000E+000	-7.1187035E+001	0.0000000E+000	0.0000000E+000	0.0000000E+000	-1.8812965E+001	0.0000000E+000	0.0000000E+000	0.0000000E+000	1.8812965E+001	2.9353030E+000	1.8812965E+001	-1.779966183369752E-006
2.6774299E+003	1.7627270E+001	8.5404234E+000	1.9587227E+001	-2.5850218E+001	7.017941319994861E+000	-1.1205243E-001	-1.4440996E-002	6.9602137E+000	1.3232305E+000	1.000000000000000E+000	10	1.0860804E-002	5.5448397E-004	0	-2.505934591319399E-005	4.5945093E-002	2.2260427E-002	5.1053680E-002	2.5850218E+001	1.3232305E+003	2.7311221E+003	3.0347927E+003	-6.4149780E+001	0.0000000E+000	0.0000000E+000	0.0000000E+000	6.4149780E+001	0.0000000E+000	0.0000000E+000	0.0000000E+000	-6.4149780E+001	0.0000000E+000	0.0000000E+000	0.0000000E+000	-2.5850218E+001	0.0000000E+000	0.0000000E+000	0.0000000E+000	2.5850218E+001	2.0639808E+000	2.5850218E+001	3.980577216522449E-007
1.8082643E+003	1.7696848E+001	1.2367332E+001	2.1590029E+001	-3.4947536E+001	7.491967662528623E+000	-1.1204313E-001	-1.4733206E-002	7.1167579E+000	2.3352201E+000	1.000000000000000E+000	10	1.0897635E-002	5.0475314E-004	0	-2.459139826916443E-005	3.7965532E-002	2.6531976E-002	4.6317678E-002	3.4947536E+001	2.3352202E+003	3.3415481E+003	4.0766650E+003	-5.5052464E+001	0.0000000E+000	0.0000000E+000	0.0000000E+000	5.5052464E+001	0.0000000E+000	0.0000000E+000	0.0000000E+000	-5.5052464E+001	0.0000000E+000	0.0000000E+000	0.0000000E+000	-3.4947536E+001	0.0000000E+000	0.0000000E+000	0.0000000E+000	3.4947536E+001	1.4309349E+000	3.4947536E+001	4.679476440295630E-007
1.2219551E+003	1.7863964E+001	1.8060234E+001	2.5402624E+001	-4.5313030E+001	7.965451018331805E+000	-1.1204124E-001	-1.5122202E-002	7.2117643E+000	3.6452818E+000	1.000000000000000E+000	10	1.0841414E-002	4.2678326E-004	0	-2.439903199308255E-005	2.7683480E-002	2.7987637E-002	3.9366011E-002	4.5313030E+001	3.6452820E+003	3.6056667E+003	5.1272715E+003	-4.4686970E+001	0.0000000E+000	0.0000000E+000	0.0000000E+000	4.4686970E+001	0.0000000E+000	0.0000000E+000	0.0000000E+000	-4.4686970E+001	0.0000000E+000	0.0000000E+000	0.0000000E+000	-4.5313030E+001	0.0000000E+000	0.0000000E+000	0.0000000E+000	4.5313030E+001	9.8913246E-001	4.5313030E+001	1.923662760818836E-007
8.2526404E+002	1.8315849E+001	2.6559296E+001	3.2262463E+001	-5.5409035E+001	8.934695677729906E+000	-1.1208208E-001	-1.7079515E-003	7.2612371E+000	4.9209476E+000	1.000000000000000E+000	11	1.0256069E-002	3.1789480E-004	0	-2.960559309918527E-005	1.7596733E-002	2.5516523E-002	3.0995773E-002	5.5409035E+001	4.9209473E+003	3.3935891E+003	5.9776392E+003	-3.4590965E+001	0.0000000E+000	0.0000000E+000	0.0000000E+000	3.4590965E+001	0.0000000E+000	0.0000000E+000	0.0000000E+000	-3.4590965E+001	0.0000000E+000	0.0000000E+000	0.0000000E+000	-5.5409035E+001	0.0000000E+000	0.0000000E+000	0.0000000E+000	5.5409035E+001	6.8962103E-001	5.5409035E+001	-5.206561106102727E-006
5.5803571E+002	1.8784857E+001	3.8821487E+001	4.3127472E+001	-6.4178688E+001	9.410453300253721E+000	-1.1208189E-001	-1.7669712E-003	7.3465929E+000	5.9528141E+000	1.000000000000000E+000	11	9.7951610E-003	2.2712114E-004	0	-3.046296950408820E-005	1.0099501E-002	2.0872004E-002	2.3187077E-002	6.4178688E+001	5.9528140E+003	2.8804348E+003	6.6130854E+003	-2.5821312E+001	0.0000000E+000	0.0000000E+000	0.0000000E+000	2.5821312E+001	0.0000000E+000	0.0000000E+000	0.0000000E+000	-2.5821312E+001	0.0000000E+000	0.0000000E+000	0.0000000E+000	-6.4178688E+001	0.0000000E+000	0.0000000E+000	0.0000000E+000	6.4178688E+001	4.8387781E-001	6.4178688E+001	-8.573764049029286E-007
3.7705118E+002	1.9728876E+001	5.6997589E+001	6.0315453E+001	-7.0907455E+001	9.881687642708130E+000	-1.1205551E-001	-1.8397678E-003	7.4056520E+000	6.6133137E+000	1.000000000000000E+000	11	9.5451204E-003	1.5825332E-004	0	-2.998516902014570E-005	5.4230704E-003	1.5667485E-002	1.6579499E-002	7.0907455E+001	6.6133135E+003	2.2891013E+003	6.9982783E+003	-1.9092545E+001	0.0000000E+000	0.0000000E+000	0.0000000E+000	1.9092545E+001	0.0000000E+000	0.0000000E+000	0.0000000E+000	-1.9092545E+001	0.0000000E+000	0.0000000E+000	0.0000000E+000	-7.0907455E+001	0.0000000E+000	0.0000000E+000	0.0000000E+000	7.0907455E+001	3.4613529E-001	7.0907455E+001	4.778004839424970E-007
2.5475545E+002	2.1410269E+001	8.3501144E+001	8.6202324E+001	-7.5618790E+001	1.035595961188665E+001	-1.1209538E-001	-1.7368142E-003	7.4817681E+000	7.0202270E+000	1.000000000000000E+000	11	9.3955025E-003	1.0899361E-004	0	-3.033056775238139E-005	2.8812708E-003	1.1237106E-002	1.1600615E-002	7.5618790E+001	7.0202266E+003	1.8000339E+003	7.2473237E+003	-1.4381210E+001	0.0000000E+000	0.0000000E+000	0.0000000E+000	1.4381210E+001	0.0000000E+000	0.0000000E+000	0.0000000E+000	-1.4381210E+001	0.0000000E+000	0.0000000E+000	0.0000000E+000	-7.5618790E+001	0.0000000E+000	0.0000000E+000	0.0000000E+000	7.5618790E+001	2.5640690E-001	7.5618790E+001	-3.453987322356829E-007
1.7203688E+002	2.3877497E+001	1.2246913E+002	1.2477509E+002	-7.8967590E+001	1.082440907412092E+001	-1.1208643E-001	-1.6880373E-003	7.5539122E+000	7.2772856E+000	1.000000000000000E+000	11	9.3286308E-003	7.4763564E-005	0	-3.093600747360203E-005	1.5336733E-003	7.8663062E-003	8.0144200E-003	7.8967590E+001	7.2772856E+003	1.4188335E+003	7.4143086E+003	-1.1032410E+001	0.0000000E+000	0.0000000E+000	0.0000000E+000	1.1032410E+001	0.0000000E+000	0.0000000E+000	0.0000000E+000	-1.1032410E+001	0.0000000E+000	0.0000000E+000	0.0000000E+000	-7.8967590E+001	0.0000000E+000	0.0000000E+000	0.0000000E+000	7.8967590E+001	1.9496746E-001	7.8967590E+001	-6.054397212206425E-007
1.1622738E+002	2.8354563E+001	1.7878059E+002	1.8101514E+002	-8.0987961E+001	1.129362256311288E+001	-1.1205711E-001	-1.7693964E-003	7.6593394E+000	7.4714050E+000	1.000000000000000E+000	11	9.2871552E-003	5.1305960E-005	0	-3.135922806998618E-005	8.6535298E-004	5.4562036E-003	5.5243997E-003	8.0987961E+001	7.4714043E+003	1.1849635E+003	7.5647881E+003	-9.0120392E+000	0.0000000E+000	0.0000000E+000	0.0000000E+000	9.0120392E+000	0.0000000E+000	0.0000000E+000	0.0000000E+000	-9.0120392E+000	0.0000000E+000	0.0000000E+000	0.0000000E+000	-8.0987961E+001	0.0000000E+000	0.0000000E+000	0.0000000E+000	8.0987961E+001	1.5859978E-001	8.0987961E+001	-4.232205963841491E-007
7.8517616E+001	3.4031666E+001	2.6144699E+002	2.6365259E+002	-8.2583702E+001	1.204255291863228E+001	-1.1205720E-001	-2.8197418E-004	7.7529926E+000	7.6238194E+000	1.000000000000000E+000	12	9.3925707E-003	3.5624802E-005	0	-3.129150966511002E-005	4.8957486E-004	3.7611409E-003	3.7928701E-003	8.2583702E+001	7.6238188E+003	9.9236652E+002	7.6881343E+003	-7.4162979E+000	0.0000000E+000	0.0000000E+000	0.0000000E+000	7.4162979E+000	0.0000000E+000	0.0000000E+000	0.0000000E+000	-7.4162979E+000	0.0000000E+000	0.0000000E+000	0.0000000E+000	-8.2583702E+001	0.0000000E+000	0.0000000E+000	0.0000000E+000	8.2583702E+001	1.3016661E-001	8.2583702E+001	6.771840487616035E-008
5.3047844E+001	5.0139984E+001	3.8274365E+002	3.8601389E+002	-8.2536667E+001	1.253114006182295E+001	-1.1207121E-001	-2.8383595E-004	7.8387060E+000	7.7064528E+000	1.000000000000000E+000	12	9.3345847E-003	2.4181993E-005	0	-3.118492421691998E-005	3.3649485E-004	2.5686335E-003	2.5905804E-003	8.2536667E+001	7.7064526E+003	1.0095568E+003	7.7722979E+003	-7.4633331E+000	0.0000000E+000	0.0000000E+000	0.0000000E+000	7.4633331E+000	0.0000000E+000	0.0000000E+000	0.0000000E+000	-7.4633331E+000	0.0000000E+000	0.0000000E+000	0.0000000E+000	-8.2536667E+001	0.0000000E+000	0.0000000E+000	0.0000000E+000	8.2536667E+001	1.3100147E-001	8.2536667E+001	1.065854481900375E-007
3.5837154E+001	6.5431633E+001	5.4608179E+002	5.4998785E+002	-8.3167381E+001	1.299505733721890E+001	-1.1208853E-001	-2.2957502E-004	8.1325912E+000	8.0174847E+000	1.000000000000000E+000	12	9.2809461E-003	1.6874819E-005	0	-3.115581551129313E-005	2.1631250E-004	1.8053089E-003	1.8182220E-003	8.3167381E+001	8.0174844E+003	9.6065674E+002	8.0748325E+003	-6.8326187E+000	0.0000000E+000	0.0000000E+000	0.0000000E+000	6.8326187E+000	0.0000000E+000	0.0000000E+000	0.0000000E+000	-6.8326187E+000	0.0000000E+000	0.0000000E+000	0.0000000E+000	-8.3167381E+001	0.0000000E+000	0.0000000E+000	0.0000000E+000	8.3167381E+001	1.1982021E-001	8.3167381E+001	2.910870562684587E-008
2.4232319E+001	1.0075117E+002	8.0962085E+002	8.1586560E+002	-8.2906441E+001	1.348208709369646E+001	-1.1206347E-001	-3.0189220E-004	8.1122904E+000	7.9885802E+000	1.000000000000000E+000	12	9.2773652E-003	1.1371193E-005	0	-3.131284382984975E-005	1.5136063E-004	1.2163104E-003	1.2256921E-003	8.2906441E+001	7.9885801E+003	9.9411835E+002	8.0501978E+003	-7.0935593E+000	0.0000000E+000	0.0000000E+000	0.0000000E+000	7.0935593E+000	0.0000000E+000	0.0000000E+000	0.0000000E+000	-7.0935593E+000	0.0000000E+000	0.0000000E+000	0.0000000E+000	-8.2906441E+001	0.0000000E+000	0.0000000E+000	0.0000000E+000	8.2906441E+001	1.2444241E-001	8.2906441E+001	-1.570283185566183E-007
1.6366972E+001	1.6393747E+002	1.1441796E+003	1.1558644E+003	-8.1846184E+001	1.392104962121812E+001	-1.1209144E-001	-1.5846800E-004	8.4988003E+000	8.3278370E+000	1.000000000000000E+000	12	9.2642317E-003	8.0149812E-006	0	-3.130270269527076E-005	1.2270563E-004	8.5640745E-004	8.6515339E-004	8.1846184E+001	8.3278369E+003	1.1932083E+003	8.4128838E+003	-8.1538162E+000	0.0000000E+000	0.0000000E+000	0.0000000E+000	8.1538162E+000	0.0000000E+000	0.0000000E+000	0.0000000E+000	-8.1538162E+000	0.0000000E+000	0.0000000E+000	0.0000000E+000	-8.1846184E+001	0.0000000E+000	0.0000000E+000	0.0000000E+000	8.1846184E+001	1.4327949E-001	8.1846184E+001	1.014113457899408E-008
1.1050212E+001	2.6693582E+002	1.6681362E+003	1.6893588E+003	-8.0908585E+001	1.460171613356943E+001	-1.1208039E-001	-8.2804348E-005	8.6341190E+000	8.4185495E+000	1.000000000000000E+000	13	9.3024774E-003	5.5065138E-006	0	-3.126068306456869E-005	9.3532602E-005	5.8450433E-004	5.9194060E-004	8.0908585E+001	8.4185488E+003	1.3471394E+003	8.5256523E+003	-9.0914154E+000	0.0000000E+000	0.0000000E+000	0.0000000E+000	9.0914154E+000	0.0000000E+000	0.0000000E+000	0.0000000E+000	-9.0914154E+000	0.0000000E+000	0.0000000E+000	0.0000000E+000	-8.0908585E+001	0.0000000E+000	0.0000000E+000	0.0000000E+000	8.0908585E+001	1.6002040E-001	8.0908585E+001	4.201963070207007E-008
