EC-Lab ASCII FILE
Nb header lines : 65                          

Potentio Electrochemical Impedance Spectroscopy

Run on channel : 5 (SN 39658)
User : 
CE vs. WE compliance from -10 V to 10 V
Electrode connection : standard
Potential control : Ewe
Ewe ctrl range : min = -2.50 V, max = 2.50 V
Safety Limits :
	Do not start on E overload
Acquisition started on : 06/20/2024 08:28:43.483
Technique started on : 06/20/2024 08:28:44.979
Loaded Setting File :  NONE
Saved on :
	File : 2024-6-20 Ni65Co32Fe3Ox on FTO_1_00mg_01_PEIS_C05.mpr
	Directory : C:\Users\sfolkman\OneDrive - New Mexico State University\Folkman Group Folder\Scott\
	Host : 172.24.124.15
Device : VSP (SN 1910)
Address : USB
EC-Lab for windows v11.46 (software)
Internet server v11.40 (firmware)
Command interpretor v11.40 (firmware)
Electrode material : 
Initial state : 
Electrolyte : 
Comments : 
Current amplifier : VSPB-4A
Electrode surface area : 0.001 cm²
Characteristic mass : 0.001 g
Equivalent Weight : 0.000 g/eq.
Density : 0.000 g/cm3
Volume (V) : 0.001 cm³
Cycle Definition : Charge/Discharge alternance
Mode                Single sine         
E (V)               0.0000              
vs.                 Eoc                 
tE (h:m:s)          0:00:0.0000         
record              0                   
dI                  0.000               
unit dI             mA                  
dt (s)              0.000               
fi                  200.000             
unit fi             kHz                 
ff                  100.000             
unit ff             mHz                 
Nd                  6                   
Points              per decade          
spacing             Logarithmic         
Va (mV)             10.0                
pw                  0.10                
Na                  2                   
corr                0                   
E range min (V)     -2.500              
E range max (V)     2.500               
I Range             Auto                
Bandwidth           4                   
nc cycles           0                   
goto Ns'            0                   
nr cycles           0                   
inc. cycle          0                   

freq/Hz	Re(Z)/Ohm	-Im(Z)/Ohm	|Z|/Ohm	Phase(Z)/deg	time/s	<Ewe>/V	<I>/mA	Cs/µF	Cp/µF	cycle number	I Range	|Ewe|/V	|I|/A	Ns	(Q-Qo)/mA.h	Re(Y)/Ohm-1	Im(Y)/Ohm-1	|Y|/Ohm-1	Phase(Y)/deg	Re(C)/nF	Im(C)/nF	|C|/nF	Phase(C)/deg	Re(M)	Im(M)	|M|	Phase(M)/deg	Re(Permittivity)	Im(Permittivity)	|Permittivity|	Phase(Permittivity)/deg	Re(Resistivity)/Ohm.cm	Im(Resistivity)/Ohm.cm	|Resistivity|/Ohm.cm	Phase(Resistivity)/deg	Re(Conductivity)/mS/cm	Im(Conductivity)/mS/cm	|Conductivity|/mS/cm	Phase(Conductivity)/deg	Tan(Delta)	Loss Angle(Delta)/deg	dq/mA.h	
1.9999814E+005	8.5459995E+000	1.6595480E+001	1.8666656E+001	-6.2753368E+001	1.496489191049477E+000	3.2708015E-002	-1.0236530E-002	4.7951739E-002	3.7901022E-002	1.000000000000000E+000	10	9.8401792E-003	5.2715273E-004	0	-3.676898066145238E-006	2.4526173E-002	4.7627386E-002	5.3571459E-002	6.2753368E+001	3.7901020E+001	1.9517488E+001	4.2631207E+001	-2.7246632E+001	0.0000000E+000	0.0000000E+000	0.0000000E+000	2.7246632E+001	0.0000000E+000	0.0000000E+000	0.0000000E+000	-2.7246632E+001	0.0000000E+000	0.0000000E+000	0.0000000E+000	-6.2753368E+001	0.0000000E+000	0.0000000E+000	0.0000000E+000	6.2753368E+001	5.1495945E-001	6.2753368E+001	-3.676898066145238E-006
1.3512284E+005	1.2737534E+001	1.5339605E+001	1.9938612E+001	-5.0294807E+001	2.091477565962123E+000	3.2740481E-002	-1.3653706E-002	7.6785140E-002	4.5448095E-002	1.000000000000000E+000	10	1.0195115E-002	5.1132520E-004	0	-7.089788438910748E-006	3.2040220E-002	3.8585518E-002	5.0153941E-002	5.0294807E+001	4.5448101E+001	3.7738697E+001	5.9074013E+001	-3.9705193E+001	0.0000000E+000	0.0000000E+000	0.0000000E+000	3.9705193E+001	0.0000000E+000	0.0000000E+000	0.0000000E+000	-3.9705193E+001	0.0000000E+000	0.0000000E+000	0.0000000E+000	-5.0294807E+001	0.0000000E+000	0.0000000E+000	0.0000000E+000	5.0294807E+001	8.3036906E-001	5.0294807E+001	-3.412890372765509E-006
9.1291195E+004	1.8227213E+001	1.2912329E+001	2.2337402E+001	-3.5314114E+001	2.686484127567383E+000	3.2802433E-002	-1.0852593E-002	1.3501644E-001	4.5115989E-002	1.000000000000000E+000	10	1.0298716E-002	4.6105255E-004	0	-1.240784625331354E-005	3.6530446E-002	2.5878510E-002	4.4767965E-002	3.5314114E+001	4.5115990E+001	6.3686325E+001	7.8047424E+001	-5.4685886E+001	0.0000000E+000	0.0000000E+000	0.0000000E+000	5.4685886E+001	0.0000000E+000	0.0000000E+000	0.0000000E+000	-5.4685886E+001	0.0000000E+000	0.0000000E+000	0.0000000E+000	-3.5314114E+001	0.0000000E+000	0.0000000E+000	0.0000000E+000	3.5314114E+001	1.4116131E+000	3.5314114E+001	-5.318057814402791E-006
6.1674211E+004	2.1068810E+001	7.4654784E+000	2.2352362E+001	-1.9511168E+001	3.132495855417801E+000	3.2784306E-002	-7.4856724E-003	3.4566778E-001	3.8559139E-002	1.000000000000000E+000	10	1.0789600E-002	4.8270516E-004	0	-8.057562591304303E-006	4.2168986E-002	1.4942071E-002	4.4738002E-002	1.9511168E+001	3.8559143E+001	1.0882024E+002	1.1544978E+002	-7.0488831E+001	0.0000000E+000	0.0000000E+000	0.0000000E+000	7.0488831E+001	0.0000000E+000	0.0000000E+000	0.0000000E+000	-7.0488831E+001	0.0000000E+000	0.0000000E+000	0.0000000E+000	-1.9511168E+001	0.0000000E+000	0.0000000E+000	0.0000000E+000	1.9511168E+001	2.8221648E+000	1.9511168E+001	4.350283662009235E-006
4.1669758E+004	2.0284075E+001	4.1995816E+000	2.0714251E+001	-1.1697160E+001	3.578489503270248E+000	3.2818042E-002	-9.8847654E-003	9.0947992E-001	3.7382361E-002	1.000000000000000E+000	10	1.0439846E-002	5.0399342E-004	0	-6.163330114792593E-006	4.7273390E-002	9.7874049E-003	4.8275944E-002	1.1697160E+001	3.7382355E+001	1.8055765E+002	1.8438684E+002	-7.8302841E+001	0.0000000E+000	0.0000000E+000	0.0000000E+000	7.8302841E+001	0.0000000E+000	0.0000000E+000	0.0000000E+000	-7.8302841E+001	0.0000000E+000	0.0000000E+000	0.0000000E+000	-1.1697160E+001	0.0000000E+000	0.0000000E+000	0.0000000E+000	1.1697160E+001	4.8300228E+000	1.1697160E+001	1.894232476511710E-006
2.8150979E+004	1.9745934E+001	2.8623922E+000	1.9952322E+001	-8.2482052E+000	4.024475764454110E+000	3.2838929E-002	-1.3216323E-002	1.9751383E+000	4.0650781E-002	1.000000000000000E+000	10	1.0423246E-002	5.2240764E-004	0	-4.153599419449974E-006	4.9601037E-002	7.1902215E-003	5.0119478E-002	8.2482052E+000	4.0650791E+001	2.8042545E+002	2.8335651E+002	-8.1751793E+001	0.0000000E+000	0.0000000E+000	0.0000000E+000	8.1751793E+001	0.0000000E+000	0.0000000E+000	0.0000000E+000	-8.1751793E+001	0.0000000E+000	0.0000000E+000	0.0000000E+000	-8.2482052E+000	0.0000000E+000	0.0000000E+000	0.0000000E+000	8.2482052E+000	6.8984027E+000	8.2482052E+000	2.009730695342619E-006
1.9020934E+004	1.9362911E+001	2.3677661E+000	1.9507143E+001	-6.9717212E+000	4.470483225624776E+000	3.2774515E-002	-1.1930231E-002	3.5338614E+000	5.2064270E-002	1.000000000000000E+000	10	1.0189621E-002	5.2235334E-004	0	3.219678128387184E-007	5.0884243E-002	6.2223077E-003	5.1263273E-002	6.9717212E+000	5.2064247E+001	4.2576663E+002	4.2893811E+002	-8.3028282E+001	0.0000000E+000	0.0000000E+000	0.0000000E+000	8.3028282E+001	0.0000000E+000	0.0000000E+000	0.0000000E+000	-8.3028282E+001	0.0000000E+000	0.0000000E+000	0.0000000E+000	-6.9717212E+000	0.0000000E+000	0.0000000E+000	0.0000000E+000	6.9717212E+000	8.1777124E+000	6.9717212E+000	4.475567232288692E-006
1.2850729E+004	1.9428404E+001	2.1056588E+000	1.9542177E+001	-6.1855969E+000	4.916491513518849E+000	3.2793202E-002	-8.8071283E-003	5.8817210E+000	6.8286441E-002	1.000000000000000E+000	10	1.0129856E-002	5.1835860E-004	0	3.303234156356969E-006	5.0873455E-002	5.5136867E-003	5.1171370E-002	6.1855969E+000	6.8286476E+001	6.3006250E+002	6.3375214E+002	-8.3814400E+001	0.0000000E+000	0.0000000E+000	0.0000000E+000	8.3814400E+001	0.0000000E+000	0.0000000E+000	0.0000000E+000	-8.3814400E+001	0.0000000E+000	0.0000000E+000	0.0000000E+000	-6.1855969E+000	0.0000000E+000	0.0000000E+000	0.0000000E+000	6.1855969E+000	9.2267580E+000	6.1855969E+000	2.981266343518251E-006
8.6833721E+003	1.9367167E+001	2.4313467E+000	1.9519184E+001	-7.1554565E+000	5.389997349353507E+000	3.2811273E-002	-9.9238520E-003	7.5384979E+000	1.1696483E-001	1.000000000000000E+000	10	1.0153036E-002	5.2015675E-004	0	-2.658675640305672E-006	5.0832648E-002	6.3815112E-003	5.1231649E-002	7.1554565E+000	1.1696483E+002	9.3169653E+002	9.3900970E+002	-8.2844543E+001	0.0000000E+000	0.0000000E+000	0.0000000E+000	8.2844543E+001	0.0000000E+000	0.0000000E+000	0.0000000E+000	-8.2844543E+001	0.0000000E+000	0.0000000E+000	0.0000000E+000	-7.1554565E+000	0.0000000E+000	0.0000000E+000	0.0000000E+000	7.1554565E+000	7.9656129E+000	7.1554565E+000	-5.961909796662642E-006
5.8650859E+003	1.9839355E+001	2.9876997E+000	2.0063061E+001	-8.5640802E+000	6.027851432969328E+000	3.2816440E-002	-1.2957617E-002	9.0825710E+000	2.0141338E-001	1.000000000000000E+000	10	1.0047514E-002	5.0079665E-004	0	-1.840425960084152E-006	4.9287092E-002	7.4223690E-003	4.9842842E-002	8.5640802E+000	2.0141335E+002	1.3374543E+003	1.3525352E+003	-8.1435921E+001	0.0000000E+000	0.0000000E+000	0.0000000E+000	8.1435921E+001	0.0000000E+000	0.0000000E+000	0.0000000E+000	-8.1435921E+001	0.0000000E+000	0.0000000E+000	0.0000000E+000	-8.5640802E+000	0.0000000E+000	0.0000000E+000	0.0000000E+000	8.5640802E+000	6.6403446E+000	8.5640802E+000	8.182496802215206E-007
3.9611973E+003	2.0199802E+001	3.7884793E+000	2.0551998E+001	-1.0622440E+001	6.502941215556348E+000	3.2861795E-002	-1.2261526E-002	1.0605442E+001	3.6037156E-001	1.000000000000000E+000	10	1.0426846E-002	5.0733978E-004	0	-2.764664909565909E-006	4.7823247E-002	8.9692650E-003	4.8657071E-002	1.0622440E+001	3.6037143E+002	1.9214659E+003	1.9549678E+003	-7.9377563E+001	0.0000000E+000	0.0000000E+000	0.0000000E+000	7.9377563E+001	0.0000000E+000	0.0000000E+000	0.0000000E+000	-7.9377563E+001	0.0000000E+000	0.0000000E+000	0.0000000E+000	-1.0622440E+001	0.0000000E+000	0.0000000E+000	0.0000000E+000	1.0622440E+001	5.3319025E+000	1.0622440E+001	-9.242389494817569E-007
2.6774299E+003	2.0631607E+001	5.1224546E+000	2.1258005E+001	-1.3943556E+001	6.976951158052543E+000	3.2850511E-002	-1.3091624E-002	1.1604432E+001	6.7380637E-001	1.000000000000000E+000	10	1.0622740E-002	4.9970538E-004	0	-4.044202738444761E-006	4.5654971E-002	1.1335302E-002	4.7041103E-002	1.3943556E+001	6.7380646E+002	2.7138765E+003	2.7962727E+003	-7.6056442E+001	0.0000000E+000	0.0000000E+000	0.0000000E+000	7.6056442E+001	0.0000000E+000	0.0000000E+000	0.0000000E+000	-7.6056442E+001	0.0000000E+000	0.0000000E+000	0.0000000E+000	-1.3943556E+001	0.0000000E+000	0.0000000E+000	0.0000000E+000	1.3943556E+001	4.0276799E+000	1.3943556E+001	-1.279537828878852E-006
1.8082643E+003	2.1384592E+001	6.7536631E+000	2.2425716E+001	-1.7527113E+001	7.450971927231876E+000	3.2851536E-002	-1.2332252E-002	1.3032234E+001	1.1819659E+000	1.000000000000000E+000	10	1.0773213E-002	4.8039548E-004	0	-3.154495704977308E-006	4.2521477E-002	1.3429095E-002	4.4591665E-002	1.7527113E+001	1.1819659E+003	3.7425405E+003	3.9247488E+003	-7.2472885E+001	0.0000000E+000	0.0000000E+000	0.0000000E+000	7.2472885E+001	0.0000000E+000	0.0000000E+000	0.0000000E+000	-7.2472885E+001	0.0000000E+000	0.0000000E+000	0.0000000E+000	-1.7527113E+001	0.0000000E+000	0.0000000E+000	0.0000000E+000	1.7527113E+001	3.1663694E+000	1.7527113E+001	8.897070334674531E-007
1.2219551E+003	2.2202061E+001	8.8767490E+000	2.3910837E+001	-2.1792343E+001	7.924422376352595E+000	3.2806668E-002	-1.2345282E-002	1.4672731E+001	2.0222242E+000	1.000000000000000E+000	10	1.0701027E-002	4.4753877E-004	0	-3.006171465026758E-006	3.8833249E-002	1.5526172E-002	4.1822042E-002	2.1792343E+001	2.0222240E+003	5.0578809E+003	5.4471597E+003	-6.8207657E+001	0.0000000E+000	0.0000000E+000	0.0000000E+000	6.8207657E+001	0.0000000E+000	0.0000000E+000	0.0000000E+000	-6.8207657E+001	0.0000000E+000	0.0000000E+000	0.0000000E+000	-2.1792343E+001	0.0000000E+000	0.0000000E+000	0.0000000E+000	2.1792343E+001	2.5011477E+000	2.1792343E+001	1.483242399505496E-007
8.2526404E+002	2.3464481E+001	1.1812311E+001	2.6269995E+001	-2.6721251E+001	8.397690345555020E+000	3.2874346E-002	-1.2646799E-002	1.6326471E+001	3.3009739E+000	1.000000000000000E+000	10	1.0692007E-002	4.0700453E-004	0	-6.366599868326577E-006	3.4000944E-002	1.7116498E-002	3.8066242E-002	2.6721251E+001	3.3009746E+003	6.5571973E+003	7.3412036E+003	-6.3278748E+001	0.0000000E+000	0.0000000E+000	0.0000000E+000	6.3278748E+001	0.0000000E+000	0.0000000E+000	0.0000000E+000	-6.3278748E+001	0.0000000E+000	0.0000000E+000	0.0000000E+000	-2.6721251E+001	0.0000000E+000	0.0000000E+000	0.0000000E+000	2.6721251E+001	1.9864429E+000	2.6721251E+001	-3.360428403299819E-006
5.5803571E+002	2.5127438E+001	1.6031719E+001	2.9806108E+001	-3.2538548E+001	9.371456791734090E+000	3.2853458E-002	-1.6435342E-003	1.7790085E+001	5.1466861E+000	1.000000000000000E+000	11	1.0091680E-002	3.3857758E-004	0	-8.693530137595694E-006	2.8283792E-002	1.8045526E-002	3.3550169E-002	3.2538548E+001	5.1466860E+003	8.0666973E+003	9.5686982E+003	-5.7461452E+001	0.0000000E+000	0.0000000E+000	0.0000000E+000	5.7461452E+001	0.0000000E+000	0.0000000E+000	0.0000000E+000	-5.7461452E+001	0.0000000E+000	0.0000000E+000	0.0000000E+000	-3.2538548E+001	0.0000000E+000	0.0000000E+000	0.0000000E+000	3.2538548E+001	1.5673577E+000	3.2538548E+001	-2.326930269269117E-006
3.7705118E+002	2.7436583E+001	2.1375307E+001	3.4780308E+001	-3.7921463E+001	9.842685560855898E+000	3.2811664E-002	-1.7418355E-003	1.9747288E+001	7.4587379E+000	1.000000000000000E+000	11	9.9699674E-003	2.8665553E-004	0	-1.022256704041421E-005	2.2681050E-002	1.7670365E-002	2.8751902E-002	3.7921463E+001	7.4587378E+003	9.5737695E+003	1.2136303E+004	-5.2078537E+001	0.0000000E+000	0.0000000E+000	0.0000000E+000	5.2078537E+001	0.0000000E+000	0.0000000E+000	0.0000000E+000	-5.2078537E+001	0.0000000E+000	0.0000000E+000	0.0000000E+000	-3.7921463E+001	0.0000000E+000	0.0000000E+000	0.0000000E+000	3.7921463E+001	1.2835643E+000	3.7921463E+001	-1.529036902818512E-006
2.5475545E+002	3.0184425E+001	2.8602396E+001	4.1583611E+001	-4.3458469E+001	1.031696230336092E+001	3.2828208E-002	-1.7133523E-003	2.1842093E+001	1.0333673E+001	1.000000000000000E+000	11	9.8342896E-003	2.3649436E-004	0	-1.090931154621810E-005	1.7455751E-002	1.6540859E-002	2.4047935E-002	4.3458469E+001	1.0333673E+004	1.0905238E+004	1.5023615E+004	-4.6541531E+001	0.0000000E+000	0.0000000E+000	0.0000000E+000	4.6541531E+001	0.0000000E+000	0.0000000E+000	0.0000000E+000	-4.6541531E+001	0.0000000E+000	0.0000000E+000	0.0000000E+000	-4.3458469E+001	0.0000000E+000	0.0000000E+000	0.0000000E+000	4.3458469E+001	1.0553111E+000	4.3458469E+001	-6.867445058038966E-007
1.7203688E+002	3.3963665E+001	3.8794498E+001	5.1561066E+001	-4.8798622E+001	1.078540891225566E+001	3.2838482E-002	-1.6902677E-003	2.3846708E+001	1.3499726E+001	1.000000000000000E+000	11	9.7926026E-003	1.8992243E-004	0	-1.023216418605524E-005	1.2775290E-002	1.4592389E-002	1.9394480E-002	4.8798622E+001	1.3499725E+004	1.1818689E+004	1.7942240E+004	-4.1201378E+001	0.0000000E+000	0.0000000E+000	0.0000000E+000	4.1201378E+001	0.0000000E+000	0.0000000E+000	0.0000000E+000	-4.1201378E+001	0.0000000E+000	0.0000000E+000	0.0000000E+000	-4.8798622E+001	0.0000000E+000	0.0000000E+000	0.0000000E+000	4.8798622E+001	8.7547630E-001	4.8798622E+001	6.771473601628604E-007
1.1622738E+002	3.8738297E+001	5.2093117E+001	6.4918015E+001	-5.3364193E+001	1.125563026797499E+001	3.2856032E-002	-2.0769536E-003	2.6286415E+001	1.6926283E+001	1.000000000000000E+000	11	9.7048255E-003	1.4949357E-004	0	-9.703821252049642E-006	9.1920011E-003	1.2360894E-002	1.5404045E-002	5.3364193E+001	1.6926283E+004	1.2586987E+004	2.1093395E+004	-3.6635807E+001	0.0000000E+000	0.0000000E+000	0.0000000E+000	3.6635807E+001	0.0000000E+000	0.0000000E+000	0.0000000E+000	-3.6635807E+001	0.0000000E+000	0.0000000E+000	0.0000000E+000	-5.3364193E+001	0.0000000E+000	0.0000000E+000	0.0000000E+000	5.3364193E+001	7.4363559E-001	5.3364193E+001	5.283429340056004E-007
7.8517616E+001	4.5885738E+001	6.9469940E+001	8.3256073E+001	-5.6554756E+001	1.173753458415740E+001	3.2865506E-002	-1.9121896E-003	2.9178040E+001	2.0315060E+001	1.000000000000000E+000	11	9.8316530E-003	1.1808932E-004	0	-1.025654580935447E-005	6.6198152E-003	1.0022247E-002	1.2011136E-002	5.6554756E+001	2.0315061E+004	1.3418343E+004	2.4346531E+004	-3.3445244E+001	0.0000000E+000	0.0000000E+000	0.0000000E+000	3.3445244E+001	0.0000000E+000	0.0000000E+000	0.0000000E+000	-3.3445244E+001	0.0000000E+000	0.0000000E+000	0.0000000E+000	-5.6554756E+001	0.0000000E+000	0.0000000E+000	0.0000000E+000	5.6554756E+001	6.6051215E-001	5.6554756E+001	-5.527245573048275E-007
5.3047844E+001	5.2574223E+001	9.9089149E+001	1.1217268E+002	-6.2050697E+001	1.222612911401666E+001	3.2873336E-002	-4.2949343E-004	3.0277935E+001	2.3626768E+001	1.000000000000000E+000	11	9.6722897E-003	8.6226792E-005	0	-1.044099914309239E-005	4.1782917E-003	7.8750253E-003	8.9148274E-003	6.2050697E+001	2.3626770E+004	1.2535772E+004	2.6746398E+004	-2.7949303E+001	0.0000000E+000	0.0000000E+000	0.0000000E+000	2.7949303E+001	0.0000000E+000	0.0000000E+000	0.0000000E+000	-2.7949303E+001	0.0000000E+000	0.0000000E+000	0.0000000E+000	-6.2050697E+001	0.0000000E+000	0.0000000E+000	0.0000000E+000	6.2050697E+001	5.3057498E-001	6.2050697E+001	-1.844533337379195E-007
3.5837154E+001	6.6442131E+001	1.2700659E+002	1.4333607E+002	-6.2384167E+001	1.269009561606799E+001	3.2816738E-002	-2.4452091E-003	3.4967159E+001	2.7453762E+001	1.000000000000000E+000	11	9.6421167E-003	6.7269299E-005	0	-1.174178583766883E-005	3.2339443E-003	6.1818040E-003	6.9766105E-003	6.2384167E+001	2.7453760E+004	1.4362141E+004	3.0983545E+004	-2.7615833E+001	0.0000000E+000	0.0000000E+000	0.0000000E+000	2.7615833E+001	0.0000000E+000	0.0000000E+000	0.0000000E+000	-2.7615833E+001	0.0000000E+000	0.0000000E+000	0.0000000E+000	-6.2384167E+001	0.0000000E+000	0.0000000E+000	0.0000000E+000	6.2384167E+001	5.2313924E-001	6.2384167E+001	-1.300786694576445E-006
2.4232319E+001	8.2496735E+001	1.7563055E+002	1.9404073E+002	-6.4839737E+001	1.344609863861115E+001	3.2864816E-002	6.8610796E-004	3.7395992E+001	3.0636520E+001	1.000000000000000E+000	12	9.7321756E-003	5.0155326E-005	0	-1.193187383727491E-005	2.1910435E-003	4.6645990E-003	5.1535573E-003	6.4839737E+001	3.0636521E+004	1.4390509E+004	3.3847941E+004	-2.5160263E+001	0.0000000E+000	0.0000000E+000	0.0000000E+000	2.5160263E+001	0.0000000E+000	0.0000000E+000	0.0000000E+000	-2.5160263E+001	0.0000000E+000	0.0000000E+000	0.0000000E+000	-6.4839737E+001	0.0000000E+000	0.0000000E+000	0.0000000E+000	6.4839737E+001	4.6971744E-001	6.4839737E+001	-1.900879996060727E-007
1.6366972E+001	9.4748802E+001	2.4900859E+002	2.6642563E+002	-6.9167976E+001	1.388505391284707E+001	3.2790892E-002	-2.6168337E-004	3.9051476E+001	3.4112545E+001	1.000000000000000E+000	12	9.6215922E-003	3.6113615E-005	0	-1.217635878682177E-005	1.3348168E-003	3.5080223E-003	3.7533927E-003	6.9167976E+001	3.4112543E+004	1.2979962E+004	3.6498563E+004	-2.0832024E+001	0.0000000E+000	0.0000000E+000	0.0000000E+000	2.0832024E+001	0.0000000E+000	0.0000000E+000	0.0000000E+000	-2.0832024E+001	0.0000000E+000	0.0000000E+000	0.0000000E+000	-6.9167976E+001	0.0000000E+000	0.0000000E+000	0.0000000E+000	6.9167976E+001	3.8050416E-001	6.9167976E+001	-2.444849495468583E-007
1.1050212E+001	1.1347934E+002	3.3274417E+002	3.5156256E+002	-7.1168526E+001	1.432074446688057E+001	3.2909274E-002	-8.3093153E-004	4.3285164E+001	3.8775265E+001	1.000000000000000E+000	12	9.6391710E-003	2.7418082E-005	0	-1.242855694991805E-005	9.1814576E-004	2.6921870E-003	2.8444440E-003	7.1168526E+001	3.8775262E+004	1.3223949E+004	4.0968203E+004	-1.8831474E+001	0.0000000E+000	0.0000000E+000	0.0000000E+000	1.8831474E+001	0.0000000E+000	0.0000000E+000	0.0000000E+000	-1.8831474E+001	0.0000000E+000	0.0000000E+000	0.0000000E+000	-7.1168526E+001	0.0000000E+000	0.0000000E+000	0.0000000E+000	7.1168526E+001	3.4104079E-001	7.1168526E+001	-2.521981630962823E-007
