EC-Lab ASCII FILE
Nb header lines : 65                          

Potentio Electrochemical Impedance Spectroscopy

Run on channel : 5 (SN 39658)
User : 
CE vs. WE compliance from -10 V to 10 V
Electrode connection : standard
Potential control : Ewe
Ewe ctrl range : min = -2.50 V, max = 2.50 V
Safety Limits :
	Do not start on E overload
Acquisition started on : 06/18/2024 16:38:11.272
Technique started on : 06/18/2024 16:38:12.810
Loaded Setting File :  NONE
Saved on :
	File : 2024-6-18 Ni33Co33Fe33Ox on FTO_1_07mg_01_PEIS_C05.mpr
	Directory : C:\Users\sfolkman\OneDrive - New Mexico State University\Folkman Group Folder\Scott\
	Host : 172.24.124.15
Device : VSP (SN 1910)
Address : USB
EC-Lab for windows v11.46 (software)
Internet server v11.40 (firmware)
Command interpretor v11.40 (firmware)
Electrode material : 
Initial state : 
Electrolyte : 
Comments : 
Current amplifier : VSPB-4A
Electrode surface area : 0.001 cm²
Characteristic mass : 0.001 g
Equivalent Weight : 0.000 g/eq.
Density : 0.000 g/cm3
Volume (V) : 0.001 cm³
Cycle Definition : Charge/Discharge alternance
Mode                Single sine         
E (V)               0.0000              
vs.                 Eoc                 
tE (h:m:s)          0:00:0.0000         
record              0                   
dI                  0.000               
unit dI             mA                  
dt (s)              0.000               
fi                  200.000             
unit fi             kHz                 
ff                  100.000             
unit ff             mHz                 
Nd                  6                   
Points              per decade          
spacing             Logarithmic         
Va (mV)             10.0                
pw                  0.10                
Na                  2                   
corr                0                   
E range min (V)     -2.500              
E range max (V)     2.500               
I Range             Auto                
Bandwidth           4                   
nc cycles           0                   
goto Ns'            0                   
nr cycles           0                   
inc. cycle          0                   

freq/Hz	Re(Z)/Ohm	-Im(Z)/Ohm	|Z|/Ohm	Phase(Z)/deg	time/s	<Ewe>/V	<I>/mA	Cs/µF	Cp/µF	cycle number	I Range	|Ewe|/V	|I|/A	Ns	(Q-Qo)/mA.h	Re(Y)/Ohm-1	Im(Y)/Ohm-1	|Y|/Ohm-1	Phase(Y)/deg	Re(C)/nF	Im(C)/nF	|C|/nF	Phase(C)/deg	Re(M)	Im(M)	|M|	Phase(M)/deg	Re(Permittivity)	Im(Permittivity)	|Permittivity|	Phase(Permittivity)/deg	Re(Resistivity)/Ohm.cm	Im(Resistivity)/Ohm.cm	|Resistivity|/Ohm.cm	Phase(Resistivity)/deg	Re(Conductivity)/mS/cm	Im(Conductivity)/mS/cm	|Conductivity|/mS/cm	Phase(Conductivity)/deg	Tan(Delta)	Loss Angle(Delta)/deg	dq/mA.h	
1.9999814E+005	9.4807920E+000	1.5453239E+001	1.8129755E+001	-5.8470264E+001	1.538477273046738E+000	-5.9350904E-002	-1.2654237E-002	5.1496137E-002	3.7413631E-002	1.000000000000000E+000	10	9.0757878E-003	5.0060177E-004	0	-3.877787607062298E-006	2.8844351E-002	4.7014914E-002	5.5157945E-002	5.8470264E+001	3.7413631E+001	2.2953819E+001	4.3893707E+001	-3.1529736E+001	0.0000000E+000	0.0000000E+000	0.0000000E+000	3.1529736E+001	0.0000000E+000	0.0000000E+000	0.0000000E+000	-3.1529736E+001	0.0000000E+000	0.0000000E+000	0.0000000E+000	-5.8470264E+001	0.0000000E+000	0.0000000E+000	0.0000000E+000	5.8470264E+001	6.1351484E-001	5.8470264E+001	-3.877787607062298E-006
1.3512284E+005	1.3715451E+001	1.2952954E+001	1.8865116E+001	-4.3362259E+001	2.133483274636092E+000	-5.9292365E-002	-1.2200104E-002	9.0933204E-002	4.2868789E-002	1.000000000000000E+000	10	1.0110680E-002	5.3594582E-004	0	1.493613022224357E-006	3.8538173E-002	3.6395680E-002	5.3007890E-002	4.3362259E+001	4.2868790E+001	4.5392330E+001	6.2435539E+001	-4.6637741E+001	0.0000000E+000	0.0000000E+000	0.0000000E+000	4.6637741E+001	0.0000000E+000	0.0000000E+000	0.0000000E+000	-4.6637741E+001	0.0000000E+000	0.0000000E+000	0.0000000E+000	-4.3362259E+001	0.0000000E+000	0.0000000E+000	0.0000000E+000	4.3362259E+001	1.0588666E+000	4.3362259E+001	5.371400629286654E-006
9.1291195E+004	1.7139574E+001	8.8557301E+000	1.9292200E+001	-2.7324638E+001	2.728497649572091E+000	-5.9263628E-002	-1.2483007E-002	1.9686426E-001	4.1481275E-002	1.000000000000000E+000	10	1.0125431E-002	5.2484585E-004	0	-1.121467780321836E-007	4.6050731E-002	2.3793638E-002	5.1834419E-002	2.7324638E+001	4.1481277E+001	8.0283783E+001	9.0366928E+001	-6.2675362E+001	0.0000000E+000	0.0000000E+000	0.0000000E+000	6.2675362E+001	0.0000000E+000	0.0000000E+000	0.0000000E+000	-6.2675362E+001	0.0000000E+000	0.0000000E+000	0.0000000E+000	-2.7324638E+001	0.0000000E+000	0.0000000E+000	0.0000000E+000	2.7324638E+001	1.9354219E+000	2.7324638E+001	-1.605759800256540E-006
6.1674211E+004	1.7574770E+001	4.8664184E+000	1.8236078E+001	-1.5477303E+001	3.174492097430630E+000	-5.9251092E-002	-1.2611430E-002	5.3028226E-001	3.7762702E-002	1.000000000000000E+000	10	1.0645008E-002	5.8373337E-004	0	-6.325414421864479E-006	5.2847780E-002	1.4633443E-002	5.4836351E-002	1.5477303E+001	3.7762703E+001	1.3637769E+002	1.4150934E+002	-7.4522697E+001	0.0000000E+000	0.0000000E+000	0.0000000E+000	7.4522697E+001	0.0000000E+000	0.0000000E+000	0.0000000E+000	-7.4522697E+001	0.0000000E+000	0.0000000E+000	0.0000000E+000	-1.5477303E+001	0.0000000E+000	0.0000000E+000	0.0000000E+000	1.5477303E+001	3.6114383E+000	1.5477303E+001	-6.213267643832296E-006
4.1669758E+004	1.6809292E+001	2.9212165E+000	1.7061237E+001	-9.8587313E+000	3.620489371911390E+000	-5.9260681E-002	-1.2644932E-002	1.3074811E+000	3.8330268E-002	1.000000000000000E+000	10	1.0499806E-002	6.1541883E-004	0	-1.053976483883647E-005	5.7746861E-002	1.0035586E-002	5.8612395E-002	9.8587313E+000	3.8330280E+001	2.2056039E+002	2.2386626E+002	-8.0141266E+001	0.0000000E+000	0.0000000E+000	0.0000000E+000	8.0141266E+001	0.0000000E+000	0.0000000E+000	0.0000000E+000	-8.0141266E+001	0.0000000E+000	0.0000000E+000	0.0000000E+000	-9.8587313E+000	0.0000000E+000	0.0000000E+000	0.0000000E+000	9.8587313E+000	5.7542095E+000	9.8587313E+000	-4.214350416971988E-006
2.8150979E+004	1.6337793E+001	2.2745466E+000	1.6495365E+001	-7.9257703E+000	4.066479499771958E+000	-5.9218980E-002	-1.2724965E-002	2.4856031E+000	4.7260426E-002	1.000000000000000E+000	10	1.0358897E-002	6.2798837E-004	0	-1.154724155568207E-005	6.0043991E-002	8.3593205E-003	6.0623091E-002	7.9257703E+000	4.7260441E+001	3.3946591E+002	3.4273993E+002	-8.2074226E+001	0.0000000E+000	0.0000000E+000	0.0000000E+000	8.2074226E+001	0.0000000E+000	0.0000000E+000	0.0000000E+000	-8.2074226E+001	0.0000000E+000	0.0000000E+000	0.0000000E+000	-7.9257703E+000	0.0000000E+000	0.0000000E+000	0.0000000E+000	7.9257703E+000	7.1828790E+000	7.9257703E+000	-1.007476716845606E-006
1.9020934E+004	1.6090111E+001	2.1901202E+000	1.6238482E+001	-7.7512317E+000	4.512496054318035E+000	-5.9251767E-002	-1.2656099E-002	3.8205013E+000	6.9496900E-002	1.000000000000000E+000	10	1.0323399E-002	6.3573674E-004	0	-8.127128915502302E-006	6.1019439E-002	8.3057173E-003	6.1582115E-002	7.7512317E+000	6.9496864E+001	5.1057138E+002	5.1527948E+002	-8.2248772E+001	0.0000000E+000	0.0000000E+000	0.0000000E+000	8.2248772E+001	0.0000000E+000	0.0000000E+000	0.0000000E+000	-8.2248772E+001	0.0000000E+000	0.0000000E+000	0.0000000E+000	-7.7512317E+000	0.0000000E+000	0.0000000E+000	0.0000000E+000	7.7512317E+000	7.3466792E+000	7.7512317E+000	3.420112640179771E-006
1.2850729E+004	1.6100464E+001	2.4892120E+000	1.6291750E+001	-8.7886295E+000	4.958488448843127E+000	-5.9246022E-002	-1.3184682E-002	4.9754286E+000	1.1614989E-001	1.000000000000000E+000	10	1.0235036E-002	6.2823429E-004	0	-1.043533929246931E-005	6.0660072E-002	9.3783485E-003	6.1380759E-002	8.7886295E+000	1.1614986E+002	7.5126874E+002	7.6019440E+002	-8.1211372E+001	0.0000000E+000	0.0000000E+000	0.0000000E+000	8.1211372E+001	0.0000000E+000	0.0000000E+000	0.0000000E+000	-8.1211372E+001	0.0000000E+000	0.0000000E+000	0.0000000E+000	-8.7886295E+000	0.0000000E+000	0.0000000E+000	0.0000000E+000	8.7886295E+000	6.4680967E+000	8.7886295E+000	-2.308210376967004E-006
8.6833721E+003	1.6084427E+001	2.9946556E+000	1.6360830E+001	-1.0546772E+001	5.431993724661879E+000	-5.9280019E-002	-1.2257801E-002	6.1204710E+000	2.0505385E-001	1.000000000000000E+000	10	1.0235587E-002	6.2561536E-004	0	-1.235721488277745E-005	6.0088996E-002	1.1187581E-002	6.1121594E-002	1.0546772E+001	2.0505379E+002	1.1013534E+003	1.1202795E+003	-7.9453232E+001	0.0000000E+000	0.0000000E+000	0.0000000E+000	7.9453232E+001	0.0000000E+000	0.0000000E+000	0.0000000E+000	-7.9453232E+001	0.0000000E+000	0.0000000E+000	0.0000000E+000	-1.0546772E+001	0.0000000E+000	0.0000000E+000	0.0000000E+000	1.0546772E+001	5.3710442E+000	1.0546772E+001	-1.921875590308141E-006
5.8650859E+003	1.6129789E+001	4.0820212E+000	1.6638300E+001	-1.4201859E+001	6.069850714964559E+000	-5.9273008E-002	-1.5974630E-002	6.6476860E+000	4.0013185E-001	1.000000000000000E+000	10	1.0134507E-002	6.0910714E-004	0	-1.144510351366545E-005	5.8265414E-002	1.4745427E-002	6.0102295E-002	1.4201859E+001	4.0013184E+002	1.5810898E+003	1.6309355E+003	-7.5798141E+001	0.0000000E+000	0.0000000E+000	0.0000000E+000	7.5798141E+001	0.0000000E+000	0.0000000E+000	0.0000000E+000	-7.5798141E+001	0.0000000E+000	0.0000000E+000	0.0000000E+000	-1.4201859E+001	0.0000000E+000	0.0000000E+000	0.0000000E+000	1.4201859E+001	3.9514222E+000	1.4201859E+001	9.121113691120008E-007
3.9611973E+003	1.6186222E+001	5.7826014E+000	1.7188143E+001	-1.9659498E+001	6.544952977536013E+000	-5.9223231E-002	-1.4748095E-002	6.9481697E+000	7.8642809E-001	1.000000000000000E+000	10	1.0650758E-002	6.1965728E-004	0	-1.615876191376527E-005	5.4788269E-002	1.9573357E-002	5.8179643E-002	1.9659498E+001	7.8642816E+002	2.2013103E+003	2.3375706E+003	-7.0340500E+001	0.0000000E+000	0.0000000E+000	0.0000000E+000	7.0340500E+001	0.0000000E+000	0.0000000E+000	0.0000000E+000	-7.0340500E+001	0.0000000E+000	0.0000000E+000	0.0000000E+000	-1.9659498E+001	0.0000000E+000	0.0000000E+000	0.0000000E+000	1.9659498E+001	2.7991247E+000	1.9659498E+001	-4.713658400099828E-006
2.6774299E+003	1.6251184E+001	8.2748137E+000	1.8236599E+001	-2.6984383E+001	7.018926600052509E+000	-5.9264094E-002	-1.4742510E-002	7.1836271E+000	1.4790149E+000	1.000000000000000E+000	10	1.0874867E-002	5.9632096E-004	0	-2.033616560991989E-005	4.8864938E-002	2.4881154E-002	5.4834787E-002	2.6984383E+001	1.4790149E+003	2.9046870E+003	3.2595540E+003	-6.3015617E+001	0.0000000E+000	0.0000000E+000	0.0000000E+000	6.3015617E+001	0.0000000E+000	0.0000000E+000	0.0000000E+000	-6.3015617E+001	0.0000000E+000	0.0000000E+000	0.0000000E+000	-2.6984383E+001	0.0000000E+000	0.0000000E+000	0.0000000E+000	2.6984383E+001	1.9639336E+000	2.6984383E+001	-4.177403696154617E-006
1.8082643E+003	1.6299969E+001	1.2041582E+001	2.0265455E+001	-3.6455090E+001	7.492959289229475E+000	-5.9220288E-002	-1.4608504E-002	7.3092813E+000	2.5806499E+000	1.000000000000000E+000	10	1.0905955E-002	5.3815497E-004	0	-2.239799192686122E-005	3.9689355E-002	2.9320462E-002	4.9345054E-002	3.6455090E+001	2.5806497E+003	3.4932712E+003	4.3431206E+003	-5.3544910E+001	0.0000000E+000	0.0000000E+000	0.0000000E+000	5.3544910E+001	0.0000000E+000	0.0000000E+000	0.0000000E+000	-5.3544910E+001	0.0000000E+000	0.0000000E+000	0.0000000E+000	-3.6455090E+001	0.0000000E+000	0.0000000E+000	0.0000000E+000	3.6455090E+001	1.3536401E+000	3.6455090E+001	-2.061826316941330E-006
1.2219551E+003	1.6438618E+001	1.7679296E+001	2.4140955E+001	-4.7082611E+001	7.966441258351551E+000	-5.9206858E-002	-1.4589896E-002	7.3671570E+000	3.9511271E+000	1.000000000000000E+000	10	1.0876700E-002	4.5054971E-004	0	-2.491106733419332E-005	2.8206967E-002	3.0335844E-002	4.1423380E-002	4.7082611E+001	3.9511270E+003	3.6738489E+003	5.3952358E+003	-4.2917389E+001	0.0000000E+000	0.0000000E+000	0.0000000E+000	4.2917389E+001	0.0000000E+000	0.0000000E+000	0.0000000E+000	-4.2917389E+001	0.0000000E+000	0.0000000E+000	0.0000000E+000	-4.7082611E+001	0.0000000E+000	0.0000000E+000	0.0000000E+000	4.7082611E+001	9.2982304E-001	4.7082611E+001	-2.513075407332103E-006
8.2526404E+002	1.6572617E+001	2.5974049E+001	3.0810759E+001	-5.7460285E+001	8.439674427550926E+000	-5.9231717E-002	-1.4846747E-002	7.4248481E+000	5.2766957E+000	1.000000000000000E+000	10	1.0784254E-002	3.5001588E-004	0	-2.687945741716734E-005	1.7457671E-002	2.7361184E-002	3.2456197E-002	5.7460285E+001	5.2766958E+003	3.3667703E+003	6.2592861E+003	-3.2539715E+001	0.0000000E+000	0.0000000E+000	0.0000000E+000	3.2539715E+001	0.0000000E+000	0.0000000E+000	0.0000000E+000	-3.2539715E+001	0.0000000E+000	0.0000000E+000	0.0000000E+000	-5.7460285E+001	0.0000000E+000	0.0000000E+000	0.0000000E+000	5.7460285E+001	6.3804519E-001	5.7460285E+001	-1.968390082974012E-006
5.5803571E+002	1.6801157E+001	3.8436069E+001	4.1947708E+001	-6.6388916E+001	9.413452793756733E+000	-5.9245855E-002	-1.7477954E-003	7.4202609E+000	6.2298937E+000	1.000000000000000E+000	11	1.0112814E-002	2.4108143E-004	0	-2.680966681243012E-005	9.5482292E-003	2.1843513E-002	2.3839206E-002	6.6388916E+001	6.2298931E+003	2.7232085E+003	6.7990757E+003	-2.3611084E+001	0.0000000E+000	0.0000000E+000	0.0000000E+000	2.3611084E+001	0.0000000E+000	0.0000000E+000	0.0000000E+000	-2.3611084E+001	0.0000000E+000	0.0000000E+000	0.0000000E+000	-6.6388916E+001	0.0000000E+000	0.0000000E+000	0.0000000E+000	6.6388916E+001	4.3711954E-001	6.6388916E+001	6.979060473721424E-008
3.7705118E+002	1.7211277E+001	5.6625919E+001	5.9183804E+001	-7.3093506E+001	9.884689509519376E+000	-5.9256800E-002	-1.8034632E-003	7.4542603E+000	6.8238478E+000	1.000000000000000E+000	11	9.8172501E-003	1.6587731E-004	0	-2.706796467706992E-005	4.9136863E-003	1.6166257E-002	1.6896514E-002	7.3093506E+001	6.8238472E+003	2.0740881E+003	7.1320918E+003	-1.6906494E+001	0.0000000E+000	0.0000000E+000	0.0000000E+000	1.6906494E+001	0.0000000E+000	0.0000000E+000	0.0000000E+000	-1.6906494E+001	0.0000000E+000	0.0000000E+000	0.0000000E+000	-7.3093506E+001	0.0000000E+000	0.0000000E+000	0.0000000E+000	7.3093506E+001	3.0394697E-001	7.3093506E+001	-2.582978646397966E-007
2.5475545E+002	1.7850580E+001	8.3333916E+001	8.5224319E+001	-7.7909637E+001	1.035895537203760E+001	-5.9228323E-002	-1.8539181E-003	7.4967813E+000	7.1678905E+000	1.000000000000000E+000	11	9.6655665E-003	1.1341324E-004	0	-2.796215460591240E-005	2.4576797E-003	1.1473468E-002	1.1733740E-002	7.7909637E+001	7.1678896E+003	1.5354014E+003	7.3304912E+003	-1.2090363E+001	0.0000000E+000	0.0000000E+000	0.0000000E+000	1.2090363E+001	0.0000000E+000	0.0000000E+000	0.0000000E+000	-1.2090363E+001	0.0000000E+000	0.0000000E+000	0.0000000E+000	-7.7909637E+001	0.0000000E+000	0.0000000E+000	0.0000000E+000	7.7909637E+001	2.1420546E-001	7.7909637E+001	-8.941899288424782E-007
1.7203688E+002	1.8518190E+001	1.2272557E+002	1.2411482E+002	-8.1419312E+001	1.082741022089613E+001	-5.9242424E-002	-1.7952741E-003	7.5381279E+000	7.3703198E+000	1.000000000000000E+000	11	9.5907282E-003	7.7273027E-005	0	-2.824849024846208E-005	1.2021293E-003	7.9668704E-003	8.0570551E-003	8.1419312E+001	7.3703198E+003	1.1121152E+003	7.4537520E+003	-8.5806885E+000	0.0000000E+000	0.0000000E+000	0.0000000E+000	8.5806885E+000	0.0000000E+000	0.0000000E+000	0.0000000E+000	-8.5806885E+000	0.0000000E+000	0.0000000E+000	0.0000000E+000	-8.1419312E+001	0.0000000E+000	0.0000000E+000	0.0000000E+000	8.1419312E+001	1.5089105E-001	8.1419312E+001	-2.863356425496799E-007
1.1622738E+002	2.1583120E+001	1.8094304E+002	1.8222572E+002	-8.3197823E+001	1.129763626997010E+001	-5.9251320E-002	-1.8434939E-003	7.5678029E+000	7.4616389E+000	1.000000000000000E+000	11	9.5776021E-003	5.2559004E-005	0	-2.851827551784411E-005	6.4997247E-004	5.4490715E-003	5.4876995E-003	8.3197823E+001	7.4616387E+003	8.9003412E+002	7.5145332E+003	-6.8021774E+000	0.0000000E+000	0.0000000E+000	0.0000000E+000	6.8021774E+000	0.0000000E+000	0.0000000E+000	0.0000000E+000	-6.8021774E+000	0.0000000E+000	0.0000000E+000	0.0000000E+000	-8.3197823E+001	0.0000000E+000	0.0000000E+000	0.0000000E+000	8.3197823E+001	1.1928130E-001	8.3197823E+001	-2.697852693820281E-007
7.8517616E+001	2.2692825E+001	2.6518756E+002	2.6615674E+002	-8.5108955E+001	1.204652747881482E+001	-5.9228398E-002	-1.5442802E-004	7.6436338E+000	7.5880685E+000	1.000000000000000E+000	12	9.6428543E-003	3.6229983E-005	0	-2.903563484058122E-005	3.2034205E-004	3.7435032E-003	3.7571846E-003	8.5108955E+001	7.5880688E+003	6.4933228E+002	7.6158008E+003	-4.8910446E+000	0.0000000E+000	0.0000000E+000	0.0000000E+000	4.8910446E+000	0.0000000E+000	0.0000000E+000	0.0000000E+000	-4.8910446E+000	0.0000000E+000	0.0000000E+000	0.0000000E+000	-8.5108955E+001	0.0000000E+000	0.0000000E+000	0.0000000E+000	8.5108955E+001	8.5572734E-002	8.5108955E+001	-5.173593227371177E-007
5.3047844E+001	3.2707455E+001	3.9025461E+002	3.9162283E+002	-8.5209206E+001	1.253511256873026E+001	-5.9236661E-002	-8.9017245E-005	7.6878400E+000	7.6342154E+000	1.000000000000000E+000	12	9.5982635E-003	2.4508949E-005	0	-2.912032590837043E-005	2.1326063E-004	2.5445560E-003	2.5534772E-003	8.5209206E+001	7.6342163E+003	6.3982782E+002	7.6609814E+003	-4.7907944E+000	0.0000000E+000	0.0000000E+000	0.0000000E+000	4.7907944E+000	0.0000000E+000	0.0000000E+000	0.0000000E+000	-4.7907944E+000	0.0000000E+000	0.0000000E+000	0.0000000E+000	-8.5209206E+001	0.0000000E+000	0.0000000E+000	0.0000000E+000	8.5209206E+001	8.3810553E-002	8.5209206E+001	-8.469106778921035E-008
3.5837154E+001	3.4030163E+001	5.6803040E+002	5.6904883E+002	-8.6571564E+001	1.299908957738080E+001	-5.9207138E-002	-2.3037547E-004	7.8183484E+000	7.7903886E+000	1.000000000000000E+000	12	9.5464354E-003	1.6776126E-005	0	-2.924015276725792E-005	1.0509080E-004	1.7541733E-003	1.7573184E-003	8.6571564E+001	7.7903882E+003	4.6671454E+002	7.8043560E+003	-3.4284363E+000	0.0000000E+000	0.0000000E+000	0.0000000E+000	3.4284363E+000	0.0000000E+000	0.0000000E+000	0.0000000E+000	-3.4284363E+000	0.0000000E+000	0.0000000E+000	0.0000000E+000	-8.6571564E+001	0.0000000E+000	0.0000000E+000	0.0000000E+000	8.6571564E+001	5.9909053E-002	8.6571564E+001	-1.198268588874880E-007
2.4232319E+001	6.0322258E+001	8.4492932E+002	8.4707990E+002	-8.5916397E+001	1.348611648051883E+001	-5.9243523E-002	-1.3125371E-004	7.7732882E+000	7.7338686E+000	1.000000000000000E+000	12	9.5143188E-003	1.1231902E-005	0	-2.921710594793674E-005	8.4067622E-005	1.1775291E-003	1.1805262E-003	8.5916397E+001	7.7338687E+003	5.5214594E+002	7.7535532E+003	-4.0836029E+000	0.0000000E+000	0.0000000E+000	0.0000000E+000	4.0836029E+000	0.0000000E+000	0.0000000E+000	0.0000000E+000	-4.0836029E+000	0.0000000E+000	0.0000000E+000	0.0000000E+000	-8.5916397E+001	0.0000000E+000	0.0000000E+000	0.0000000E+000	8.5916397E+001	7.1393259E-002	8.5916397E+001	2.304681932117895E-008
1.6366972E+001	8.4005493E+001	1.2264922E+003	1.2293657E+003	-8.6081787E+001	1.392505458139931E+001	-5.9204452E-002	-1.9083856E-004	7.9284263E+000	7.8914061E+000	1.000000000000000E+000	12	9.5278323E-003	7.7502018E-006	0	-2.914659399767617E-005	5.5583481E-005	8.1152632E-004	8.1342761E-004	8.6081787E+001	7.8914063E+003	5.4050226E+002	7.9098945E+003	-3.9182129E+000	0.0000000E+000	0.0000000E+000	0.0000000E+000	3.9182129E+000	0.0000000E+000	0.0000000E+000	0.0000000E+000	-3.9182129E+000	0.0000000E+000	0.0000000E+000	0.0000000E+000	-8.6081787E+001	0.0000000E+000	0.0000000E+000	0.0000000E+000	8.6081787E+001	6.8492480E-002	8.6081787E+001	7.051195026057692E-008
1.1050212E+001	1.4933287E+002	1.8043801E+003	1.8105491E+003	-8.5268906E+001	1.460573920041497E+001	-5.9255049E-002	1.4547501E-005	7.9821792E+000	7.9278784E+000	1.000000000000000E+000	13	9.5685050E-003	5.2848636E-006	0	-2.910559969644075E-005	4.5554894E-005	5.5043679E-004	5.5231864E-004	8.5268906E+001	7.9278774E+003	6.5612189E+002	7.9549819E+003	-4.7310944E+000	0.0000000E+000	0.0000000E+000	0.0000000E+000	4.7310944E+000	0.0000000E+000	0.0000000E+000	0.0000000E+000	-4.7310944E+000	0.0000000E+000	0.0000000E+000	0.0000000E+000	-8.5268906E+001	0.0000000E+000	0.0000000E+000	0.0000000E+000	8.5268906E+001	8.2761317E-002	8.5268906E+001	4.099430123541469E-008
