EC-Lab ASCII FILE
Nb header lines : 65                          

Potentio Electrochemical Impedance Spectroscopy

Run on channel : 5 (SN 39658)
User : 
CE vs. WE compliance from -10 V to 10 V
Electrode connection : standard
Potential control : Ewe
Ewe ctrl range : min = -2.50 V, max = 2.50 V
Safety Limits :
	Do not start on E overload
Acquisition started on : 06/21/2024 09:40:48.362
Technique started on : 06/21/2024 09:40:49.899
Loaded Setting File :  NONE
Saved on :
	File : 2024-6-21 Co80Fe20Ox on FTO_1_00mg_01_PEIS_C05.mpr
	Directory : C:\Users\sfolkman\OneDrive - New Mexico State University\Folkman Group Folder\Scott\
	Host : 172.24.124.15
Device : VSP (SN 1910)
Address : USB
EC-Lab for windows v11.46 (software)
Internet server v11.40 (firmware)
Command interpretor v11.40 (firmware)
Electrode material : 
Initial state : 
Electrolyte : 
Comments : 
Current amplifier : VSPB-4A
Electrode surface area : 0.001 cm²
Characteristic mass : 0.001 g
Equivalent Weight : 0.000 g/eq.
Density : 0.000 g/cm3
Volume (V) : 0.001 cm³
Cycle Definition : Charge/Discharge alternance
Mode                Single sine         
E (V)               0.0000              
vs.                 Eoc                 
tE (h:m:s)          0:00:0.0000         
record              0                   
dI                  0.000               
unit dI             mA                  
dt (s)              0.000               
fi                  200.000             
unit fi             kHz                 
ff                  100.000             
unit ff             mHz                 
Nd                  6                   
Points              per decade          
spacing             Logarithmic         
Va (mV)             10.0                
pw                  0.10                
Na                  2                   
corr                0                   
E range min (V)     -2.500              
E range max (V)     2.500               
I Range             Auto                
Bandwidth           4                   
nc cycles           0                   
goto Ns'            0                   
nr cycles           0                   
inc. cycle          0                   

freq/Hz	Re(Z)/Ohm	-Im(Z)/Ohm	|Z|/Ohm	Phase(Z)/deg	time/s	<Ewe>/V	<I>/mA	Cs/µF	Cp/µF	cycle number	I Range	|Ewe|/V	|I|/A	Ns	(Q-Qo)/mA.h	Re(Y)/Ohm-1	Im(Y)/Ohm-1	|Y|/Ohm-1	Phase(Y)/deg	Re(C)/nF	Im(C)/nF	|C|/nF	Phase(C)/deg	Re(M)	Im(M)	|M|	Phase(M)/deg	Re(Permittivity)	Im(Permittivity)	|Permittivity|	Phase(Permittivity)/deg	Re(Resistivity)/Ohm.cm	Im(Resistivity)/Ohm.cm	|Resistivity|/Ohm.cm	Phase(Resistivity)/deg	Re(Conductivity)/mS/cm	Im(Conductivity)/mS/cm	|Conductivity|/mS/cm	Phase(Conductivity)/deg	Tan(Delta)	Loss Angle(Delta)/deg	dq/mA.h	
1.9999814E+005	7.2731738E+000	1.3700160E+001	1.5511075E+001	-6.2036957E+001	1.537482872983674E+000	6.2500313E-002	-1.2391802E-002	5.8085606E-002	4.5314379E-002	1.000000000000000E+000	10	9.9529559E-003	6.4166769E-004	0	-2.180499108531674E-006	3.0230140E-002	5.6943201E-002	6.4470068E-002	6.2036957E+001	4.5314377E+001	2.4056602E+001	5.1304123E+001	-2.7963043E+001	0.0000000E+000	0.0000000E+000	0.0000000E+000	2.7963043E+001	0.0000000E+000	0.0000000E+000	0.0000000E+000	-2.7963043E+001	0.0000000E+000	0.0000000E+000	0.0000000E+000	-6.2036957E+001	0.0000000E+000	0.0000000E+000	0.0000000E+000	6.2036957E+001	5.3088242E-001	6.2036957E+001	-2.180499108531674E-006
1.3512284E+005	1.0241850E+001	1.1404641E+001	1.5328448E+001	-4.8074818E+001	2.132494421239244E+000	6.2565118E-002	-1.2194517E-002	1.0327845E-001	5.7171106E-002	1.000000000000000E+000	10	1.0127654E-002	6.6070969E-004	0	-1.083126431243484E-005	4.3589517E-002	4.8538376E-002	6.5238178E-002	4.8074818E+001	5.7171104E+001	5.1342072E+001	7.6841026E+001	-4.1925182E+001	0.0000000E+000	0.0000000E+000	0.0000000E+000	4.1925182E+001	0.0000000E+000	0.0000000E+000	0.0000000E+000	-4.1925182E+001	0.0000000E+000	0.0000000E+000	0.0000000E+000	-4.8074818E+001	0.0000000E+000	0.0000000E+000	0.0000000E+000	4.8074818E+001	8.9804226E-001	4.8074818E+001	-8.650765203903170E-006
9.1291195E+004	1.3003657E+001	8.8500443E+000	1.5729539E+001	-3.4238464E+001	2.727488556207391E+000	6.2578566E-002	-1.2263384E-002	1.9699074E-001	6.2359799E-002	1.000000000000000E+000	10	1.0106971E-002	6.4254721E-004	0	-7.659977748039334E-006	5.2557364E-002	3.5769548E-002	6.3574657E-002	3.4238464E+001	6.2359798E+001	9.1627281E+001	1.1083457E+002	-5.5761536E+001	0.0000000E+000	0.0000000E+000	0.0000000E+000	5.5761536E+001	0.0000000E+000	0.0000000E+000	0.0000000E+000	-5.5761536E+001	0.0000000E+000	0.0000000E+000	0.0000000E+000	-3.4238464E+001	0.0000000E+000	0.0000000E+000	0.0000000E+000	3.4238464E+001	1.4693325E+000	3.4238464E+001	3.171286564395510E-006
6.1674211E+004	1.4272706E+001	5.8946180E+000	1.5442042E+001	-2.2440592E+001	3.173476097377716E+000	6.2577374E-002	-1.1470511E-002	4.3778497E-001	6.3791484E-002	1.000000000000000E+000	10	1.0701586E-002	6.9301622E-004	0	-4.198314725072123E-006	5.9854504E-002	2.4719870E-002	6.4758271E-002	2.2440592E+001	6.3791481E+001	1.5445906E+002	1.6711360E+002	-6.7559410E+001	0.0000000E+000	0.0000000E+000	0.0000000E+000	6.7559410E+001	0.0000000E+000	0.0000000E+000	0.0000000E+000	-6.7559410E+001	0.0000000E+000	0.0000000E+000	0.0000000E+000	-2.2440592E+001	0.0000000E+000	0.0000000E+000	0.0000000E+000	2.2440592E+001	2.4213114E+000	2.2440592E+001	3.461663022967211E-006
4.1669758E+004	1.4326395E+001	4.1263680E+000	1.4908807E+001	-1.6067753E+001	3.619490171869984E+000	6.2602326E-002	-1.2194518E-002	9.2561674E-001	7.0905730E-002	1.000000000000000E+000	10	1.0545250E-002	7.0731685E-004	0	-6.734230059988073E-007	6.4454190E-002	1.8564453E-002	6.7074448E-002	1.6067753E+001	7.0905716E+001	2.4617862E+002	2.5618652E+002	-7.3932251E+001	0.0000000E+000	0.0000000E+000	0.0000000E+000	7.3932251E+001	0.0000000E+000	0.0000000E+000	0.0000000E+000	-7.3932251E+001	0.0000000E+000	0.0000000E+000	0.0000000E+000	-1.6067753E+001	0.0000000E+000	0.0000000E+000	0.0000000E+000	1.6067753E+001	3.4719141E+000	1.6067753E+001	3.524891719073316E-006
2.8150979E+004	1.4333507E+001	3.4042258E+000	1.4732215E+001	-1.3360287E+001	4.065476779738674E+000	6.2606126E-002	-1.1930228E-002	1.6607654E+000	8.8676572E-002	1.000000000000000E+000	10	1.0409383E-002	7.0657284E-004	0	-2.728770862375516E-006	6.6041410E-002	1.5684918E-002	6.7878455E-002	1.3360287E+001	8.8676598E+001	3.7337305E+002	3.8375900E+002	-7.6639709E+001	0.0000000E+000	0.0000000E+000	0.0000000E+000	7.6639709E+001	0.0000000E+000	0.0000000E+000	0.0000000E+000	-7.6639709E+001	0.0000000E+000	0.0000000E+000	0.0000000E+000	-1.3360287E+001	0.0000000E+000	0.0000000E+000	0.0000000E+000	1.3360287E+001	4.2105041E+000	1.3360287E+001	-2.055347856376708E-006
1.9020934E+004	1.4502899E+001	3.2482581E+000	1.4862209E+001	-1.2624365E+001	4.511489334254293E+000	6.2614523E-002	-1.1662215E-002	2.5759521E+000	1.2304730E-001	1.000000000000000E+000	10	1.0191127E-002	6.8570737E-004	0	-6.523016390712453E-006	6.5658063E-002	1.4705636E-002	6.7284748E-002	1.2624365E+001	1.2304733E+002	5.4938452E+002	5.6299554E+002	-7.7375633E+001	0.0000000E+000	0.0000000E+000	0.0000000E+000	7.7375633E+001	0.0000000E+000	0.0000000E+000	0.0000000E+000	-7.7375633E+001	0.0000000E+000	0.0000000E+000	0.0000000E+000	-1.2624365E+001	0.0000000E+000	0.0000000E+000	0.0000000E+000	1.2624365E+001	4.4648237E+000	1.2624365E+001	-3.794245528336938E-006
1.2850729E+004	1.4849706E+001	3.3063686E+000	1.5213344E+001	-1.2552462E+001	4.957486502098618E+000	6.2609784E-002	-1.1973036E-002	3.7457700E+000	1.7692707E-001	1.000000000000000E+000	10	1.0339050E-002	6.7960401E-004	0	-1.232729633977538E-005	6.4160615E-002	1.4285713E-002	6.5731771E-002	1.2552462E+001	1.7692705E+002	7.9462256E+002	8.1408118E+002	-7.7447540E+001	0.0000000E+000	0.0000000E+000	0.0000000E+000	7.7447540E+001	0.0000000E+000	0.0000000E+000	0.0000000E+000	-7.7447540E+001	0.0000000E+000	0.0000000E+000	0.0000000E+000	-1.2552462E+001	0.0000000E+000	0.0000000E+000	0.0000000E+000	1.2552462E+001	4.4912434E+000	1.2552462E+001	-5.804279949062927E-006
8.6833721E+003	1.5230927E+001	3.6892328E+000	1.5671361E+001	-1.3615934E+001	5.430985217972193E+000	6.2648237E-002	-1.0692527E-002	4.9681611E+000	2.7533054E-001	1.000000000000000E+000	10	1.0191989E-002	6.5035763E-004	0	-1.354456472266853E-005	6.2017307E-002	1.5021823E-002	6.3810669E-002	1.3615934E+001	2.7533057E+002	1.1366968E+003	1.1695668E+003	-7.6384064E+001	0.0000000E+000	0.0000000E+000	0.0000000E+000	7.6384064E+001	0.0000000E+000	0.0000000E+000	0.0000000E+000	-7.6384064E+001	0.0000000E+000	0.0000000E+000	0.0000000E+000	-1.3615934E+001	0.0000000E+000	0.0000000E+000	0.0000000E+000	1.3615934E+001	4.1284809E+000	1.3615934E+001	-1.217268382893155E-006
5.8650859E+003	1.5583696E+001	4.3579159E+000	1.6181564E+001	-1.5623427E+001	6.068850874929922E+000	6.2592775E-002	-1.5138947E-002	6.2268281E+000	4.5163083E-001	1.000000000000000E+000	10	1.0159982E-002	6.2787393E-004	0	-2.117003197890719E-005	5.9515417E-002	1.6643237E-002	6.1798722E-002	1.5623427E+001	4.5163086E+002	1.6150100E+003	1.6769698E+003	-7.4376572E+001	0.0000000E+000	0.0000000E+000	0.0000000E+000	7.4376572E+001	0.0000000E+000	0.0000000E+000	0.0000000E+000	-7.4376572E+001	0.0000000E+000	0.0000000E+000	0.0000000E+000	-1.5623427E+001	0.0000000E+000	0.0000000E+000	0.0000000E+000	1.5623427E+001	3.5759516E+000	1.5623427E+001	-7.625467256238657E-006
3.9611973E+003	1.5904939E+001	5.4891171E+000	1.6825500E+001	-1.9040594E+001	6.543949617480394E+000	6.2626995E-002	-1.3290770E-002	7.3196645E+000	7.7904075E-001	1.000000000000000E+000	10	1.0607529E-002	6.3044362E-004	0	-2.002424392850177E-005	5.6181844E-002	1.9389495E-002	5.9433594E-002	1.9040594E+001	7.7904083E+002	2.2573020E+003	2.3879524E+003	-7.0959404E+001	0.0000000E+000	0.0000000E+000	0.0000000E+000	7.0959404E+001	0.0000000E+000	0.0000000E+000	0.0000000E+000	-7.0959404E+001	0.0000000E+000	0.0000000E+000	0.0000000E+000	-1.9040594E+001	0.0000000E+000	0.0000000E+000	0.0000000E+000	1.9040594E+001	2.8975403E+000	1.9040594E+001	1.145788050405422E-006
2.6774299E+003	1.6146084E+001	7.2954054E+000	1.7717758E+001	-2.4315235E+001	7.017968413332710E+000	6.2617913E-002	-1.3274020E-002	8.1480293E+000	1.3814459E+000	1.000000000000000E+000	10	1.0777205E-002	6.0827140E-004	0	-1.933987131314966E-005	5.1433925E-002	2.3239775E-002	5.6440551E-002	2.4315235E+001	1.3814458E+003	3.0573960E+003	3.3550056E+003	-6.5684769E+001	0.0000000E+000	0.0000000E+000	0.0000000E+000	6.5684769E+001	0.0000000E+000	0.0000000E+000	0.0000000E+000	-6.5684769E+001	0.0000000E+000	0.0000000E+000	0.0000000E+000	-2.4315235E+001	0.0000000E+000	0.0000000E+000	0.0000000E+000	2.4315235E+001	2.2131853E+000	2.4315235E+001	6.843726153521057E-007
1.8082643E+003	1.6484894E+001	1.0201448E+001	1.9386110E+001	-3.1750721E+001	7.491944142529974E+000	6.2633172E-002	-1.3311243E-002	8.6277275E+000	2.3891242E+000	1.000000000000000E+000	10	1.0860178E-002	5.6020403E-004	0	-2.226845461665976E-005	4.3863654E-002	2.7144415E-002	5.1583324E-002	3.1750721E+001	2.3891240E+003	3.8606729E+003	4.5401221E+003	-5.8249279E+001	0.0000000E+000	0.0000000E+000	0.0000000E+000	5.8249279E+001	0.0000000E+000	0.0000000E+000	0.0000000E+000	-5.8249279E+001	0.0000000E+000	0.0000000E+000	0.0000000E+000	-3.1750721E+001	0.0000000E+000	0.0000000E+000	0.0000000E+000	3.1750721E+001	1.6159366E+000	3.1750721E+001	-2.928583303510097E-006
1.2219551E+003	1.6895483E+001	1.4426435E+001	2.2216646E+001	-4.0492802E+001	7.965431018295931E+000	6.2610418E-002	-1.3475033E-002	9.0282974E+000	3.8068600E+000	1.000000000000000E+000	10	1.0832792E-002	4.8759798E-004	0	-2.307901273291888E-005	3.4230527E-002	2.9228196E-002	4.5011293E-002	4.0492802E+001	3.8068601E+003	4.4583945E+003	5.8625479E+003	-4.9507198E+001	0.0000000E+000	0.0000000E+000	0.0000000E+000	4.9507198E+001	0.0000000E+000	0.0000000E+000	0.0000000E+000	-4.9507198E+001	0.0000000E+000	0.0000000E+000	0.0000000E+000	-4.0492802E+001	0.0000000E+000	0.0000000E+000	0.0000000E+000	4.0492802E+001	1.1711475E+000	4.0492802E+001	-8.105581162591180E-007
8.2526404E+002	1.7529364E+001	2.0713757E+001	2.7135555E+001	-4.9759872E+001	8.438682694169984E+000	6.2633656E-002	-1.3408033E-002	9.3104000E+000	5.4251113E+000	1.000000000000000E+000	10	1.0786464E-002	3.9750300E-004	0	-2.605723576367988E-005	2.3806127E-002	2.8130760E-002	3.6852021E-002	4.9759872E+001	5.4251113E+003	4.5910913E+003	7.1070356E+003	-4.0240128E+001	0.0000000E+000	0.0000000E+000	0.0000000E+000	4.0240128E+001	0.0000000E+000	0.0000000E+000	0.0000000E+000	-4.0240128E+001	0.0000000E+000	0.0000000E+000	0.0000000E+000	-4.9759872E+001	0.0000000E+000	0.0000000E+000	0.0000000E+000	4.9759872E+001	8.4626675E-001	4.9759872E+001	-2.978223030760999E-006
5.5803571E+002	1.8611532E+001	2.9992441E+001	3.5297813E+001	-5.8178711E+001	9.412455167068401E+000	6.2634237E-002	-1.6962241E-003	9.5092516E+000	6.8655348E+000	1.000000000000000E+000	11	1.0154949E-002	2.8769343E-004	0	-2.911783890948916E-005	1.4937797E-002	2.4072222E-002	2.8330367E-002	5.8178711E+001	6.8655342E+003	4.2603442E+003	8.0799810E+003	-3.1821289E+001	0.0000000E+000	0.0000000E+000	0.0000000E+000	3.1821289E+001	0.0000000E+000	0.0000000E+000	0.0000000E+000	-3.1821289E+001	0.0000000E+000	0.0000000E+000	0.0000000E+000	-5.8178711E+001	0.0000000E+000	0.0000000E+000	0.0000000E+000	5.8178711E+001	6.2054074E-001	5.8178711E+001	-3.060603145809286E-006
3.7705118E+002	2.0334400E+001	4.3260471E+001	4.7801216E+001	-6.4824326E+001	9.883669989474583E+000	6.2641822E-002	-1.7759082E-003	9.7572756E+000	7.9915895E+000	1.000000000000000E+000	11	9.8538948E-003	2.0614319E-004	0	-2.946321273846034E-005	8.8992529E-003	1.8932734E-002	2.0919969E-002	6.4824326E+001	7.9915894E+003	3.7564131E+003	8.8304102E+003	-2.5175674E+001	0.0000000E+000	0.0000000E+000	0.0000000E+000	2.5175674E+001	0.0000000E+000	0.0000000E+000	0.0000000E+000	-2.5175674E+001	0.0000000E+000	0.0000000E+000	0.0000000E+000	-6.4824326E+001	0.0000000E+000	0.0000000E+000	0.0000000E+000	6.4824326E+001	4.7004575E-001	6.4824326E+001	-3.453738289711805E-007
2.5475545E+002	2.3209339E+001	6.2308422E+001	6.6490700E+001	-6.9570084E+001	1.035793403864955E+001	6.2622912E-002	-1.7301112E-003	1.0026513E+001	8.8048429E+000	1.000000000000000E+000	11	9.7026443E-003	1.4592483E-004	0	-2.847167352276256E-005	5.2497778E-003	1.4093698E-002	1.5039697E-002	6.9570084E+001	8.8048438E+003	3.2797263E+003	9.3958438E+003	-2.0429916E+001	0.0000000E+000	0.0000000E+000	0.0000000E+000	2.0429916E+001	0.0000000E+000	0.0000000E+000	0.0000000E+000	-2.0429916E+001	0.0000000E+000	0.0000000E+000	0.0000000E+000	-6.9570084E+001	0.0000000E+000	0.0000000E+000	0.0000000E+000	6.9570084E+001	3.7249121E-001	6.9570084E+001	9.915392156977860E-007
1.7203688E+002	2.7662424E+001	8.9291229E+001	9.3477982E+001	-7.2787018E+001	1.082637888754834E+001	6.2627539E-002	-1.7165212E-003	1.0360716E+001	9.4534149E+000	1.000000000000000E+000	11	9.6046124E-003	1.0274733E-004	0	-2.869337559489693E-005	3.1657133E-003	1.0218571E-002	1.0697707E-002	7.2787018E+001	9.4534141E+003	2.9286680E+003	9.8966729E+003	-1.7212982E+001	0.0000000E+000	0.0000000E+000	0.0000000E+000	1.7212982E+001	0.0000000E+000	0.0000000E+000	0.0000000E+000	-1.7212982E+001	0.0000000E+000	0.0000000E+000	0.0000000E+000	-7.2787018E+001	0.0000000E+000	0.0000000E+000	0.0000000E+000	7.2787018E+001	3.0980003E-001	7.2787018E+001	-2.217020721343731E-007
1.1622738E+002	3.5186420E+001	1.2749260E+002	1.3225902E+002	-7.4571136E+001	1.129566426987003E+001	6.2760390E-002	-1.5102405E-003	1.0740556E+001	9.9803572E+000	1.000000000000000E+000	11	9.5742680E-003	7.2390285E-005	0	-2.860245358628016E-005	2.0115208E-003	7.2884369E-003	7.5609209E-003	7.4571136E+001	9.9803574E+003	2.7544585E+003	1.0353481E+004	-1.5428864E+001	0.0000000E+000	0.0000000E+000	0.0000000E+000	1.5428864E+001	0.0000000E+000	0.0000000E+000	0.0000000E+000	-1.5428864E+001	0.0000000E+000	0.0000000E+000	0.0000000E+000	-7.4571136E+001	0.0000000E+000	0.0000000E+000	0.0000000E+000	7.4571136E+001	2.7598795E-001	7.4571136E+001	9.092200861677091E-008
7.8517616E+001	4.5316277E+001	1.8058948E+002	1.8618842E+002	-7.5913330E+001	1.177751842603902E+001	6.2640578E-002	-1.7221078E-003	1.1224335E+001	1.0559422E+001	1.000000000000000E+000	11	9.5524397E-003	5.1305233E-005	0	-2.867888893178355E-005	1.3072207E-003	5.2093929E-003	5.3709033E-003	7.5913330E+001	1.0559423E+004	2.6497322E+003	1.0886804E+004	-1.4086670E+001	0.0000000E+000	0.0000000E+000	0.0000000E+000	1.4086670E+001	0.0000000E+000	0.0000000E+000	0.0000000E+000	-1.4086670E+001	0.0000000E+000	0.0000000E+000	0.0000000E+000	-7.5913330E+001	0.0000000E+000	0.0000000E+000	0.0000000E+000	7.5913330E+001	2.5093532E-001	7.5913330E+001	-7.643534550339127E-008
5.3047844E+001	6.3432083E+001	2.5719263E+002	2.6489938E+002	-7.6145493E+001	1.253609779544058E+001	6.2649079E-002	-2.9855967E-004	1.1665245E+001	1.0996361E+001	1.000000000000000E+000	12	9.6097179E-003	3.6276859E-005	0	-2.907749581695963E-005	9.0395537E-004	3.6651914E-003	3.7750183E-003	7.6145493E+001	1.0996362E+004	2.7120608E+003	1.1325867E+004	-1.3854507E+001	0.0000000E+000	0.0000000E+000	0.0000000E+000	1.3854507E+001	0.0000000E+000	0.0000000E+000	0.0000000E+000	-1.3854507E+001	0.0000000E+000	0.0000000E+000	0.0000000E+000	-7.6145493E+001	0.0000000E+000	0.0000000E+000	0.0000000E+000	7.6145493E+001	2.4663259E-001	7.6145493E+001	-3.986068851760772E-007
3.5837154E+001	8.9186394E+001	3.5637982E+002	3.6737009E+002	-7.5949921E+001	1.300006861746078E+001	6.2644027E-002	-1.9495199E-004	1.2461592E+001	1.1727141E+001	1.000000000000000E+000	12	9.5797367E-003	2.6076530E-005	0	-2.897937516758722E-005	6.6083198E-004	2.6406175E-003	2.7220508E-003	7.5949921E+001	1.1727141E+004	2.9347942E+003	1.2088790E+004	-1.4050079E+001	0.0000000E+000	0.0000000E+000	0.0000000E+000	1.4050079E+001	0.0000000E+000	0.0000000E+000	0.0000000E+000	-1.4050079E+001	0.0000000E+000	0.0000000E+000	0.0000000E+000	-7.5949921E+001	0.0000000E+000	0.0000000E+000	0.0000000E+000	7.5949921E+001	2.5025657E-001	7.5949921E+001	9.812064937240461E-008
2.4232319E+001	1.2009743E+002	5.0766342E+002	5.2167572E+002	-7.6690285E+001	1.348708608059678E+001	6.2625654E-002	-2.5468590E-004	1.2937468E+001	1.2251797E+001	1.000000000000000E+000	12	9.5519237E-003	1.8310078E-005	0	-2.905832164842529E-005	4.4129859E-004	1.8654115E-003	1.9168997E-003	7.6690285E+001	1.2251797E+004	2.8983955E+003	1.2589965E+004	-1.3309715E+001	0.0000000E+000	0.0000000E+000	0.0000000E+000	1.3309715E+001	0.0000000E+000	0.0000000E+000	0.0000000E+000	-1.3309715E+001	0.0000000E+000	0.0000000E+000	0.0000000E+000	-7.6690285E+001	0.0000000E+000	0.0000000E+000	0.0000000E+000	7.6690285E+001	2.3656902E-001	7.6690285E+001	-7.894648083806228E-008
1.6366972E+001	1.7799066E+002	6.9991870E+002	7.2219586E+002	-7.5732010E+001	1.392603271477856E+001	6.2670358E-002	-1.7661703E-004	1.3893262E+001	1.3049366E+001	1.000000000000000E+000	12	9.5150974E-003	1.3175231E-005	0	-2.919123285030643E-005	3.4126145E-004	1.3419540E-003	1.3846660E-003	7.5732010E+001	1.3049366E+004	3.3184788E+003	1.3464704E+004	-1.4267990E+001	0.0000000E+000	0.0000000E+000	0.0000000E+000	1.4267990E+001	0.0000000E+000	0.0000000E+000	0.0000000E+000	-1.4267990E+001	0.0000000E+000	0.0000000E+000	0.0000000E+000	-7.5732010E+001	0.0000000E+000	0.0000000E+000	0.0000000E+000	7.5732010E+001	2.5430191E-001	7.5732010E+001	-1.329112018811416E-007
1.1050212E+001	2.6346924E+002	9.7635474E+002	1.0112787E+003	-7.4898438E+001	1.436173980215972E+001	6.2618494E-002	-4.0992320E-005	1.4751694E+001	1.3750404E+001	1.000000000000000E+000	12	9.5253140E-003	9.4190791E-006	0	-2.916948135455095E-005	2.5762516E-004	9.5469778E-004	9.8884711E-004	7.4898438E+001	1.3750402E+004	3.7105457E+003	1.4242251E+004	-1.5101563E+001	0.0000000E+000	0.0000000E+000	0.0000000E+000	1.5101563E+001	0.0000000E+000	0.0000000E+000	0.0000000E+000	-1.5101563E+001	0.0000000E+000	0.0000000E+000	0.0000000E+000	-7.4898438E+001	0.0000000E+000	0.0000000E+000	0.0000000E+000	7.4898438E+001	2.6984990E-001	7.4898438E+001	2.175149575547490E-008
