EC-Lab ASCII FILE
Nb header lines : 65                          

Potentio Electrochemical Impedance Spectroscopy

Run on channel : 5 (SN 39658)
User : 
CE vs. WE compliance from -10 V to 10 V
Electrode connection : standard
Potential control : Ewe
Ewe ctrl range : min = -2.50 V, max = 2.50 V
Safety Limits :
	Do not start on E overload
Acquisition started on : 06/21/2024 11:53:45.401
Technique started on : 06/21/2024 11:53:47.106
Loaded Setting File :  NONE
Saved on :
	File : 2024-6-21 NiOx on FTO_2_50mg_01_PEIS_C05.mpr
	Directory : C:\Users\sfolkman\OneDrive - New Mexico State University\Folkman Group Folder\Scott\
	Host : 172.24.124.15
Device : VSP (SN 1910)
Address : USB
EC-Lab for windows v11.46 (software)
Internet server v11.40 (firmware)
Command interpretor v11.40 (firmware)
Electrode material : 
Initial state : 
Electrolyte : 
Comments : 
Current amplifier : VSPB-4A
Electrode surface area : 0.001 cm²
Characteristic mass : 0.001 g
Equivalent Weight : 0.000 g/eq.
Density : 0.000 g/cm3
Volume (V) : 0.001 cm³
Cycle Definition : Charge/Discharge alternance
Mode                Single sine         
E (V)               0.0000              
vs.                 Eoc                 
tE (h:m:s)          0:00:0.0000         
record              0                   
dI                  0.000               
unit dI             mA                  
dt (s)              0.000               
fi                  200.000             
unit fi             kHz                 
ff                  100.000             
unit ff             mHz                 
Nd                  6                   
Points              per decade          
spacing             Logarithmic         
Va (mV)             10.0                
pw                  0.10                
Na                  2                   
corr                0                   
E range min (V)     -2.500              
E range max (V)     2.500               
I Range             Auto                
Bandwidth           4                   
nc cycles           0                   
goto Ns'            0                   
nr cycles           0                   
inc. cycle          0                   

freq/Hz	Re(Z)/Ohm	-Im(Z)/Ohm	|Z|/Ohm	Phase(Z)/deg	time/s	<Ewe>/V	<I>/mA	Cs/µF	Cp/µF	cycle number	I Range	|Ewe|/V	|I|/A	Ns	(Q-Qo)/mA.h	Re(Y)/Ohm-1	Im(Y)/Ohm-1	|Y|/Ohm-1	Phase(Y)/deg	Re(C)/nF	Im(C)/nF	|C|/nF	Phase(C)/deg	Re(M)	Im(M)	|M|	Phase(M)/deg	Re(Permittivity)	Im(Permittivity)	|Permittivity|	Phase(Permittivity)/deg	Re(Resistivity)/Ohm.cm	Im(Resistivity)/Ohm.cm	|Resistivity|/Ohm.cm	Phase(Resistivity)/deg	Re(Conductivity)/mS/cm	Im(Conductivity)/mS/cm	|Conductivity|/mS/cm	Phase(Conductivity)/deg	Tan(Delta)	Loss Angle(Delta)/deg	dq/mA.h	
1.9999814E+005	4.8085237E+000	1.2262850E+001	1.3171917E+001	-6.8588799E+001	1.705473974318011E+000	2.4743766E-001	-1.3687195E-002	6.4893737E-002	5.6245480E-002	1.000000000000000E+000	10	1.0259145E-002	7.7886501E-004	0	-4.758147152198945E-006	2.7714932E-002	7.0679493E-002	7.5919092E-002	6.8588799E+001	5.6245476E+001	2.2055048E+001	6.0415054E+001	-2.1411201E+001	0.0000000E+000	0.0000000E+000	0.0000000E+000	2.1411201E+001	0.0000000E+000	0.0000000E+000	0.0000000E+000	-2.1411201E+001	0.0000000E+000	0.0000000E+000	0.0000000E+000	-6.8588799E+001	0.0000000E+000	0.0000000E+000	0.0000000E+000	6.8588799E+001	3.9212123E-001	6.8588799E+001	-4.758147152198945E-006
1.3512284E+005	6.8872046E+000	9.6671820E+000	1.1869625E+001	-5.4532734E+001	2.300497709220508E+000	2.4749948E-001	-1.2309904E-002	1.2184044E-001	8.0819704E-002	1.000000000000000E+000	10	1.0135802E-002	8.5392769E-004	0	-7.995683883269925E-006	4.8884254E-002	6.8616085E-002	8.4248662E-002	5.4532734E+001	8.0819710E+001	5.7578499E+001	9.9232597E+001	-3.5467266E+001	0.0000000E+000	0.0000000E+000	0.0000000E+000	3.5467266E+001	0.0000000E+000	0.0000000E+000	0.0000000E+000	-3.5467266E+001	0.0000000E+000	0.0000000E+000	0.0000000E+000	-5.4532734E+001	0.0000000E+000	0.0000000E+000	0.0000000E+000	5.4532734E+001	7.1243149E-001	5.4532734E+001	-3.237536731070981E-006
9.1291195E+004	8.1779804E+000	8.0681429E+000	1.1488007E+001	-4.4612640E+001	2.895492244191701E+000	2.4749656E-001	-1.3082304E-002	2.1608153E-001	1.0657994E-001	1.000000000000000E+000	10	1.0124183E-002	8.8128285E-004	0	-2.432440925734247E-005	6.1966460E-002	6.1134201E-002	8.7047301E-002	4.4612640E+001	1.0657994E+002	1.0803088E+002	1.5175624E+002	-4.5387360E+001	0.0000000E+000	0.0000000E+000	0.0000000E+000	4.5387360E+001	0.0000000E+000	0.0000000E+000	0.0000000E+000	-4.5387360E+001	0.0000000E+000	0.0000000E+000	0.0000000E+000	-4.4612640E+001	0.0000000E+000	0.0000000E+000	0.0000000E+000	4.4612640E+001	1.0136137E+000	4.4612640E+001	-1.632872537407255E-005
6.1674211E+004	9.9796457E+000	6.9601498E+000	1.2167047E+001	-3.4893250E+001	3.341499598667724E+000	2.4752739E-001	-1.3408015E-002	3.7076432E-001	1.2132904E-001	1.000000000000000E+000	10	1.0938660E-002	8.9903991E-004	0	-2.124922832762564E-005	6.7413181E-002	4.7016278E-002	8.2189217E-002	3.4893250E+001	1.2132906E+002	1.7396480E+002	2.1209547E+002	-5.5106750E+001	0.0000000E+000	0.0000000E+000	0.0000000E+000	5.5106750E+001	0.0000000E+000	0.0000000E+000	0.0000000E+000	-5.5106750E+001	0.0000000E+000	0.0000000E+000	0.0000000E+000	-3.4893250E+001	0.0000000E+000	0.0000000E+000	0.0000000E+000	3.4893250E+001	1.4338263E+000	3.4893250E+001	3.075180929716830E-006
4.1669758E+004	1.1105268E+001	5.3204455E+000	1.2313980E+001	-2.5598711E+001	3.787484526546905E+000	2.4752675E-001	-1.3439659E-002	7.1787882E-001	1.3401403E-001	1.000000000000000E+000	10	1.0667028E-002	8.6625345E-004	0	-3.053227164764475E-005	7.3237270E-002	3.5087392E-002	8.1208512E-002	2.5598711E+001	1.3401402E+002	2.7972501E+002	3.1017065E+002	-6.4401291E+001	0.0000000E+000	0.0000000E+000	0.0000000E+000	6.4401291E+001	0.0000000E+000	0.0000000E+000	0.0000000E+000	-6.4401291E+001	0.0000000E+000	0.0000000E+000	0.0000000E+000	-2.5598711E+001	0.0000000E+000	0.0000000E+000	0.0000000E+000	2.5598711E+001	2.0872815E+000	2.5598711E+001	-9.283043320019107E-006
2.8150979E+004	1.1574875E+001	4.5152621E+000	1.2424384E+001	-2.1310343E+001	4.233480654394953E+000	2.4752440E-001	-1.2778932E-002	1.2521135E+000	1.6537119E-001	1.000000000000000E+000	10	1.0458421E-002	8.4176572E-004	0	-3.726643267754439E-005	7.4983649E-002	2.9250497E-002	8.0486886E-002	2.1310343E+001	1.6537119E+002	4.2392908E+002	4.5504230E+002	-6.8689659E+001	0.0000000E+000	0.0000000E+000	0.0000000E+000	6.8689659E+001	0.0000000E+000	0.0000000E+000	0.0000000E+000	-6.8689659E+001	0.0000000E+000	0.0000000E+000	0.0000000E+000	-2.1310343E+001	0.0000000E+000	0.0000000E+000	0.0000000E+000	2.1310343E+001	2.5635002E+000	2.1310343E+001	-6.734161029899647E-006
1.9020934E+004	1.2135571E+001	4.2128568E+000	1.2846021E+001	-1.9144415E+001	4.679480248916661E+000	2.4752766E-001	-1.2927830E-002	1.9861481E+000	2.1361305E-001	1.000000000000000E+000	10	1.0481585E-002	8.1594021E-004	0	-3.724737170653599E-005	7.3539890E-002	2.5529331E-002	7.7845119E-002	1.9144415E+001	2.1361305E+002	6.1533453E+002	6.5135791E+002	-7.0855583E+001	0.0000000E+000	0.0000000E+000	0.0000000E+000	7.0855583E+001	0.0000000E+000	0.0000000E+000	0.0000000E+000	-7.0855583E+001	0.0000000E+000	0.0000000E+000	0.0000000E+000	-1.9144415E+001	0.0000000E+000	0.0000000E+000	0.0000000E+000	1.9144415E+001	2.8806038E+000	1.9144415E+001	1.906097100840123E-008
1.2850729E+004	1.2759604E+001	4.3270750E+000	1.3473347E+001	-1.8732979E+001	5.125492243416375E+000	2.4751598E-001	-1.3460136E-002	2.8621869E+000	2.9521325E-001	1.000000000000000E+000	10	1.0394580E-002	7.7149202E-004	0	-4.097298604233785E-005	7.0288822E-002	2.3836553E-002	7.4220613E-002	1.8732979E+001	2.9521326E+002	8.7051971E+002	9.1921460E+002	-7.1267021E+001	0.0000000E+000	0.0000000E+000	0.0000000E+000	7.1267021E+001	0.0000000E+000	0.0000000E+000	0.0000000E+000	-7.1267021E+001	0.0000000E+000	0.0000000E+000	0.0000000E+000	-1.8732979E+001	0.0000000E+000	0.0000000E+000	0.0000000E+000	1.8732979E+001	2.9487827E+000	1.8732979E+001	-3.725614335801864E-006
8.6833721E+003	1.3289240E+001	4.5865026E+000	1.4058446E+001	-1.9041040E+001	5.599984772648895E+000	2.4757197E-001	-1.1969312E-002	3.9962265E+000	4.2534247E-001	1.000000000000000E+000	10	1.0134338E-002	7.2087190E-004	0	-3.652741585451360E-005	6.7239657E-002	2.3206359E-002	7.1131617E-002	1.9041040E+001	4.2534244E+002	1.2324159E+003	1.3037504E+003	-7.0958961E+001	0.0000000E+000	0.0000000E+000	0.0000000E+000	7.0958961E+001	0.0000000E+000	0.0000000E+000	0.0000000E+000	-7.0958961E+001	0.0000000E+000	0.0000000E+000	0.0000000E+000	-1.9041040E+001	0.0000000E+000	0.0000000E+000	0.0000000E+000	1.9041040E+001	2.8974671E+000	1.9041040E+001	4.445570187824259E-006
5.8650859E+003	1.3742247E+001	5.1998219E+000	1.4693110E+001	-2.0725752E+001	6.237840456291451E+000	2.4750008E-001	-1.4552667E-002	5.2186394E+000	6.5359199E-001	1.000000000000000E+000	10	1.0096213E-002	6.8713923E-004	0	-4.050933202371299E-005	6.3654669E-002	2.4085796E-002	6.8059109E-002	2.0725752E+001	6.5359210E+002	1.7273328E+003	1.8468517E+003	-6.9274246E+001	0.0000000E+000	0.0000000E+000	0.0000000E+000	6.9274246E+001	0.0000000E+000	0.0000000E+000	0.0000000E+000	-6.9274246E+001	0.0000000E+000	0.0000000E+000	0.0000000E+000	-2.0725752E+001	0.0000000E+000	0.0000000E+000	0.0000000E+000	2.0725752E+001	2.6428301E+000	2.0725752E+001	-3.981916169199392E-006
3.9611973E+003	1.4070304E+001	6.4046168E+000	1.5459385E+001	-2.4474401E+001	6.712931438843952E+000	2.4751928E-001	-1.3517837E-002	6.2733645E+000	1.0767190E+000	1.000000000000000E+000	10	1.0524740E-002	6.8079942E-004	0	-4.099487698280346E-005	5.8873396E-002	2.6798392E-002	6.4685628E-002	2.4474401E+001	1.0767191E+003	2.3654443E+003	2.5989712E+003	-6.5525597E+001	0.0000000E+000	0.0000000E+000	0.0000000E+000	6.5525597E+001	0.0000000E+000	0.0000000E+000	0.0000000E+000	-6.5525597E+001	0.0000000E+000	0.0000000E+000	0.0000000E+000	-2.4474401E+001	0.0000000E+000	0.0000000E+000	0.0000000E+000	2.4474401E+001	2.1969001E+000	2.4474401E+001	-4.855449590904741E-007
2.6774299E+003	1.4370070E+001	8.5334768E+000	1.6712843E+001	-3.0703402E+001	7.186953221360454E+000	2.4756086E-001	-1.3553199E-002	6.9658799E+000	1.8160481E+000	1.000000000000000E+000	10	1.0687950E-002	6.3950522E-004	0	-4.338681401612444E-005	5.1446781E-002	3.0550994E-002	5.9834223E-002	3.0703402E+001	1.8160480E+003	3.0581602E+003	3.5567363E+003	-5.9296600E+001	0.0000000E+000	0.0000000E+000	0.0000000E+000	5.9296600E+001	0.0000000E+000	0.0000000E+000	0.0000000E+000	-5.9296600E+001	0.0000000E+000	0.0000000E+000	0.0000000E+000	-3.0703402E+001	0.0000000E+000	0.0000000E+000	0.0000000E+000	3.0703402E+001	1.6839643E+000	3.0703402E+001	-2.391937033320976E-006
1.8082643E+003	1.4741269E+001	1.1842252E+001	1.8908833E+001	-3.8776310E+001	7.660926043870859E+000	2.4752153E-001	-1.3726293E-002	7.4323120E+000	2.9151647E+000	1.000000000000000E+000	10	1.0695399E-002	5.6562980E-004	0	-4.710236401204990E-005	4.1229252E-002	3.3121109E-002	5.2885339E-002	3.8776310E+001	2.9151646E+003	3.6288052E+003	4.6547192E+003	-5.1223690E+001	0.0000000E+000	0.0000000E+000	0.0000000E+000	5.1223690E+001	0.0000000E+000	0.0000000E+000	0.0000000E+000	-5.1223690E+001	0.0000000E+000	0.0000000E+000	0.0000000E+000	-3.8776310E+001	0.0000000E+000	0.0000000E+000	0.0000000E+000	3.8776310E+001	1.2448028E+000	3.8776310E+001	-3.715549995925458E-006
1.2219551E+003	1.5108120E+001	1.6746933E+001	2.2554712E+001	-4.7945038E+001	8.134422946342966E+000	2.4754192E-001	-1.3979420E-002	7.7773142E+000	4.2877121E+000	1.000000000000000E+000	10	1.0615220E-002	4.7064311E-004	0	-5.122643819091415E-005	2.9698590E-002	3.2920066E-002	4.4336632E-002	4.7945038E+001	4.2877124E+003	3.8681274E+003	5.7746763E+003	-4.2054962E+001	0.0000000E+000	0.0000000E+000	0.0000000E+000	4.2054962E+001	0.0000000E+000	0.0000000E+000	0.0000000E+000	-4.2054962E+001	0.0000000E+000	0.0000000E+000	0.0000000E+000	-4.7945038E+001	0.0000000E+000	0.0000000E+000	0.0000000E+000	4.7945038E+001	9.0214252E-001	4.7945038E+001	-4.124074178864253E-006
8.2526404E+002	1.5728618E+001	2.4084829E+001	2.8765751E+001	-5.6853424E+001	8.607675502200436E+000	2.4754235E-001	-1.3383839E-002	8.0072536E+000	5.6133142E+000	1.000000000000000E+000	10	1.0513564E-002	3.6548893E-004	0	-5.119819387850011E-005	1.9008117E-002	2.9106645E-002	3.4763563E-002	5.6853424E+001	5.6133145E+003	3.6657793E+003	6.7042700E+003	-3.3146576E+001	0.0000000E+000	0.0000000E+000	0.0000000E+000	3.3146576E+001	0.0000000E+000	0.0000000E+000	0.0000000E+000	-3.3146576E+001	0.0000000E+000	0.0000000E+000	0.0000000E+000	-5.6853424E+001	0.0000000E+000	0.0000000E+000	0.0000000E+000	5.6853424E+001	6.5305084E-001	5.6853424E+001	2.824431241404306E-008
5.5803571E+002	1.7083269E+001	3.4632057E+001	3.8616283E+001	-6.3743839E+001	9.581480801716680E+000	2.4753265E-001	-1.7814924E-003	8.2353086E+000	6.6236215E+000	1.000000000000000E+000	11	1.0120386E-002	2.6207563E-004	0	-5.153613182963757E-005	1.1455921E-002	2.3224017E-002	2.5895812E-002	6.3743839E+001	6.6236206E+003	3.2672937E+003	7.3856318E+003	-2.6256161E+001	0.0000000E+000	0.0000000E+000	0.0000000E+000	2.6256161E+001	0.0000000E+000	0.0000000E+000	0.0000000E+000	-2.6256161E+001	0.0000000E+000	0.0000000E+000	0.0000000E+000	-6.3743839E+001	0.0000000E+000	0.0000000E+000	0.0000000E+000	6.3743839E+001	4.9327907E-001	6.3743839E+001	-3.379379511374674E-007
3.7705118E+002	1.8784437E+001	5.0288193E+001	5.3682003E+001	-6.9517540E+001	1.005269103749743E+001	2.4756475E-001	-1.6949228E-003	8.3937063E+000	7.3659439E+000	1.000000000000000E+000	11	9.8382067E-003	1.8326825E-004	0	-5.080408274158425E-005	6.5183975E-003	1.7450530E-002	1.8628217E-002	6.9517540E+001	7.3659443E+003	2.7514438E+003	7.8630518E+003	-2.0482460E+001	0.0000000E+000	0.0000000E+000	0.0000000E+000	2.0482460E+001	0.0000000E+000	0.0000000E+000	0.0000000E+000	-2.0482460E+001	0.0000000E+000	0.0000000E+000	0.0000000E+000	-6.9517540E+001	0.0000000E+000	0.0000000E+000	0.0000000E+000	6.9517540E+001	3.7353575E-001	6.9517540E+001	7.320490880533234E-007
2.5475545E+002	2.1573393E+001	7.2623863E+001	7.5760391E+001	-7.3455605E+001	1.052696207334520E+001	2.4751152E-001	-1.7604578E-003	8.6023540E+000	7.9048128E+000	1.000000000000000E+000	11	9.6875979E-003	1.2787154E-004	0	-5.094561750998785E-005	3.7586684E-003	1.2653042E-002	1.3199509E-002	7.3455605E+001	7.9048125E+003	2.3481763E+003	8.2462109E+003	-1.6544395E+001	0.0000000E+000	0.0000000E+000	0.0000000E+000	1.6544395E+001	0.0000000E+000	0.0000000E+000	0.0000000E+000	-1.6544395E+001	0.0000000E+000	0.0000000E+000	0.0000000E+000	-7.3455605E+001	0.0000000E+000	0.0000000E+000	0.0000000E+000	7.3455605E+001	2.9705653E-001	7.3455605E+001	-1.415347684035953E-007
1.7203688E+002	2.5748907E+001	1.0498605E+002	1.0809753E+002	-7.6219635E+001	1.099538572222809E+001	2.4752297E-001	-1.8336254E-003	8.8118486E+000	8.3118687E+000	1.000000000000000E+000	11	9.6319830E-003	8.9104564E-005	0	-5.167634330887126E-005	2.2035716E-003	8.9846272E-003	9.2509054E-003	7.6219635E+001	8.3118682E+003	2.0385707E+003	8.5582080E+003	-1.3780365E+001	0.0000000E+000	0.0000000E+000	0.0000000E+000	1.3780365E+001	0.0000000E+000	0.0000000E+000	0.0000000E+000	-1.3780365E+001	0.0000000E+000	0.0000000E+000	0.0000000E+000	-7.6219635E+001	0.0000000E+000	0.0000000E+000	0.0000000E+000	7.6219635E+001	2.4526028E-001	7.6219635E+001	-7.307257988834116E-007
1.1622738E+002	3.3039017E+001	1.4999583E+002	1.5359143E+002	-7.7578033E+001	1.146463841123477E+001	2.4753597E-001	-1.7880133E-003	9.1291952E+000	8.7067671E+000	1.000000000000000E+000	11	9.5530916E-003	6.2198080E-005	0	-5.198706176994387E-005	1.4005322E-003	6.3583618E-003	6.5107797E-003	7.7578033E+001	8.7067666E+003	1.9178066E+003	8.9154795E+003	-1.2421967E+001	0.0000000E+000	0.0000000E+000	0.0000000E+000	1.2421967E+001	0.0000000E+000	0.0000000E+000	0.0000000E+000	-1.2421967E+001	0.0000000E+000	0.0000000E+000	0.0000000E+000	-7.7578033E+001	0.0000000E+000	0.0000000E+000	0.0000000E+000	7.7578033E+001	2.2026622E-001	7.7578033E+001	-3.107184610726130E-007
7.8517616E+001	4.4198261E+001	2.1301132E+002	2.1754840E+002	-7.8277885E+001	1.221354946008069E+001	2.4754106E-001	-7.8760153E-005	9.5159101E+000	9.1231318E+000	1.000000000000000E+000	12	9.6973311E-003	4.4575510E-005	0	-5.158573828190593E-005	9.3388517E-004	4.5008119E-003	4.5966781E-003	7.8277885E+001	9.1231309E+003	1.8929822E+003	9.3174512E+003	-1.1722115E+001	0.0000000E+000	0.0000000E+000	0.0000000E+000	1.1722115E+001	0.0000000E+000	0.0000000E+000	0.0000000E+000	-1.1722115E+001	0.0000000E+000	0.0000000E+000	0.0000000E+000	-7.8277885E+001	0.0000000E+000	0.0000000E+000	0.0000000E+000	7.8277885E+001	2.0749255E-001	7.8277885E+001	4.013234880379364E-007
5.3047844E+001	5.7738083E+001	3.0704614E+002	3.1242761E+002	-7.9350258E+001	1.270212332330993E+001	2.4754407E-001	-1.7065989E-004	9.7712183E+000	9.4375048E+000	1.000000000000000E+000	12	9.5783127E-003	3.0657702E-005	0	-5.135289947169834E-005	5.9151184E-004	3.1456095E-003	3.2007415E-003	7.9350258E+001	9.4375049E+003	1.7746626E+003	9.6029121E+003	-1.0649742E+001	0.0000000E+000	0.0000000E+000	0.0000000E+000	1.0649742E+001	0.0000000E+000	0.0000000E+000	0.0000000E+000	-1.0649742E+001	0.0000000E+000	0.0000000E+000	0.0000000E+000	-7.9350258E+001	0.0000000E+000	0.0000000E+000	0.0000000E+000	7.9350258E+001	1.8804367E-001	7.9350258E+001	2.328388102075930E-007
3.5837154E+001	8.8956886E+001	4.3077332E+002	4.3986246E+002	-7.8332138E+001	1.316608913199161E+001	2.4751924E-001	-9.1399816E-005	1.0309505E+001	9.8878441E+000	1.000000000000000E+000	12	9.5427828E-003	2.1694925E-005	0	-5.132949717074937E-005	4.5977556E-004	2.2264607E-003	2.2734380E-003	7.8332138E+001	9.8878438E+003	2.0418906E+003	1.0096474E+004	-1.1667862E+001	0.0000000E+000	0.0000000E+000	0.0000000E+000	1.1667862E+001	0.0000000E+000	0.0000000E+000	0.0000000E+000	-1.1667862E+001	0.0000000E+000	0.0000000E+000	0.0000000E+000	-7.8332138E+001	0.0000000E+000	0.0000000E+000	0.0000000E+000	7.8332138E+001	2.0650510E-001	7.8332138E+001	2.340230094897245E-008
2.4232319E+001	1.1299532E+002	6.2110065E+002	6.3129547E+002	-7.9689087E+001	1.365307280849083E+001	2.4755506E-001	-2.4154395E-004	1.0574581E+001	1.0235800E+001	1.000000000000000E+000	12	9.5416820E-003	1.5114447E-005	0	-5.133485668244551E-005	2.8352748E-004	1.5584636E-003	1.5840443E-003	7.9689087E+001	1.0235800E+004	1.8621742E+003	1.0403812E+004	-1.0310913E+001	0.0000000E+000	0.0000000E+000	0.0000000E+000	1.0310913E+001	0.0000000E+000	0.0000000E+000	0.0000000E+000	-1.0310913E+001	0.0000000E+000	0.0000000E+000	0.0000000E+000	-7.9689087E+001	0.0000000E+000	0.0000000E+000	0.0000000E+000	7.9689087E+001	1.8192756E-001	7.9689087E+001	-5.359511696140132E-009
1.6366972E+001	1.7352322E+002	8.6602399E+002	8.8323712E+002	-7.8669815E+001	1.409204285600572E+001	2.4751915E-001	-1.6187425E-004	1.1228503E+001	1.0795111E+001	1.000000000000000E+000	12	9.5105227E-003	1.0767802E-005	0	-5.143003286416509E-005	2.2243487E-004	1.1101337E-003	1.1321988E-003	7.8669815E+001	1.0795110E+004	2.1629907E+003	1.1009675E+004	-1.1330185E+001	0.0000000E+000	0.0000000E+000	0.0000000E+000	1.1330185E+001	0.0000000E+000	0.0000000E+000	0.0000000E+000	-1.1330185E+001	0.0000000E+000	0.0000000E+000	0.0000000E+000	-7.8669815E+001	0.0000000E+000	0.0000000E+000	0.0000000E+000	7.8669815E+001	2.0036769E-001	7.8669815E+001	-9.517618171958186E-008
1.1050212E+001	2.4826195E+002	1.2234996E+003	1.2484331E+003	-7.8529762E+001	1.477274011501868E+001	2.4754041E-001	-6.3877807E-005	1.1771876E+001	1.1306360E+001	1.000000000000000E+000	13	9.5148468E-003	7.6214310E-006	0	-5.140928175798480E-005	1.5928678E-004	7.8500650E-004	8.0100406E-004	7.8529762E+001	1.1306360E+004	2.2941895E+003	1.1536771E+004	-1.1470238E+001	0.0000000E+000	0.0000000E+000	0.0000000E+000	1.1470238E+001	0.0000000E+000	0.0000000E+000	0.0000000E+000	-1.1470238E+001	0.0000000E+000	0.0000000E+000	0.0000000E+000	-7.8529762E+001	0.0000000E+000	0.0000000E+000	0.0000000E+000	7.8529762E+001	2.0291133E-001	7.8529762E+001	2.075110618029368E-008
