EC-Lab ASCII FILE
Nb header lines : 64                          

Potentio Electrochemical Impedance Spectroscopy

Run on channel : 5 (SN 30436)
User : 
CE vs. WE compliance from -10 V to 10 V
Electrode connection : standard
Potential control : Ewe
Ewe ctrl range : min = -2.50 V, max = 2.50 V
Safety Limits :
	Do not start on E overload
Acquisition started on : 01/23/2023 12:34:32.134
Loaded Setting File :  NONE
Saved on :
	File : 2023_01_23_CoNiFeNx_400ºC_24h_electrode2_set2_20012023_C05.mpr
	Directory : C:\Users\grupogalan\Documents\EC-Lab\Data\Lole Jurado\
	Host : 169.254.104.159
Device : VSP (SN 1176)
Address : USB
EC-Lab for windows v11.46 (software)
Internet server v11.40 (firmware)
Command interpretor v11.40 (firmware)
Electrode material : 
Initial state : 
Electrolyte : 
Comments : 
Electrode surface area : 0.001 cm²
Characteristic mass : 0.001 g
Equivalent Weight : 0.000 g/eq.
Density : 0.000 g/cm3
Volume (V) : 0.001 cm³
Record Ece
Cycle Definition : Charge/Discharge alternance
Mode                Single sine         
E (V)               0.0000              
vs.                 Eoc                 
tE (h:m:s)          0:00:0.0000         
record              0                   
dI                  0.000               
unit dI             mA                  
dt (s)              0.000               
fi                  200.000             
unit fi             kHz                 
ff                  100.000             
unit ff             mHz                 
Nd                  6                   
Points              per decade          
spacing             Logarithmic         
Va (mV)             10.0                
pw                  0.10                
Na                  2                   
corr                0                   
E range min (V)     -2.500              
E range max (V)     2.500               
I Range             Auto                
Bandwidth           5                   
nc cycles           0                   
goto Ns'            0                   
nr cycles           0                   
inc. cycle          0                   

freq/Hz	Re(Z)/Ohm	-Im(Z)/Ohm	|Z|/Ohm	Phase(Z)/deg	time/s	<Ewe>/V	<I>/mA	Cs/µF	Cp/µF	cycle number	I Range	|Ewe|/V	|I|/A	Ns	(Q-Qo)/mA.h	<Ece>/V	|Ece|/V	Phase(Zce)/deg	|Zce|/Ohm	Re(Zce)/Ohm	-Im(Zce)/Ohm	Phase(Zwe-ce)/deg	|Zwe-ce|/Ohm	Re(Zwe-ce)/Ohm	-Im(Zwe-ce)/Ohm	Re(Y)/Ohm-1	Im(Y)/Ohm-1	|Y|/Ohm-1	Phase(Y)/deg	dq/mA.h	
1.9999814E+005	1.6282607E+000	-1.6700225E+000	2.3324254E+000	4.5725422E+001	2.427529768581735E+000	-1.7019141E-001	-1.1192700E-001	-4.7650984E-001	-2.4428736E-001	1.000000000000000E+000	9	8.0562467E-003	3.4540212E-003	0	-2.515562738233388E-005	9.9812455E-002	1.4219488E-003	-9.9858498E+001	4.1167924E-001	-7.0485875E-002	4.0560022E-001	3.9065716E+001	2.0063465E+000	1.5577749E+000	-1.2644223E+000	2.9930118E-001	-3.0697769E-001	4.2873827E-001	-4.5725422E+001	-2.515562738233388E-005
1.3512284E+005	9.9850631E-001	-7.7623105E-001	1.2647330E+000	3.7861217E+001	2.804542026511626E+000	-1.7017786E-001	-1.2918271E-001	-1.5174009E+000	-5.7159007E-001	1.000000000000000E+000	9	9.9541042E-003	7.8705186E-003	0	-2.644071010355320E-005	1.0968798E-001	4.1317530E-003	8.4073658E+000	5.2496576E-001	5.1932424E-001	-7.6755352E-002	2.9334999E+001	1.7410903E+000	1.5178306E+000	-8.5298640E-001	6.2424225E-001	-4.8528108E-001	7.9068077E-001	-3.7861217E+001	-1.285082721219321E-006
9.1291195E+004	9.2154431E-001	-3.6130336E-001	9.8984039E-001	2.1408304E+001	3.303513943537837E+000	-1.7078167E-001	-1.5445146E-001	-4.8252435E+000	-6.4288443E-001	1.000000000000000E+000	9	1.0225942E-002	1.0330901E-002	0	-5.335018994524661E-005	1.1744323E-001	6.9927620E-003	1.4432331E+001	6.7687827E-001	6.5551782E-001	-1.6870271E-001	1.8576042E+001	1.6637402E+000	1.5770621E+000	-5.3000605E-001	9.4055867E-001	-3.6875817E-001	1.0102639E+000	-2.1408304E+001	-2.690947984169341E-005
6.1674211E+004	8.6864525E-001	-1.2071397E-001	8.7699282E-001	7.9116149E+000	3.802536020608386E+000	-1.7051026E-001	-1.2620105E-001	-2.1377604E+001	-4.0502515E-001	1.000000000000000E+000	9	1.0540988E-002	1.2019469E-002	0	-8.145945760015295E-005	7.9297341E-002	7.8373021E-003	1.2682647E+001	6.5205061E-001	6.3614130E-001	-1.4315820E-001	9.9459925E+000	1.5277470E+000	1.5047865E+000	-2.6387218E-001	1.1294067E+000	-1.5695150E-001	1.1402602E+000	-7.9116149E+000	-2.810926765490634E-005
4.1669758E+004	8.9387214E-001	2.0259826E-002	8.9410174E-001	-1.2984002E+000	4.179545025137486E+000	-1.7065279E-001	-1.3417678E-001	1.8852261E+002	9.6796796E-002	1.000000000000000E+000	9	9.3736602E-003	1.0483885E-002	0	-6.088859313436680E-005	1.0275410E-001	7.1347477E-003	8.7217979E+000	6.8054426E-001	6.7267460E-001	-1.0319561E-001	3.0305116E+000	1.5687405E+000	1.5665467E+000	-8.2935780E-002	1.1181538E+000	2.5343223E-002	1.1184410E+000	1.2984002E+000	2.057086446578615E-005
2.8150979E+004	9.0020114E-001	1.1078054E-001	9.0699196E-001	-7.0156593E+000	4.556544616381871E+000	-1.7007019E-001	-1.3067342E-001	5.1034412E+001	7.6134807E-001	1.000000000000000E+000	9	1.0593943E-002	1.1680306E-002	0	-6.330047232362752E-005	1.0103496E-001	8.2807047E-003	3.9044094E+000	7.0894587E-001	7.0730042E-001	-4.8273593E-002	-2.2267981E+000	1.6087164E+000	1.6075015E+000	6.2506951E-002	1.0942906E+000	1.3466559E-001	1.1025456E+000	7.0156593E+000	-2.411879189260722E-006
1.9020934E+004	9.0973413E-001	2.6303509E-001	9.4699717E-001	-1.6126381E+001	4.933533780946163E+000	-1.7040408E-001	-2.5306687E-001	3.1810802E+001	2.4541700E+000	1.000000000000000E+000	9	1.1042257E-002	1.1660285E-002	0	-1.387186735749710E-004	1.0678454E-001	8.0698254E-003	3.7304068E+000	6.9207788E-001	6.9061154E-001	-4.5027897E-002	-7.7573714E+000	1.6151264E+000	1.6003456E+000	2.1800719E-001	1.0144184E+000	2.9330289E-001	1.0559694E+000	1.6126381E+001	-7.541820125134350E-005
1.2850729E+004	9.3760079E-001	3.8089845E-001	1.0120173E+000	-2.2109350E+001	5.310554092196980E+000	-1.7002727E-001	-1.2676013E-001	3.2514957E+001	4.6060195E+000	1.000000000000000E+000	9	1.0629342E-002	1.0503124E-002	0	-1.474727932378236E-004	1.0057652E-001	6.9871489E-003	-1.6222399E+000	6.6524488E-001	6.6497827E-001	1.8832847E-002	-1.4005501E+001	1.6516794E+000	1.6025791E+000	3.9973128E-001	9.1546583E-001	3.7190616E-001	9.8812544E-001	2.2109350E+001	-8.754119662852548E-006
8.6846787E+003	9.9783212E-001	5.8323944E-001	1.1557842E+000	-3.0306566E+001	5.565545704303076E+000	-1.7048830E-001	-1.1531838E-001	3.1420963E+001	8.0012846E+000	1.000000000000000E+000	9	1.0833943E-002	9.3736723E-003	0	-1.630846082720285E-004	1.0296422E-001	6.3298033E-003	2.2412326E+000	6.7527467E-001	6.7475814E-001	-2.6407909E-002	-1.8413410E+001	1.7628442E+000	1.6725903E+000	5.5683154E-001	7.4697137E-001	4.3660966E-001	8.6521339E-001	3.0306566E+001	-1.561181503420490E-005
5.8640142E+003	1.0387340E+000	6.9725406E-001	1.2510521E+000	-3.3871635E+001	5.820529769785935E+000	-1.7034502E-001	-1.3872378E-001	3.8925488E+001	1.2091087E+001	1.000000000000000E+000	9	9.6607832E-003	7.7221268E-003	0	-1.754571947144117E-004	1.0065293E-001	4.7693024E-003	-4.5416350E+000	6.1761516E-001	6.1567587E-001	4.8904933E-002	-2.4275955E+001	1.8148899E+000	1.6544099E+000	7.4615902E-001	6.6367203E-001	4.4549233E-001	7.9932719E-001	3.3871635E+001	-1.237258644238318E-005
3.9600762E+003	1.0344810E+000	1.0882787E+000	1.5014998E+000	-4.6451752E+001	6.121836717458791E+000	-1.7062989E-001	-2.1050508E-001	3.6929760E+001	1.9400198E+001	1.000000000000000E+000	9	9.2294011E-003	6.1467881E-003	0	-1.945947983655432E-004	1.2072871E-001	4.1365367E-003	-4.1578760E+000	6.7295903E-001	6.7118782E-001	4.8792861E-002	-3.3689110E+001	2.0499361E+000	1.7056689E+000	1.1370715E+000	4.5885134E-001	4.8271367E-001	6.6600078E-001	4.6451752E+001	-1.913760365113154E-005
2.6787200E+003	1.1142559E+000	1.4709491E+000	1.8453339E+000	-5.2855774E+001	6.756115734198829E+000	-1.7046979E-001	-1.7196833E-001	4.0391983E+001	2.5664955E+001	1.000000000000000E+000	9	9.7450437E-003	5.2809105E-003	0	-2.193193588401191E-004	1.0097766E-001	3.9055236E-003	-8.0605860E+000	7.3955494E-001	7.3224843E-001	1.0370051E-001	-4.0456657E+001	2.4267466E+000	1.8465043E+000	1.5746496E+000	3.2721636E-001	4.3196413E-001	5.4190731E-001	5.2855774E+001	-2.472456047457591E-005
1.8082643E+003	1.2308139E+000	2.1488345E+000	2.4763668E+000	-6.0196690E+001	7.202054422086803E+000	-1.7032960E-001	-1.5940851E-001	4.0959560E+001	3.0841200E+001	1.000000000000000E+000	9	9.7074872E-003	3.9200522E-003	0	-2.426852979443502E-004	1.0254399E-001	3.2205854E-003	-1.2646572E+001	8.2156700E-001	8.0163509E-001	1.7987093E-001	-4.8886173E+001	3.0909088E+000	2.0324490E+000	2.3287053E+000	2.0070699E-001	3.5040721E-001	4.0381742E-001	6.0196690E+001	-2.336593910423108E-005
1.2219551E+003	1.4069314E+000	3.1716156E+000	3.4696689E+000	-6.6077888E+001	7.890568588074530E+000	-1.7056471E-001	-2.3294209E-002	4.1066185E+001	3.4313847E+001	1.000000000000000E+000	10	1.0478828E-002	3.0201233E-003	0	-2.575555523124009E-004	1.0399571E-001	2.3519059E-003	-2.1285990E+001	7.7874500E-001	7.2561902E-001	2.8270265E-001	-5.8310566E+001	4.0595675E+000	2.1325505E+000	3.4543183E+000	1.1686832E-001	2.6345381E-001	2.8821194E-001	6.6077888E+001	-1.487025436805074E-005
8.2526404E+002	1.5322814E+000	4.3768063E+000	4.6372752E+000	-7.0705299E+001	8.335829035946517E+000	-1.7045332E-001	-2.4282187E-002	4.4062572E+001	3.9251728E+001	1.000000000000000E+000	10	9.6758213E-003	2.0865316E-003	0	-2.621927184348331E-004	1.0044281E-001	1.7185786E-003	-1.6268486E+001	8.2365328E-001	7.9067379E-001	2.3073721E-001	-6.3244427E+001	5.1599979E+000	2.3229551E+000	4.6075435E+000	7.1254581E-002	2.0353149E-001	2.1564388E-001	7.0705299E+001	-4.637166122432152E-006
5.5803571E+002	1.9639933E+000	6.2355499E+000	6.5375342E+000	-7.2517288E+001	8.783593510423088E+000	-1.7047907E-001	-2.6034454E-002	4.5738655E+001	4.1610695E+001	1.000000000000000E+000	10	9.5069986E-003	1.4542178E-003	0	-2.639011636236537E-004	1.0212375E-001	1.2756533E-003	-1.6487143E+001	8.7720919E-001	8.4114134E-001	2.4895212E-001	-6.6607140E+001	7.0652351E+000	2.8051348E+000	6.4845018E+000	4.5952801E-002	1.4589715E-001	1.5296286E-001	7.2517288E+001	-1.708445188820654E-006
3.7705118E+002	2.6311688E+000	9.5140438E+000	9.8711739E+000	-7.4540878E+001	9.225794811543892E+000	-1.7039834E-001	-2.5620634E-002	4.4366451E+001	4.1214245E+001	1.000000000000000E+000	10	9.9714892E-003	1.0101624E-003	0	-2.677866591769141E-004	1.0273501E-001	7.9944445E-004	-1.3772927E+001	7.9140192E-001	7.6864666E-001	1.8841267E-001	-7.0689148E+001	1.0280876E+001	3.3998156E+000	9.7024565E+000	2.7002947E-002	9.7639948E-002	1.0130507E-001	7.4540878E+001	-3.885495553260395E-006
2.5475545E+002	2.4992859E+000	1.3686391E+001	1.3912718E+001	-7.9651184E+001	9.672095259389607E+000	-1.7045546E-001	-2.4371704E-002	4.5646523E+001	4.4173485E+001	1.000000000000000E+000	10	9.7633386E-003	7.0175639E-004	0	-2.703825397719565E-004	1.0449235E-001	1.4392212E-003	-2.9384348E+001	2.0508842E+000	1.7870337E+000	1.0062987E+000	-7.3736374E+001	1.5305152E+001	4.2863197E+000	1.4692690E+001	1.2911958E-002	7.0707418E-002	7.1876682E-002	7.9651184E+001	-2.595880595042345E-006
1.7203688E+002	4.1090112E+000	1.8967030E+001	1.9407013E+001	-7.7776352E+001	1.011250424027094E+001	-1.7046423E-001	-2.3495590E-002	4.8775223E+001	4.6588692E+001	1.000000000000000E+000	10	9.5584402E-003	4.9252505E-004	0	-2.737821503105661E-004	1.0326985E-001	6.7263807E-004	-2.6858915E+001	1.3656931E+000	1.2183645E+000	6.1701345E-001	-7.4782272E+001	2.0295706E+001	5.3273754E+000	1.9584044E+001	1.0909881E-002	5.0359558E-002	5.1527765E-002	7.7776352E+001	-3.399610538609590E-006
1.1622738E+002	5.2812419E+000	2.8681803E+001	2.9163973E+001	-7.9566872E+001	1.079478149941133E+001	-1.7007384E-001	-2.2261613E-003	4.7742508E+001	4.6176899E+001	1.000000000000000E+000	11	1.0118393E-002	3.4694839E-004	0	-2.757992080976643E-004	1.0053832E-001	5.7682727E-004	-4.2094917E+001	1.6625737E+000	1.2336884E+000	1.1145242E+000	-7.7666451E+001	3.0500254E+001	6.5149302E+000	2.9796328E+001	6.2092980E-003	3.3721980E-002	3.4288879E-002	7.9566872E+001	-2.017057787098285E-006
7.8517616E+001	8.3819380E+000	3.7694050E+001	3.8614742E+001	-7.7463249E+001	1.124761565426161E+001	-1.7023435E-001	-2.2489063E-003	5.3774975E+001	5.1241230E+001	1.000000000000000E+000	11	9.4337873E-003	2.4430532E-004	0	-2.762758038112564E-004	1.0691825E-001	3.9792078E-004	-1.8993044E+001	1.6287848E+000	1.5401106E+000	5.3009349E-001	-7.5448570E+001	3.9490913E+001	9.9220486E+000	3.8224144E+001	5.6213192E-003	2.5279386E-002	2.5896845E-002	7.7463249E+001	-4.765957135920216E-007
5.3047844E+001	1.0415821E+001	5.4768833E+001	5.5750465E+001	-7.9232193E+001	1.170920148948790E+001	-1.7093341E-001	-2.9945471E-003	5.4779606E+001	5.2867512E+001	1.000000000000000E+000	11	9.6088303E-003	1.7235427E-004	0	-2.766402776635433E-004	1.0199004E-001	7.2062388E-004	-5.4087860E+001	4.1810622E+000	2.4523768E+000	3.3863151E+000	-7.7522995E+001	5.9561832E+001	1.2868198E+001	5.8155148E+001	3.3511713E-003	1.7621242E-002	1.7937070E-002	7.9232193E+001	-3.644738522869291E-007
3.5837154E+001	1.3891370E+001	7.7244110E+001	7.8483261E+001	-7.9805054E+001	1.214519775015651E+001	-1.7083025E-001	-2.4994439E-003	5.7493832E+001	5.5692654E+001	1.000000000000000E+000	11	9.5189428E-003	1.2128628E-004	0	-2.767815956041894E-004	1.0208555E-001	5.0430733E-004	-6.8474251E+001	4.1579914E+000	1.5256474E+000	3.8679831E+000	-7.9238136E+001	8.2564255E+001	1.5417017E+001	8.1112091E+001	2.2552316E-003	1.2540396E-002	1.2741570E-002	7.9805054E+001	-1.413179406461389E-007
2.4232319E+001	2.2419783E+001	1.0929585E+002	1.1157164E+002	-7.8407768E+001	1.260419945200556E+001	-1.7050232E-001	-2.6660953E-003	6.0092670E+001	5.7666183E+001	1.000000000000000E+000	11	9.6651884E-003	8.6627646E-005	0	-2.770175535428401E-004	1.0376649E-001	4.4533500E-004	-6.2175068E+001	5.1407952E+000	2.3995767E+000	4.5464058E+000	-7.7701088E+001	1.1651635E+002	2.4819359E+001	1.1384225E+002	1.8010411E-003	8.7800315E-003	8.9628510E-003	7.8407768E+001	-2.359579386506717E-007
1.6366972E+001	3.9269604E+001	1.5125713E+002	1.5627162E+002	-7.5446098E+001	1.324112254890497E+001	-1.7083772E-001	-3.8102979E-004	6.4288895E+001	6.0229244E+001	1.000000000000000E+000	12	9.6286843E-003	6.1615050E-005	0	-2.777427590914013E-004	1.0055742E-001	4.4607345E-004	-3.4148994E+001	7.2396832E+000	5.9914212E+000	4.0639734E+000	-7.3753723E+001	1.6178136E+002	4.5261024E+001	1.5532111E+002	1.6080380E-003	6.1937775E-003	6.3991146E-003	7.5446098E+001	-7.252055485611674E-007
1.1050212E+001	6.4953087E+001	2.0111923E+002	2.1134770E+002	-7.2101715E+001	1.364688539487543E+001	-1.7036882E-001	-1.0602410E-003	7.1613670E+001	6.4849716E+001	1.000000000000000E+000	12	9.3474304E-003	4.4227738E-005	0	-2.774670966025064E-004	1.0212375E-001	8.7921211E-004	-3.6983486E+001	1.9879202E+001	1.5879683E+001	1.1959026E+001	-6.9225395E+001	2.2789534E+002	8.0832771E+001	2.1307826E+002	1.4541353E-003	4.5025502E-003	4.7315396E-003	7.2101715E+001	2.756624888948988E-007
7.4689322E+000	8.6409019E+001	2.8488004E+002	2.9769641E+002	-7.3126549E+001	1.395467623617151E+001	-1.7055769E-001	-1.4890301E-003	7.4799660E+001	6.8497772E+001	1.000000000000000E+000	12	9.7203488E-003	3.2651886E-005	0	-2.777460694268127E-004	1.0126418E-001	8.0907339E-004	-9.5969437E+001	2.4778765E+001	-2.5769408E+000	2.4644402E+001	-7.4845497E+001	3.2067615E+002	8.3832077E+001	3.0952444E+002	9.7501616E-004	3.2145104E-003	3.3591269E-003	7.3126549E+001	-2.789728243062862E-007
5.0468345E+000	1.3514615E+002	4.0289111E+002	4.2495380E+002	-7.1456444E+001	1.439698244380997E+001	-1.6974273E-001	6.0906395E-004	7.8273254E+001	7.0356682E+001	1.000000000000000E+000	12	9.7172922E-003	2.2866703E-005	0	-2.778708124253268E-004	1.1408135E-001	3.0008645E-004	-1.1115829E+002	1.3123293E+001	-4.7367969E+000	1.2238610E+001	-7.2560349E+001	4.3513135E+002	1.3040935E+002	4.1512973E+002	7.4837659E-004	2.2310240E-003	2.3531970E-003	7.1456444E+001	-1.247429985141687E-007
3.4085953E+000	1.8725177E+002	4.9405957E+002	5.2835413E+002	-6.9242966E+001	1.503837196758832E+001	-1.7037600E-001	2.2181938E-004	9.4507309E+001	8.2636856E+001	1.000000000000000E+000	12	9.2379125E-003	1.7484319E-005	0	-2.778345600849587E-004	1.1751964E-001	5.8509869E-004	7.2826164E+001	3.3464195E+001	9.8810349E+000	-3.1972137E+001	-6.6896240E+001	5.0238046E+002	1.9713281E+002	4.6208743E+002	6.7077327E-004	1.7698200E-003	1.8926699E-003	6.9242966E+001	3.625234036813522E-008
2.3032136E+000	2.8749478E+002	6.9703491E+002	7.5399664E+002	-6.7586105E+001	1.645233686143183E+001	-1.7027380E-001	-5.7465837E-005	9.9136002E+001	8.4723061E+001	1.000000000000000E+000	13	9.2791794E-003	1.2306658E-005	0	-2.777200219017605E-004	1.0579126E-001	2.8247671E-004	1.2935626E+002	2.2953161E+001	-1.4555531E+001	-1.7747793E+001	-6.8109619E+001	7.3207019E+002	2.7293924E+002	6.7928711E+002	5.0569797E-004	1.2260713E-003	1.3262659E-003	6.7586105E+001	1.145381831981537E-007
1.5562749E+000	4.2306229E+002	9.2652466E+002	1.0185429E+003	-6.5457993E+001	1.782592959335307E+001	-1.7027310E-001	-1.1487232E-004	1.1037656E+002	9.1333931E+001	1.000000000000000E+000	13	9.3181403E-003	9.1485008E-006	0	-2.777575822542688E-004	1.0200914E-001	1.4928947E-004	-1.0865443E+002	1.6318462E+001	-5.2196140E+000	1.5461172E+001	-6.6079056E+001	1.0304998E+003	4.1784268E+002	9.4198584E+002	4.0779851E-004	8.9309638E-004	9.8179467E-004	6.5457993E+001	-3.756035250830408E-008
1.0523305E+000	5.8130719E+002	1.2602928E+003	1.3878962E+003	-6.5238594E+001	1.984585104929283E+001	-1.7033376E-001	-7.3437317E-005	1.2000422E+002	9.8952194E+001	1.000000000000000E+000	13	9.5124412E-003	6.8538561E-006	0	-2.779726566168408E-004	1.0441595E-001	1.4769430E-004	-2.3116137E+001	2.1549082E+001	1.9818926E+001	8.4600868E+000	-6.4648743E+001	1.4039539E+003	6.0112610E+002	1.2687529E+003	3.0178085E-004	6.5427070E-004	7.2051497E-004	6.5238594E+001	-2.150743625720054E-007
7.1035653E-001	9.3127478E+002	1.6149630E+003	1.8642367E+003	-6.0029930E+001	2.427910269986023E+001	-1.7017174E-001	8.4290936E-005	1.3873344E+002	1.0411282E+002	1.000000000000000E+000	14	9.4887819E-003	5.0899021E-006	0	-2.781453638982744E-004	9.9888869E-002	2.1783587E-004	-3.3621002E+001	4.2797653E+001	3.5638390E+001	2.3696924E+001	-5.9456703E+001	1.9026632E+003	9.6691315E+002	1.6386599E+003	2.6796359E-004	4.6468698E-004	5.3641258E-004	6.0029930E+001	-1.727072814335594E-007
4.8035541E-001	1.3839626E+003	2.0743713E+003	2.4936658E+003	-5.6289886E+001	2.867722392207361E+001	-1.7034286E-001	8.7963992E-005	1.5972427E+002	1.1052676E+002	1.000000000000000E+000	14	9.5428424E-003	3.8268331E-006	0	-2.781759115840784E-004	9.6431479E-002	1.6781148E-004	-2.6109858E+001	4.3851265E+001	3.9376324E+001	1.9298664E+001	-5.5790970E+001	2.5316689E+003	1.4233390E+003	2.0936699E+003	2.2256041E-004	3.3358770E-004	4.0101606E-004	5.6289886E+001	-3.054768580397407E-008
3.2443938E-001	2.0562837E+003	2.5012722E+003	3.2380034E+003	-5.0576542E+001	3.517920676423819E+001	-1.7037906E-001	9.4105279E-005	1.9612169E+002	1.1702885E+002	1.000000000000000E+000	14	9.5001208E-003	2.9339440E-006	0	-2.780291308677141E-004	1.0605868E-001	1.1269522E-004	-2.0463772E+001	3.8410828E+001	3.5986851E+001	1.3429003E+001	-5.0239017E+001	3.2712869E+003	2.0922705E+003	2.5147012E+003	1.9612297E-004	2.3856481E-004	3.0883230E-004	5.0576542E+001	1.467807163642461E-007
2.1883753E-001	2.9784590E+003	2.8289946E+003	4.1078496E+003	-4.3525726E+001	4.480836818160606E+001	-1.7035154E-001	8.9357854E-005	2.5707877E+002	1.2192741E+002	1.000000000000000E+000	14	9.5240176E-003	2.3184923E-006	0	-2.776546292696294E-004	1.0271590E-001	1.6976525E-004	-5.2040630E+001	7.3222260E+001	4.5039196E+001	5.7731884E+001	-4.3674324E+001	4.1802788E+003	3.0234983E+003	2.8867266E+003	1.7650725E-004	1.6764981E-004	2.4343637E-004	4.3525726E+001	3.745015980847707E-007
