EC-Lab ASCII FILE
Nb header lines : 64                          

Potentio Electrochemical Impedance Spectroscopy

Run on channel : 5 (SN 30436)
User : 
CE vs. WE compliance from -10 V to 10 V
Electrode connection : standard
Potential control : Ewe
Ewe ctrl range : min = -2.50 V, max = 2.50 V
Safety Limits :
	Do not start on E overload
Acquisition started on : 01/23/2023 11:50:29.395
Loaded Setting File :  NONE
Saved on :
	File : 2023_01_23_CoNiFeNx_400ºC_24h_electrode1_set2_20012023_C05.mpr
	Directory : C:\Users\grupogalan\Documents\EC-Lab\Data\Lole Jurado\
	Host : 169.254.104.159
Device : VSP (SN 1176)
Address : USB
EC-Lab for windows v11.46 (software)
Internet server v11.40 (firmware)
Command interpretor v11.40 (firmware)
Electrode material : 
Initial state : 
Electrolyte : 
Comments : 
Electrode surface area : 0.001 cm²
Characteristic mass : 0.001 g
Equivalent Weight : 0.000 g/eq.
Density : 0.000 g/cm3
Volume (V) : 0.001 cm³
Record Ece
Cycle Definition : Charge/Discharge alternance
Mode                Single sine         
E (V)               0.0000              
vs.                 Eoc                 
tE (h:m:s)          0:00:0.0000         
record              0                   
dI                  0.000               
unit dI             mA                  
dt (s)              0.000               
fi                  200.000             
unit fi             kHz                 
ff                  100.000             
unit ff             mHz                 
Nd                  6                   
Points              per decade          
spacing             Logarithmic         
Va (mV)             10.0                
pw                  0.10                
Na                  2                   
corr                0                   
E range min (V)     -2.500              
E range max (V)     2.500               
I Range             Auto                
Bandwidth           5                   
nc cycles           0                   
goto Ns'            0                   
nr cycles           0                   
inc. cycle          0                   

freq/Hz	Re(Z)/Ohm	-Im(Z)/Ohm	|Z|/Ohm	Phase(Z)/deg	time/s	<Ewe>/V	<I>/mA	Cs/µF	Cp/µF	cycle number	I Range	|Ewe|/V	|I|/A	Ns	(Q-Qo)/mA.h	<Ece>/V	|Ece|/V	Phase(Zce)/deg	|Zce|/Ohm	Re(Zce)/Ohm	-Im(Zce)/Ohm	Phase(Zwe-ce)/deg	|Zwe-ce|/Ohm	Re(Zwe-ce)/Ohm	-Im(Zwe-ce)/Ohm	Re(Y)/Ohm-1	Im(Y)/Ohm-1	|Y|/Ohm-1	Phase(Y)/deg	dq/mA.h	
1.9999814E+005	1.7945415E+000	-1.4510797E+000	2.3078153E+000	3.8959267E+001	2.509524919179967E+000	-1.2933952E-001	-1.6686243E-001	-5.4840690E-001	-2.1681201E-001	1.000000000000000E+000	9	7.9130279E-003	3.4287961E-003	0	-3.021607112971186E-005	6.4856537E-002	5.6252172E-003	-1.1100324E+001	1.6405809E+000	1.6098882E+000	3.1585696E-001	1.8441202E+001	3.5887146E+000	3.4044297E+000	-1.1352228E+000	3.3693910E-001	-2.7245149E-001	4.3331024E-001	-3.8959267E+001	-3.021607112971186E-005
1.3512284E+005	1.4414583E+000	-6.5900350E-001	1.5849568E+000	2.4568851E+001	2.886524110421306E+000	-1.2946153E-001	-1.6570701E-001	-1.7873254E+000	-3.0898985E-001	1.000000000000000E+000	9	1.0255355E-002	6.4704320E-003	0	-5.016600262523732E-005	6.9517329E-002	1.3552762E-002	8.4969509E-001	2.0945683E+000	2.0943379E+000	-3.1061260E-002	1.1043333E+001	3.6025052E+000	3.5357962E+000	-6.9006473E-001	5.7380891E-001	-2.6233298E-001	6.3093203E-001	-2.4568851E+001	-1.994993149552546E-005
9.1291195E+004	1.3443966E+000	-2.8636694E-001	1.3745575E+000	1.2024734E+001	3.263544528308557E+000	-1.2965856E-001	-1.5672499E-001	-6.0879116E+000	-2.6423377E-001	1.000000000000000E+000	9	1.0136167E-002	7.3741307E-003	0	-7.177023801419677E-005	6.5658800E-002	1.6394306E-002	3.0369873E+000	2.2232189E+000	2.2200966E+000	-1.1778750E-001	6.4687653E+000	3.5873322E+000	3.5644932E+000	-4.0415442E-001	7.1154374E-001	-1.5156436E-001	7.2750688E-001	-1.2024734E+001	-2.160423538895945E-005
6.1674211E+004	1.3292776E+000	-8.7406650E-002	1.3321482E+000	3.7620683E+000	3.762554685323266E+000	-1.2971871E-001	-1.5318440E-001	-2.9523787E+001	-1.2710303E-001	1.000000000000000E+000	9	9.3890559E-003	7.0480569E-003	0	-9.051025340501736E-005	8.0214217E-002	1.5672443E-002	2.9392507E+000	2.2236545E+000	2.2207291E+000	-1.1402257E-001	3.2475100E+000	3.5557170E+000	3.5500069E+000	-2.0142922E-001	7.4904960E-001	-4.9253758E-002	7.5066721E-001	-3.7620683E+000	-1.874001539082059E-005
4.1669758E+004	1.3458428E+000	5.1175252E-002	1.3468155E+000	-2.1776049E+000	4.261515322403284E+000	-1.2943064E-001	-1.5351982E-001	7.4634422E+001	1.0775637E-001	1.000000000000000E+000	9	9.6657798E-003	7.1767662E-003	0	-1.015081409508647E-004	7.2783701E-002	1.5968163E-002	1.4880608E+000	2.2249801E+000	2.2242298E+000	-5.7779711E-002	1.0599426E-001	3.5700788E+000	3.5700727E+000	-6.6044591E-003	7.4195600E-001	2.8212644E-002	7.4249220E-001	2.1776049E+000	-1.099788754584734E-005
2.8150979E+004	1.3442284E+000	1.0945822E-001	1.3486775E+000	-4.6552262E+000	4.638523153640563E+000	-1.2959835E-001	-1.6473797E-001	5.1650944E+001	3.4021917E-001	1.000000000000000E+000	9	1.0581709E-002	7.8459885E-003	0	-1.133404777404438E-004	7.3337644E-002	1.7627163E-002	8.6450559E-001	2.2466466E+000	2.2463908E+000	-3.3897173E-002	-1.2055553E+000	3.5914140E+000	3.5906191E+000	7.5561047E-002	7.3902112E-001	6.0177222E-002	7.4146712E-001	4.6552262E+000	-1.183233678957913E-005
1.9020934E+004	1.3404351E+000	3.0264735E-001	1.3741767E+000	-1.2723073E+001	5.015542158187600E+000	-1.2958622E-001	-1.6473797E-001	2.7647217E+001	1.3410347E+000	1.000000000000000E+000	9	1.0569544E-002	7.6915459E-003	0	-2.066405342880429E-004	6.2277824E-002	1.6976241E-002	4.0034983E-001	2.2071300E+000	2.2070761E+000	-1.5422025E-002	-4.6288733E+000	3.5591197E+000	3.5475111E+000	2.8722534E-001	7.0984024E-001	1.6026981E-001	7.2770846E-001	1.2723073E+001	-9.330005654759911E-005
1.2850729E+004	1.3844619E+000	4.4736776E-001	1.4549476E+000	-1.7907448E+001	5.392540736094816E+000	-1.2925538E-001	-1.5583055E-001	2.7683928E+001	2.6173534E+000	1.000000000000000E+000	9	1.0145645E-002	6.9732028E-003	0	-2.231046523978520E-004	7.0529707E-002	1.6137566E-002	-1.0572057E+000	2.3142259E+000	2.3138320E+000	4.2699028E-002	-7.5483780E+000	3.7306223E+000	3.6982939E+000	4.9006680E-001	6.5401286E-001	2.1133429E-001	6.8730998E-001	1.7907448E+001	-1.646411810980904E-005
8.6846787E+003	1.4642419E+000	6.7598045E-001	1.6127473E+000	-2.4780834E+001	5.769527580676368E+000	-1.2991202E-001	-1.5053827E-001	2.7110172E+001	4.7628603E+000	1.000000000000000E+000	9	1.0049663E-002	6.2313932E-003	0	-2.280383804473127E-004	7.2134241E-002	1.3897723E-002	-1.4648294E+000	2.2302754E+000	2.2295465E+000	5.7013225E-002	-1.1223937E+001	3.7658138E+000	3.6937885E+000	7.3299366E-001	5.6296343E-001	2.5989714E-001	6.2005997E-001	2.4780834E+001	-4.933728049460713E-006
5.8640142E+003	1.4794134E+000	8.5108900E-001	1.7067561E+000	-2.9911308E+001	6.024519566126401E+000	-1.2979811E-001	-1.5486157E-001	3.1889679E+001	7.9297075E+000	1.000000000000000E+000	9	9.6828369E-003	5.6732399E-003	0	-2.429064679551456E-004	6.6461071E-002	1.2526759E-002	-2.7086105E+000	2.2080431E+000	2.2055762E+000	1.0434453E-001	-1.4535416E+001	3.8068361E+000	3.6849895E+000	9.5543355E-001	5.0786304E-001	2.9216760E-001	5.8590680E-001	2.9911308E+001	-1.486808750783287E-005
3.9600762E+003	1.5695431E+000	1.1993603E+000	1.9753305E+000	-3.7385113E+001	6.325821020480362E+000	-1.2972909E-001	-1.9187032E-001	3.3509422E+001	1.2353406E+001	1.000000000000000E+000	9	9.5202215E-003	4.8195589E-003	0	-2.633818480191080E-004	6.6556580E-002	1.0688217E-002	-3.4968691E+000	2.2176754E+000	2.2135465E+000	1.3526489E-001	-1.9432182E+001	4.0116072E+000	3.7830896E+000	1.3346251E+000	4.0224785E-001	3.0737612E-001	5.0624442E-001	3.7385113E+001	-2.047538006396242E-005
2.6787200E+003	1.5945313E+000	1.7164694E+000	2.3428183E+000	-4.7109146E+001	6.756116000906331E+000	-1.2925903E-001	-1.5635240E-001	3.4614395E+001	1.8580256E+001	1.000000000000000E+000	9	9.0911388E-003	3.8804284E-003	0	-2.786775968715083E-004	7.1255572E-002	9.0282531E-003	-3.8916709E+000	2.3266125E+000	2.3212476E+000	1.5790778E-001	-2.5579176E+001	4.3412685E+000	3.9157789E+000	1.8743773E+000	2.9050648E-001	3.1272230E-001	4.2683634E-001	4.7109146E+001	-1.529574885240030E-005
1.8082643E+003	1.6841484E+000	2.5578134E+000	3.0624771E+000	-5.6637779E+001	7.415094298863551E+000	-1.2945186E-001	-1.6332184E-001	3.4410374E+001	2.4003878E+001	1.000000000000000E+000	9	1.0122132E-002	3.3052105E-003	0	-3.050516863576680E-004	8.6785167E-002	7.6907310E-003	-9.8264904E+000	2.3268507E+000	2.2927136E+000	3.9711216E-001	-3.6613438E+001	4.9544945E+000	3.9768620E+000	2.9549255E+000	1.7957036E-001	2.7272388E-001	3.2653305E-001	5.6637779E+001	-2.637408948615971E-005
1.2219551E+003	1.8276473E+000	3.6653175E+000	4.0957108E+000	-6.3497654E+001	8.103510944842128E+000	-1.2940601E-001	-2.2086285E-002	3.5534752E+001	2.8458889E+001	1.000000000000000E+000	10	1.0506255E-002	2.5651848E-003	0	-3.178484606822280E-004	6.4952046E-002	6.2375665E-003	-6.3608494E+000	2.4316247E+000	2.4166553E+000	2.6939934E-001	-4.2832321E+001	5.7875819E+000	4.2443027E+000	3.9347169E+000	1.0895165E-001	2.1850081E-001	2.4415787E-001	6.3497654E+001	-1.279677432456001E-005
8.2526404E+002	1.9307764E+000	5.0555124E+000	5.4116635E+000	-6.9097389E+001	8.548776006064145E+000	-1.2930706E-001	-2.5836842E-002	3.8147144E+001	3.3291302E+001	1.000000000000000E+000	10	9.7811604E-003	1.8074221E-003	0	-3.210962436992494E-004	6.8199314E-002	4.5427796E-003	-1.4367122E+001	2.5134027E+000	2.4347978E+000	6.2366080E-001	-5.2450562E+001	7.1631870E+000	4.3655739E+000	5.6791735E+000	6.5928079E-002	1.7262496E-001	1.8478607E-001	6.9097389E+001	-3.247783017021398E-006
5.5803571E+002	2.3441024E+000	7.5486641E+000	7.9042487E+000	-7.2748756E+001	8.995544960576808E+000	-1.2971248E-001	-2.5247812E-002	3.7782269E+001	3.4459347E+001	1.000000000000000E+000	10	9.9719577E-003	1.2615946E-003	0	-3.232264579786828E-004	6.9001585E-002	3.4693833E-003	-1.8814058E+001	2.7499986E+000	2.6030667E+000	8.8686895E-001	-5.9609749E+001	9.7791977E+000	4.9471693E+000	8.4355335E+000	3.7519354E-002	1.2082281E-001	1.2651424E-001	7.2748756E+001	-2.130214279433425E-006
3.7705118E+002	2.5517762E+000	1.0926184E+001	1.1220207E+001	-7.6854378E+001	9.438809248327743E+000	-1.2933829E-001	-2.4625214E-002	3.8632366E+001	3.6634186E+001	1.000000000000000E+000	10	9.9426648E-003	8.8613917E-004	0	-3.265962932026838E-004	6.6957712E-002	2.3687012E-003	-1.9958618E+001	2.6730578E+000	2.5125124E+000	9.1242522E-001	-6.6839859E+001	1.2876323E+001	5.0642886E+000	1.1838609E+001	2.0269390E-002	8.6789407E-002	8.9124911E-002	7.6854378E+001	-3.369835224000992E-006
2.5475545E+002	4.1532679E+000	1.6078695E+001	1.6606447E+001	-7.5516586E+001	9.885111322830198E+000	-1.2938008E-001	-2.4722157E-002	3.8854904E+001	3.6424534E+001	1.000000000000000E+000	10	1.0309287E-002	6.2080030E-004	0	-3.292146302718967E-004	6.9020681E-002	2.3175771E-003	-2.7053297E+001	3.7332087E+000	3.3247352E+000	1.6979346E+000	-6.7185219E+001	1.9285463E+001	7.4780030E+000	1.7776630E+001	1.5060400E-002	5.8303867E-002	6.0217578E-002	7.5516586E+001	-2.618337069212840E-006
1.7203688E+002	4.7042675E+000	2.2763321E+001	2.3244331E+001	-7.8323631E+001	1.032547766374773E+001	-1.2962301E-001	-2.8852981E-002	4.0640865E+001	3.8976254E+001	1.000000000000000E+000	10	1.0103446E-002	4.3466280E-004	0	-3.322834850629475E-004	6.6843100E-002	1.2125697E-003	-3.4880013E+001	2.7896791E+000	2.2885172E+000	1.5953052E+000	-7.3982483E+001	2.5342487E+001	6.9927845E+000	2.4358625E+001	8.7067857E-003	4.2130977E-002	4.3021243E-002	7.8323631E+001	-3.068854791050827E-006
1.1622738E+002	5.6537967E+000	3.1157307E+001	3.1666121E+001	-7.9715034E+001	1.100778345619619E+001	-1.2926963E-001	-2.9818686E-003	4.3949284E+001	4.2548267E+001	1.000000000000000E+000	11	9.6808393E-003	3.0571598E-004	0	-3.338529091876036E-004	6.6843100E-002	1.5834153E-003	-3.0827785E+001	5.1793671E+000	4.4475818E+000	2.6542151E+000	-7.3366196E+001	3.5288200E+001	1.0101378E+001	3.3811523E+001	5.6383298E-003	3.1072069E-002	3.1579491E-002	7.9715034E+001	-1.569424124656061E-006
7.8517616E+001	9.0942764E+000	4.4609879E+001	4.5527431E+001	-7.8477440E+001	1.146162907775943E+001	-1.2946059E-001	-2.7958329E-003	4.5438293E+001	4.3625233E+001	1.000000000000000E+000	11	9.7779380E-003	2.1477026E-004	0	-3.343320746447814E-004	7.7119760E-002	1.2277983E-003	-4.4322445E+001	5.7167983E+000	4.0899067E+000	3.9943018E+000	-7.4823364E+001	5.0360588E+001	1.3184183E+001	4.8604179E+001	4.3875473E-003	2.1522103E-002	2.1964779E-002	7.8477440E+001	-4.791654571778049E-007
5.3047844E+001	1.0313760E+001	6.2127693E+001	6.2977962E+001	-8.0574341E+001	1.192220333960722E+001	-1.2937896E-001	-3.0795510E-003	4.8291107E+001	4.6995945E+001	1.000000000000000E+000	11	9.5407646E-003	1.5149370E-004	0	-3.345608612742540E-004	6.7377947E-002	8.4721751E-004	-4.6084751E+001	5.5924273E+000	3.8788717E+000	4.0285974E+000	-7.7891762E+001	6.7661552E+001	1.4192632E+001	6.6156288E+001	2.6003979E-003	1.5664192E-002	1.5878569E-002	8.0574341E+001	-2.287866294726723E-007
3.5837154E+001	1.6983421E+001	9.0696594E+001	9.2273010E+001	-7.9393890E+001	1.235820242695627E+001	-1.2969103E-001	-3.4195634E-003	4.8966118E+001	4.7307308E+001	1.000000000000000E+000	11	9.8294290E-003	1.0652551E-004	0	-3.351681767136567E-004	7.0835337E-002	9.2203700E-004	-6.4165184E+001	8.6555519E+000	3.7718995E+000	7.7904654E+000	-7.8099533E+001	1.0065031E+002	2.0755322E+001	9.8487061E+001	1.9946911E-003	1.0652256E-002	1.0837405E-002	7.9393890E+001	-6.073154394026421E-007
2.4232319E+001	2.5488533E+001	1.2580997E+002	1.2836594E+002	-7.8547150E+001	1.281717434208258E+001	-1.2961648E-001	-3.1634371E-003	5.2204762E+001	5.0146500E+001	1.000000000000000E+000	11	9.7418241E-003	7.5891039E-005	0	-3.355424931870075E-004	6.9345415E-002	4.4058164E-004	-6.4803658E+001	5.8054500E+000	2.4715049E+000	5.2530861E+000	-7.7957458E+001	1.3401227E+002	2.7960037E+001	1.3106305E+002	1.5468393E-003	7.6351133E-003	7.7902288E-003	7.8547150E+001	-3.743164733508147E-007
1.6366972E+001	4.4423264E+001	1.7537720E+002	1.8091597E+002	-7.5785873E+001	1.345419047903852E+001	-1.2959200E-001	-1.1820224E-003	5.5447083E+001	5.2104008E+001	1.000000000000000E+000	12	9.8336982E-003	5.4355060E-005	0	-3.354516325579833E-004	5.5267535E-002	5.9515669E-004	-2.2563339E+001	1.0949426E+001	1.0111312E+001	4.2013440E+000	-7.3107468E+001	1.8767651E+002	5.4534576E+001	1.7957854E+002	1.3572400E-003	5.3582047E-003	5.5274279E-003	7.5785873E+001	9.086062902416295E-008
1.1050212E+001	6.1153534E+001	2.3851762E+002	2.4623244E+002	-7.5619698E+001	1.385980153831770E+001	-1.2959775E-001	-6.0241413E-004	6.0385002E+001	5.6660381E+001	1.000000000000000E+000	12	9.4355093E-003	3.8319522E-005	0	-3.357244358674684E-004	6.9498226E-002	3.6726982E-004	-1.1172986E+002	9.5844049E+000	-3.5484431E+000	8.9033346E+000	-7.6893753E+001	2.5403835E+002	5.7605091E+001	2.4742096E+002	1.0086278E-003	3.9339601E-003	4.0612034E-003	7.5619698E+001	-2.728033094851205E-007
7.4689322E+000	8.1352890E+001	3.3799365E+002	3.4764636E+002	-7.6466698E+001	1.416769149962056E+001	-1.2947510E-001	-1.3707156E-003	6.3045353E+001	5.9592937E+001	1.000000000000000E+000	12	9.6389055E-003	2.7726179E-005	0	-3.355274520800675E-004	6.7186929E-002	7.4967789E-004	-5.3196827E+001	2.7038630E+001	1.6197977E+001	2.1649782E+001	-7.4824051E+001	3.7263867E+002	9.7550865E+001	3.5964343E+002	6.7312800E-004	2.7966180E-003	2.8764864E-003	7.6466698E+001	1.969837874009318E-007
5.0468345E+000	1.3047556E+002	4.7051147E+002	4.8826727E+002	-7.4500999E+001	1.460999450727832E+001	-1.2935239E-001	-2.1552427E-004	6.7024078E+001	6.2238064E+001	1.000000000000000E+000	12	9.8718125E-003	2.0218051E-005	0	-3.355448563527462E-004	6.7893691E-002	4.2578127E-004	8.7010326E+000	2.1059462E+001	2.0817091E+001	-3.1858466E+000	-7.2061089E+001	4.9120535E+002	1.5129265E+002	4.6732562E+002	5.4728542E-004	1.9735813E-003	2.0480587E-003	7.4500999E+001	-1.740427267864393E-008
3.4085953E+000	2.2529558E+002	6.5587592E+002	6.9349213E+002	-7.1042229E+001	1.525133107104921E+001	-1.2962857E-001	-5.5755273E-004	7.1190659E+001	6.3677105E+001	1.000000000000000E+000	12	1.0034236E-002	1.4469142E-005	0	-3.357790828662789E-004	6.1609268E-002	8.7459694E-004	-6.4967072E+001	6.0445667E+001	2.5576921E+001	5.4767689E+001	-7.0555870E+001	7.5362549E+002	2.5087250E+002	7.1064362E+002	4.6845694E-004	1.3637621E-003	1.4419775E-003	7.1042229E+001	-2.342265135327009E-007
2.3032136E+000	2.8871371E+002	9.1030469E+002	9.5499225E+002	-7.2402969E+001	1.666536503154202E+001	-1.2947734E-001	-3.4528057E-004	7.5910027E+001	6.8972031E+001	1.000000000000000E+000	13	9.9071609E-003	1.0374075E-005	0	-3.359728106264956E-004	7.0529707E-002	6.6081865E-004	-8.5695374E+001	6.3699043E+001	4.7812047E+000	6.3519352E+001	-7.3228035E+001	1.0170902E+003	2.9349493E+002	9.7382404E+002	3.1656853E-004	9.9812995E-004	1.0471289E-003	7.2402969E+001	-1.937277602167848E-007
1.5562749E+000	3.9787888E+002	1.2217478E+003	1.2849028E+003	-7.1961449E+001	1.803987509684521E+001	-1.2948710E-001	-3.5294920E-004	8.3705162E+001	7.5678902E+001	1.000000000000000E+000	13	9.7192712E-003	7.5642074E-006	0	-3.359650176453611E-004	6.8772361E-002	7.2107435E-004	-6.7780212E+001	9.5327148E+001	3.6048969E+001	8.8248154E+001	-7.1672874E+001	1.3799938E+003	4.3392786E+002	1.3099960E+003	2.4099631E-004	7.4001576E-004	7.7826896E-004	7.1961449E+001	7.792981134534249E-009
1.0523305E+000	5.8916565E+002	1.6189043E+003	1.7227789E+003	-7.0002106E+001	2.006022385947290E+001	-1.2962988E-001	-3.1595633E-004	9.3421486E+001	8.2495461E+001	1.000000000000000E+000	13	9.7250910E-003	5.6450021E-006	0	-3.359779545444665E-004	7.1599402E-002	5.0314626E-004	-6.2956871E+001	8.9131279E+001	4.0524521E+001	7.9386070E+001	-6.9656281E+001	1.8112703E+003	6.2969019E+002	1.6982904E+003	1.9850812E-004	5.4545893E-004	5.8045750E-004	7.0002106E+001	-1.293689910541540E-008
7.1035653E-001	8.4048914E+002	2.2577920E+003	2.4091589E+003	-6.9581635E+001	3.812195626401808E+001	-1.2962078E-001	-3.5859557E-004	9.9233849E+001	8.7155899E+001	1.000000000000000E+000	13	1.0097682E-002	4.1913727E-006	0	-3.378056408666602E-004	7.1102761E-002	5.9037685E-004	-7.0360550E+001	1.4085526E+002	4.7341465E+001	1.3266118E+002	-6.9624657E+001	2.5500020E+003	8.8783063E+002	2.3904531E+003	1.4481090E-004	3.8900305E-004	4.1508261E-004	6.9581635E+001	-1.827686322193719E-006
4.8035541E-001	1.2654243E+003	3.2648796E+003	3.5015337E+003	-6.8814323E+001	6.430987918790197E+001	-1.2952039E-001	-5.5766205E-004	1.0148229E+002	8.8228317E+001	1.000000000000000E+000	13	1.0256760E-002	2.9292191E-006	0	-3.416958499675824E-004	7.3108427E-002	4.0152474E-004	-5.6950836E+001	1.3707570E+002	7.4755394E+001	1.1489725E+002	-6.8370239E+001	3.6357905E+003	1.3401797E+003	3.3797769E+003	1.0320948E-004	2.6628736E-004	2.8558914E-004	6.8814323E+001	-3.890209100922170E-006
3.2443938E-001	1.9497959E+003	4.2530635E+003	4.6787021E+003	-6.5371147E+001	8.033116674885969E+001	-1.2952276E-001	-5.7368260E-004	1.1534126E+002	9.5309822E+001	1.000000000000000E+000	14	1.0116164E-002	2.1621731E-006	0	-3.447158498588489E-004	7.2917409E-002	5.9111963E-004	-6.3838978E+001	2.7339145E+002	1.2053702E+002	2.4538483E+002	-6.5286568E+001	4.9520010E+003	2.0703330E+003	4.4984482E+003	8.9071415E-005	1.9429029E-004	2.1373449E-004	6.5371147E+001	-3.019999891266511E-006
2.1883753E-001	3.0468743E+003	5.5467158E+003	6.3284673E+003	-6.1219505E+001	8.996034496618086E+001	-1.2954283E-001	-5.8446219E-004	1.3111803E+002	1.0072498E+002	1.000000000000000E+000	14	1.0040273E-002	1.5865252E-006	0	-3.462864507117734E-004	7.3547766E-002	7.0465682E-004	-6.4038506E+001	4.4415106E+002	1.9443466E+002	3.9933109E+002	-6.1404316E+001	6.7721162E+003	3.2413088E+003	5.9460469E+003	7.6077718E-005	1.3849651E-004	1.5801615E-004	6.1219505E+001	-1.570600852924490E-006
